time	V(N008,N005)	V(N009,N004)	V(n001)	V(n002)	V(n003)	V(n004)	V(n005)	V(n006)	V(n007)	V(n008)	V(n009)	I(C1)	I(C2)	I(C3)	I(C4)	I(R1)	I(R2)	I(R3)	I(R4)	I(R5)	I(R6)	I(R7)	I(R8)	I(R9)	I(V1)	I(V2)	I(V3)
0.000000000000000e+000	-7.000000e-002	-7.000000e-002	0.000000e+000	-2.100000e-020	-2.100000e-020	-2.102100e-020	-2.102100e-020	-2.102100e-020	-2.102100e-020	-7.000000e-002	-7.000000e-002	4.200000e-025	4.200000e-025	2.100000e-038	2.100000e-038	-4.579483e-038	-4.579483e-038	0.000000e+000	0.000000e+000	4.200000e-025	4.200000e-025	-4.298951e-038	4.200000e-025	4.200000e-025	-1.261169e-043	-1.261169e-043	-4.200000e-025
1.000000000000000e-003	-7.000000e-002	-7.000000e-002	0.000000e+000	2.946450e-016	2.946450e-016	3.047882e-016	3.047882e-016	3.810810e-011	3.810810e-011	-7.000000e-002	-7.000000e-002	-1.077849e-019	-1.077849e-019	-1.969715e-019	-1.969715e-019	-9.526947e-020	-9.526947e-020	0.000000e+000	-2.465190e-031	-2.028644e-019	-2.028644e-019	-2.676492e-032	-5.892899e-021	-5.892899e-021	9.526947e-020	9.526947e-020	2.028644e-019
1.000000100000000e-003	-7.038267e-002	-6.961733e-002	-5.000000e-001	-4.999984e-001	-1.617712e-006	-2.504973e-001	-2.495027e-001	-2.501146e-001	-2.498854e-001	-3.198854e-001	-3.201146e-001	-1.707382e-005	1.707382e-005	-1.213283e-002	1.213283e-002	-1.029814e-012	1.029814e-012	1.707382e-005	4.972948e-003	-4.990022e-003	4.990022e-003	7.142811e-003	-3.235424e-011	3.235424e-011	1.029809e-012	-1.029818e-012	1.213283e-002
1.000000300000000e-003	-7.132566e-002	-6.867433e-002	-1.500000e+000	-1.499993e+000	-6.990136e-006	-7.514940e-001	-7.485060e-001	-7.501683e-001	-7.498317e-001	-8.198317e-001	-8.201683e-001	-2.983604e-005	2.983604e-005	-3.639835e-002	3.639835e-002	-3.362086e-012	3.362085e-012	2.983604e-005	1.494014e-002	-1.496998e-002	1.496998e-002	2.142837e-002	-1.398027e-010	1.398027e-010	3.362074e-012	-3.362102e-012	3.639835e-002
1.000000452269774e-003	-7.211208e-002	-6.788790e-002	-2.261349e+000	-2.261335e+000	-1.371488e-005	-1.132928e+000	-1.128421e+000	-1.130816e+000	-1.130533e+000	-1.200533e+000	-1.200816e+000	-3.024299e-005	3.024299e-005	-5.487273e-002	5.487273e-002	-5.256436e-012	5.256436e-012	3.024300e-005	2.253790e-002	-2.256814e-002	2.256814e-002	3.230459e-002	-2.742976e-010	2.742976e-010	5.256429e-012	-5.256457e-012	5.487273e-002
1.000000603733507e-003	-7.285666e-002	-6.714344e-002	-3.018667e+000	-3.018643e+000	-2.410992e-005	-1.512343e+000	-1.506324e+000	-1.509487e+000	-1.509181e+000	-1.579181e+000	-1.579487e+000	-2.967199e-005	2.967199e-005	-7.324913e-002	7.324913e-002	-7.153182e-012	7.153182e-012	2.967200e-005	3.009633e-002	-3.012600e-002	3.012600e-002	4.312313e-002	-4.821984e-010	4.821984e-010	7.153176e-012	-7.153204e-012	7.324913e-002
1.000000906660974e-003	-7.437372e-002	-6.562614e-002	-4.533305e+000	-4.533254e+000	-5.133172e-005	-2.271174e+000	-2.262131e+000	-2.266800e+000	-2.266505e+000	-2.336505e+000	-2.336800e+000	-2.982990e-005	2.982990e-005	-1.100016e-001	1.100016e-001	-1.093007e-011	1.093007e-011	2.982991e-005	4.521177e-002	-4.524160e-002	4.524160e-002	6.476004e-002	-1.026634e-009	1.026634e-009	1.093008e-011	-1.093012e-011	1.100016e-001
1.000001000000000e-003	-7.483673e-002	-6.516314e-002	-5.000000e+000	-4.999939e+000	-6.127005e-005	-2.504987e+000	-2.495013e+000	-2.500150e+000	-2.499850e+000	-2.569850e+000	-2.570150e+000	-3.003192e-005	3.003192e-005	-1.213259e-001	1.213259e-001	-1.209185e-011	1.209185e-011	3.003193e-005	4.986900e-002	-4.989904e-002	4.989904e-002	7.142682e-002	-1.225401e-009	1.225401e-009	1.209194e-011	-1.209194e-011	1.213259e-001
1.000001060585493e-003	-7.493806e-002	-6.506205e-002	-5.000000e+000	-4.999931e+000	-6.862061e-005	-2.504988e+000	-2.495012e+000	-2.500050e+000	-2.499950e+000	-2.569950e+000	-2.570050e+000	-1.449645e-005	1.449645e-005	-1.213255e-001	1.213255e-001	-1.228989e-011	1.228988e-011	1.449646e-005	4.988436e-002	-4.989886e-002	4.989886e-002	7.142661e-002	-1.372412e-009	1.372412e-009	1.228991e-011	-1.228994e-011	1.213255e-001
1.000001181756480e-003	-7.500625e-002	-6.499386e-002	-5.000000e+000	-4.999917e+000	-8.332165e-005	-2.504990e+000	-2.495010e+000	-2.499983e+000	-2.500017e+000	-2.570017e+000	-2.569983e+000	-2.030471e-006	2.030471e-006	-1.213247e-001	1.213247e-001	-1.244875e-011	1.244875e-011	2.030484e-006	4.989651e-002	-4.989854e-002	4.989854e-002	7.142619e-002	-1.666433e-009	1.666433e-009	1.244870e-011	-1.244879e-011	1.213247e-001
1.000001424098453e-003	-7.498002e-002	-6.502008e-002	-5.000000e+000	-4.999887e+000	-1.127234e-004	-2.504990e+000	-2.495010e+000	-2.500010e+000	-2.499990e+000	-2.569990e+000	-2.570010e+000	3.730164e-007	-3.730164e-007	-1.213233e-001	1.213233e-001	-1.247924e-011	1.247924e-011	-3.730039e-007	4.989832e-002	-4.989795e-002	4.989795e-002	7.142535e-002	-2.254468e-009	2.254468e-009	1.247919e-011	-1.247930e-011	1.213233e-001
1.000001908782398e-003	-7.499719e-002	-6.500268e-002	-5.000000e+000	-4.999828e+000	-1.715258e-004	-2.504990e+000	-2.495010e+000	-2.499992e+000	-2.500008e+000	-2.570008e+000	-2.569992e+000	-9.747971e-008	9.747971e-008	-1.213204e-001	1.213204e-001	-1.247295e-011	1.247295e-011	9.749222e-008	4.989668e-002	-4.989678e-002	4.989678e-002	7.142367e-002	-3.430516e-009	3.430516e-009	1.247294e-011	-1.247296e-011	1.213204e-001
1.000002722728844e-003	-7.498312e-002	-6.501698e-002	-5.000000e+000	-4.999730e+000	-2.702708e-004	-2.504990e+000	-2.495010e+000	-2.500007e+000	-2.499993e+000	-2.569993e+000	-2.570007e+000	5.704703e-008	-5.704703e-008	-1.213157e-001	1.213157e-001	-1.247443e-011	1.247443e-011	-5.703453e-008	4.989486e-002	-4.989480e-002	4.989480e-002	7.142085e-002	-5.405416e-009	5.405416e-009	1.247444e-011	-1.247442e-011	1.213157e-001
1.000004350621736e-003	-7.499528e-002	-6.500483e-002	-5.000000e+000	-4.999532e+000	-4.677460e-004	-2.504989e+000	-2.495011e+000	-2.499994e+000	-2.500006e+000	-2.570006e+000	-2.569994e+000	-2.289778e-008	2.289778e-008	-1.213061e-001	1.213061e-001	-1.247242e-011	1.247242e-011	2.291029e-008	4.989084e-002	-4.989086e-002	4.989086e-002	7.141521e-002	-9.354920e-009	9.354920e-009	1.247243e-011	-1.247244e-011	1.213061e-001
1.000007606407519e-003	-7.498240e-002	-6.501770e-002	-5.000000e+000	-4.999137e+000	-8.626379e-004	-2.504988e+000	-2.495012e+000	-2.500006e+000	-2.499994e+000	-2.569994e+000	-2.570006e+000	1.285074e-008	-1.285074e-008	-1.212869e-001	1.212869e-001	-1.247091e-011	1.247091e-011	-1.283824e-008	4.988299e-002	-4.988298e-002	4.988298e-002	7.140392e-002	-1.725276e-008	1.725276e-008	1.247089e-011	-1.247093e-011	1.212869e-001
1.000014117979085e-003	-7.499266e-002	-6.500745e-002	-5.000000e+000	-4.998348e+000	-1.652188e-003	-2.504987e+000	-2.495013e+000	-2.499994e+000	-2.500006e+000	-2.570006e+000	-2.569994e+000	-4.062353e-009	4.062353e-009	-1.212486e-001	1.212486e-001	-1.246675e-011	1.246675e-011	4.074858e-009	4.986722e-002	-4.986722e-002	4.986722e-002	7.138137e-002	-3.304375e-008	3.304375e-008	1.246672e-011	-1.246675e-011	1.212486e-001
1.000027141122217e-003	-7.497764e-002	-6.502223e-002	-5.000000e+000	-4.996769e+000	-3.230352e-003	-2.504983e+000	-2.495017e+000	-2.500006e+000	-2.499994e+000	-2.569994e+000	-2.570006e+000	4.163439e-009	-4.163439e-009	-1.211719e-001	1.211719e-001	-1.245898e-011	1.245898e-011	-4.150934e-009	4.983572e-002	-4.983572e-002	4.983572e-002	7.133628e-002	-6.460704e-008	6.460704e-008	1.245897e-011	-1.245897e-011	1.211720e-001
1.000053187408481e-003	-7.498288e-002	-6.501698e-002	-5.000000e+000	-4.993617e+000	-6.382943e-003	-2.504977e+000	-2.495023e+000	-2.499994e+000	-2.500006e+000	-2.570006e+000	-2.569994e+000	1.043645e-010	-1.043645e-010	-1.210189e-001	1.210189e-001	-1.244320e-011	1.244320e-011	-9.187791e-011	4.977280e-002	-4.977280e-002	4.977280e-002	7.124621e-002	-1.276589e-007	1.276589e-007	1.244321e-011	-1.244318e-011	1.210190e-001
1.000105279981010e-003	-7.495904e-002	-6.504083e-002	-5.000000e+000	-4.987327e+000	-1.267321e-002	-2.504965e+000	-2.495035e+000	-2.500006e+000	-2.499994e+000	-2.569994e+000	-2.570006e+000	2.115447e-009	-2.115447e-009	-1.207135e-001	1.207135e-001	-1.241184e-011	1.241184e-011	-2.103017e-009	4.964724e-002	-4.964724e-002	4.964724e-002	7.106648e-002	-2.534642e-007	2.534642e-007	1.241185e-011	-1.241183e-011	1.207137e-001
1.000209465126068e-003	-7.494545e-002	-6.505442e-002	-5.000000e+000	-4.974806e+000	-2.519437e-002	-2.504940e+000	-2.495060e+000	-2.499994e+000	-2.500006e+000	-2.570006e+000	-2.569994e+000	1.104221e-009	-1.104221e-009	-1.201055e-001	1.201055e-001	-1.234934e-011	1.234934e-011	-1.091867e-009	4.939732e-002	-4.939732e-002	4.939732e-002	7.070873e-002	-5.038873e-007	5.038873e-007	1.234936e-011	-1.234936e-011	1.201060e-001
1.000417835416182e-003	-7.488441e-002	-6.511545e-002	-5.000000e+000	-4.949998e+000	-5.000140e-002	-2.504890e+000	-2.495110e+000	-2.500006e+000	-2.499994e+000	-2.569994e+000	-2.570006e+000	1.590896e-009	-1.590896e-009	-1.189011e-001	1.189011e-001	-1.222556e-011	1.222556e-011	-1.578674e-009	4.890217e-002	-4.890217e-002	4.890217e-002	6.999996e-002	-1.000028e-006	1.000028e-006	1.222557e-011	-1.222559e-011	1.189021e-001
1.000834575996412e-003	-7.479882e-002	-6.520104e-002	-5.000000e+000	-4.901308e+000	-9.869184e-002	-2.504793e+000	-2.495207e+000	-2.499994e+000	-2.500006e+000	-2.570006e+000	-2.569994e+000	1.312249e-009	-1.312249e-009	-1.165371e-001	1.165371e-001	-1.198259e-011	1.198259e-011	-1.300255e-009	4.793030e-002	-4.793030e-002	4.793030e-002	6.860881e-002	-1.973837e-006	1.973837e-006	1.198258e-011	-1.198259e-011	1.165391e-001
1.001668057156871e-003	-7.459855e-002	-6.540132e-002	-5.000000e+000	-4.806764e+000	-1.932362e-001	-2.504604e+000	-2.495396e+000	-2.500006e+000	-2.499994e+000	-2.569994e+000	-2.570006e+000	1.354585e-009	-1.354585e-009	-1.119469e-001	1.119469e-001	-1.151081e-011	1.151081e-011	-1.343051e-009	4.604319e-002	-4.604319e-002	4.604319e-002	6.590754e-002	-3.864723e-006	3.864723e-006	1.151081e-011	-1.151082e-011	1.119507e-001
1.002668057156871e-003	-7.439208e-002	-6.560779e-002	-5.000000e+000	-4.697690e+000	-3.023098e-001	-2.504386e+000	-2.495614e+000	-2.499994e+000	-2.500006e+000	-2.570006e+000	-2.569994e+000	1.277272e-009	-1.277272e-009	-1.066512e-001	1.066512e-001	-1.096653e-011	1.096653e-011	-1.266301e-009	4.386607e-002	-4.386607e-002	4.386607e-002	6.279115e-002	-6.046197e-006	6.046197e-006	1.096656e-011	-1.096657e-011	1.066572e-001
1.003668057156871e-003	-7.417297e-002	-6.582689e-002	-5.000000e+000	-4.593567e+000	-4.064333e-001	-2.504179e+000	-2.495821e+000	-2.500006e+000	-2.499994e+000	-2.569994e+000	-2.570006e+000	1.216733e-009	-1.216733e-009	-1.015958e-001	1.015958e-001	-1.044695e-011	1.044695e-011	-1.206303e-009	4.178776e-002	-4.178776e-002	4.178776e-002	5.981619e-002	-8.128667e-006	8.128667e-006	1.044699e-011	-1.044698e-011	1.016039e-001
1.004668057156871e-003	-7.398629e-002	-6.601357e-002	-5.000000e+000	-4.494379e+000	-5.056213e-001	-2.503981e+000	-2.496019e+000	-2.499994e+000	-2.500006e+000	-2.570006e+000	-2.569994e+000	1.159066e-009	-1.159066e-009	-9.678009e-002	9.678009e-002	-9.952004e-012	9.952004e-012	-1.149118e-009	3.980796e-002	-3.980796e-002	3.980796e-002	5.698225e-002	-1.011243e-005	1.011243e-005	9.952026e-012	-9.951981e-012	9.679021e-002
1.005668057156871e-003	-7.378650e-002	-6.621337e-002	-5.000000e+000	-4.399892e+000	-6.001077e-001	-2.503792e+000	-2.496208e+000	-2.500006e+000	-2.499994e+000	-2.569994e+000	-2.570006e+000	1.104127e-009	-1.104127e-009	-9.219264e-002	9.219264e-002	-9.480514e-012	9.480514e-012	-1.094662e-009	3.792201e-002	-3.792200e-002	3.792200e-002	5.428264e-002	-1.200215e-005	1.200215e-005	9.480523e-012	-9.480471e-012	9.220465e-002
1.006668057156871e-003	-7.361817e-002	-6.638169e-002	-5.000000e+000	-4.309885e+000	-6.901153e-001	-2.503613e+000	-2.496387e+000	-2.499994e+000	-2.500006e+000	-2.570006e+000	-2.569994e+000	1.051745e-009	-1.051745e-009	-8.782263e-002	8.782263e-002	-9.031375e-012	9.031374e-012	-1.042764e-009	3.612544e-002	-3.612544e-002	3.612544e-002	5.171099e-002	-1.380231e-005	1.380231e-005	9.031387e-012	-9.031356e-012	8.783644e-002
1.007668057156871e-003	-7.343578e-002	-6.656432e-002	-5.000000e+000	-4.224144e+000	-7.758565e-001	-2.503441e+000	-2.496559e+000	-2.500006e+000	-2.499994e+000	-2.569994e+000	-2.570006e+000	1.001894e-009	-1.001894e-009	-8.365977e-002	8.365977e-002	-8.603523e-012	8.603522e-012	-9.933387e-010	3.441405e-002	-3.441404e-002	3.441404e-002	4.926124e-002	-1.551713e-005	1.551713e-005	8.603524e-012	-8.603528e-012	8.367529e-002
1.009668057156870e-003	-7.311749e-002	-6.688261e-002	-5.000000e+000	-4.064661e+000	-9.353389e-001	-2.503123e+000	-2.496877e+000	-2.500006e+000	-2.499994e+000	-2.569994e+000	-2.570006e+000	9.091536e-010	-9.091536e-010	-7.591666e-002	7.591666e-002	-7.807702e-012	7.807702e-012	-9.013945e-010	3.123076e-002	-3.123076e-002	3.123076e-002	4.470460e-002	-1.870678e-005	1.870678e-005	7.807728e-012	-7.807704e-012	7.593536e-002
1.011668057156870e-003	-7.282877e-002	-6.717134e-002	-5.000000e+000	-3.919940e+000	-1.080060e+000	-2.502834e+000	-2.497166e+000	-2.500006e+000	-2.499994e+000	-2.569994e+000	-2.570006e+000	8.249970e-010	-8.249970e-010	-6.889021e-002	6.889021e-002	-7.085537e-012	7.085537e-012	-8.179484e-010	2.834211e-002	-2.834211e-002	2.834211e-002	4.056970e-002	-2.160121e-005	2.160121e-005	7.085571e-012	-7.085519e-012	6.891181e-002
1.013668057156870e-003	-7.256651e-002	-6.743360e-002	-5.000000e+000	-3.788613e+000	-1.211387e+000	-2.502572e+000	-2.497428e+000	-2.500006e+000	-2.499994e+000	-2.569994e+000	-2.570006e+000	7.486562e-010	-7.486562e-010	-6.251408e-002	6.251408e-002	-6.430212e-012	6.430212e-012	-7.422614e-010	2.572081e-002	-2.572081e-002	2.572081e-002	3.681751e-002	-2.422775e-005	2.422775e-005	6.430226e-012	-6.430209e-012	6.253831e-002
1.016668057156870e-003	-7.222939e-002	-6.777048e-002	-5.000000e+000	-3.614057e+000	-1.385943e+000	-2.502224e+000	-2.497776e+000	-2.499994e+000	-2.500006e+000	-2.570006e+000	-2.569994e+000	6.471623e-010	-6.471623e-010	-5.403915e-002	5.403915e-002	-5.559175e-012	5.559175e-012	-6.416201e-010	2.223667e-002	-2.223667e-002	2.223667e-002	3.183020e-002	-2.771886e-005	2.771886e-005	5.559205e-012	-5.559174e-012	5.406687e-002
1.019668057156870e-003	-7.191706e-002	-6.808305e-002	-5.000000e+000	-3.463166e+000	-1.536834e+000	-2.501923e+000	-2.498077e+000	-2.500006e+000	-2.499994e+000	-2.569994e+000	-2.570006e+000	5.594529e-010	-5.594529e-010	-4.671314e-002	4.671314e-002	-4.806223e-012	4.806223e-012	-5.546212e-010	1.922486e-002	-1.922486e-002	1.922486e-002	2.751902e-002	-3.073669e-005	3.073669e-005	4.806227e-012	-4.806190e-012	4.674388e-002
1.022668057156869e-003	-7.166791e-002	-6.833220e-002	-5.000000e+000	-3.332731e+000	-1.667270e+000	-2.501662e+000	-2.498338e+000	-2.499994e+000	-2.500006e+000	-2.570006e+000	-2.569994e+000	4.836238e-010	-4.836238e-010	-4.038032e-002	4.038032e-002	-4.155348e-012	4.155348e-012	-4.794174e-010	1.662137e-002	-1.662137e-002	1.662137e-002	2.379230e-002	-3.334539e-005	3.334539e-005	4.155354e-012	-4.155323e-012	4.041366e-002
1.025668057156869e-003	-7.143164e-002	-6.856847e-002	-5.000000e+000	-3.219978e+000	-1.780022e+000	-2.501437e+000	-2.498563e+000	-2.500006e+000	-2.499994e+000	-2.569994e+000	-2.570006e+000	4.180265e-010	-4.180265e-010	-3.490602e-002	3.490602e-002	-3.592710e-012	3.592710e-012	-4.144454e-010	1.437082e-002	-1.437082e-002	1.437082e-002	2.057080e-002	-3.560044e-005	3.560044e-005	3.592736e-012	-3.592719e-012	3.494162e-002
1.028668057156869e-003	-7.124829e-002	-6.875181e-002	-5.000000e+000	-3.122511e+000	-1.877489e+000	-2.501243e+000	-2.498757e+000	-2.499994e+000	-2.500006e+000	-2.570006e+000	-2.569994e+000	3.613820e-010	-3.613820e-010	-3.017387e-002	3.017387e-002	-3.106349e-012	3.106349e-012	-3.582556e-010	1.242538e-002	-1.242538e-002	1.242538e-002	1.778604e-002	-3.754977e-005	3.754977e-005	3.106364e-012	-3.106348e-012	3.021142e-002
1.031668057156869e-003	-7.106876e-002	-6.893134e-002	-5.000000e+000	-3.038258e+000	-1.961742e+000	-2.501074e+000	-2.498926e+000	-2.500006e+000	-2.499994e+000	-2.569994e+000	-2.570006e+000	3.123546e-010	-3.123546e-010	-2.608324e-002	2.608324e-002	-2.685922e-012	2.685923e-012	-3.097114e-010	1.074367e-002	-1.074367e-002	1.074367e-002	1.537880e-002	-3.923484e-005	3.923484e-005	2.685953e-012	-2.685916e-012	2.612248e-002
1.034668057156868e-003	-7.093477e-002	-6.906533e-002	-5.000000e+000	-2.965427e+000	-2.034573e+000	-2.500929e+000	-2.499071e+000	-2.499994e+000	-2.500006e+000	-2.570006e+000	-2.569994e+000	2.700347e-010	-2.700347e-010	-2.254718e-002	2.254718e-002	-2.322493e-012	2.322493e-012	-2.677041e-010	9.289958e-003	-9.289958e-003	9.289958e-003	1.329791e-002	-4.069146e-005	4.069146e-005	2.322504e-012	-2.322445e-012	2.258787e-002
1.037668057156868e-003	-7.079792e-002	-6.920218e-002	-5.000000e+000	-2.902469e+000	-2.097531e+000	-2.500803e+000	-2.499197e+000	-2.500006e+000	-2.499994e+000	-2.569994e+000	-2.570006e+000	2.334559e-010	-2.334559e-010	-1.949049e-002	1.949049e-002	-2.008333e-012	2.008333e-012	-2.314096e-010	8.033319e-003	-8.033319e-003	8.033319e-003	1.149912e-002	-4.195061e-005	4.195061e-005	2.008358e-012	-2.008328e-012	1.953244e-002
1.040668057156868e-003	-7.070041e-002	-6.929970e-002	-5.000000e+000	-2.848047e+000	-2.151953e+000	-2.500695e+000	-2.499305e+000	-2.499994e+000	-2.500006e+000	-2.570006e+000	-2.569994e+000	2.017941e-010	-2.017941e-010	-1.684820e-002	1.684820e-002	-1.736763e-012	1.736763e-012	-2.000036e-010	6.947041e-003	-6.947041e-003	6.947041e-003	9.944194e-003	-4.303906e-005	4.303906e-005	1.736737e-012	-1.736776e-012	1.689124e-002
1.043668057156868e-003	-7.059526e-002	-6.940484e-002	-5.000000e+000	-2.801002e+000	-2.198998e+000	-2.500601e+000	-2.499399e+000	-2.500006e+000	-2.499994e+000	-2.569994e+000	-2.570006e+000	1.743956e-010	-1.743956e-010	-1.456411e-002	1.456411e-002	-1.502009e-012	1.502009e-012	-1.729177e-010	6.008029e-003	-6.008029e-003	6.008029e-003	8.600064e-003	-4.397996e-005	4.397996e-005	1.502010e-012	-1.501994e-012	1.460809e-002
1.046668057156867e-003	-7.052541e-002	-6.947470e-002	-5.000000e+000	-2.760335e+000	-2.239665e+000	-2.500520e+000	-2.499480e+000	-2.499994e+000	-2.500006e+000	-2.570006e+000	-2.569994e+000	1.507772e-010	-1.507772e-010	-1.258968e-002	1.258968e-002	-1.299081e-012	1.299081e-012	-1.494413e-010	5.196316e-003	-5.196316e-003	5.196316e-003	7.438155e-003	-4.479329e-005	4.479329e-005	1.299105e-012	-1.299075e-012	1.263447e-002
1.049668057156867e-003	-7.044411e-002	-6.955600e-002	-5.000000e+000	-2.725182e+000	-2.274818e+000	-2.500450e+000	-2.499550e+000	-2.500006e+000	-2.499994e+000	-2.569994e+000	-2.570006e+000	1.303135e-010	-1.303135e-010	-1.088291e-002	1.088291e-002	-1.123663e-012	1.123663e-012	-1.292335e-010	4.494647e-003	-4.494646e-003	4.494646e-003	6.433765e-003	-4.549637e-005	4.549637e-005	1.123674e-012	-1.123665e-012	1.092841e-002
1.052668057156867e-003	-7.039452e-002	-6.960559e-002	-5.000000e+000	-2.694794e+000	-2.305206e+000	-2.500389e+000	-2.499611e+000	-2.499994e+000	-2.500006e+000	-2.570006e+000	-2.569994e+000	1.126637e-010	-1.126637e-010	-9.407535e-003	9.407535e-003	-9.720264e-013	9.720268e-013	-1.116689e-010	3.888101e-003	-3.888101e-003	3.888101e-003	5.565539e-003	-4.610412e-005	4.610412e-005	9.720514e-013	-9.720215e-013	9.453639e-003
1.055668057156867e-003	-7.033086e-002	-6.966925e-002	-5.000000e+000	-2.668525e+000	-2.331475e+000	-2.500336e+000	-2.499664e+000	-2.500006e+000	-2.499994e+000	-2.569994e+000	-2.570006e+000	9.737278e-011	-9.737278e-011	-8.132170e-003	8.132170e-003	-8.409469e-013	8.409474e-013	-9.654855e-011	3.363784e-003	-3.363784e-003	3.363784e-003	4.815016e-003	-4.662949e-005	4.662949e-005	8.409378e-013	-8.409218e-013	8.178800e-003
1.058668057156866e-003	-7.029676e-002	-6.970334e-002	-5.000000e+000	-2.645818e+000	-2.354182e+000	-2.500291e+000	-2.499709e+000	-2.499994e+000	-2.500006e+000	-2.570006e+000	-2.569994e+000	8.418510e-011	-8.418510e-011	-7.029705e-003	7.029705e-003	-7.276377e-013	7.276382e-013	-8.341772e-011	2.910547e-003	-2.910547e-003	2.910547e-003	4.166241e-003	-4.708363e-005	4.708363e-005	7.276258e-013	-7.275960e-013	7.076788e-003
