time	V(N008,N005)	V(N009,N004)	V(n001)	V(n002)	V(n003)	V(n004)	V(n005)	V(n006)	V(n007)	V(n008)	V(n009)	I(C1)	I(C2)	I(C3)	I(C4)	I(R0)	I(R1)	I(R2)	I(R3)	I(R4)	I(R5)	I(R6)	I(R7)	I(R8)	I(V1)	I(V2)	I(V3)
0.000000000000000e+000	-7.000000e-002	-7.000000e-002	0.000000e+000	-2.100000e-020	-2.100000e-020	-2.102100e-020	-2.102100e-020	-2.102100e-020	-2.102100e-020	-7.000000e-002	-7.000000e-002	4.200000e-025	4.200000e-025	2.100000e-038	2.100000e-038	4.200000e-025	-4.361351e-036	-4.361351e-036	0.000000e+000	0.000000e+000	-4.298951e-038	4.200000e-025	4.200000e-025	4.200000e-025	-1.261169e-043	-1.261169e-043	-4.200000e-025
1.000000000000000e-003	-7.000000e-002	-7.000000e-002	0.000000e+000	-7.919646e-017	-7.919646e-017	-1.309967e-015	-1.309967e-015	-9.565618e-012	-9.565618e-012	-7.000000e-002	-7.000000e-002	2.459170e-017	2.459170e-017	2.461404e-017	2.461404e-017	2.461541e-017	2.391077e-020	2.391077e-020	0.000000e+000	0.000000e+000	-6.515146e-033	2.461541e-017	1.583929e-021	1.583929e-021	-2.391077e-020	-2.391077e-020	-2.461562e-017
1.000000100000000e-003	-7.049406e-002	-6.950593e-002	-5.000000e-001	-4.999984e-001	-1.617713e-006	-2.504970e-001	-2.495030e-001	-2.500030e-001	-2.499970e-001	-3.199970e-001	-3.200030e-001	-1.984031e-005	1.984031e-005	-1.213284e-002	1.213284e-002	-4.990027e-003	-1.237587e-012	1.237587e-012	1.984031e-005	4.970187e-003	7.142811e-003	4.990027e-003	-3.235426e-011	3.235426e-011	1.237607e-012	-1.237654e-012	1.213284e-002
1.000000300000000e-003	-7.149100e-002	-6.850898e-002	-1.500000e+000	-1.499993e+000	-6.990138e-006	-7.514941e-001	-7.485059e-001	-7.500030e-001	-7.499970e-001	-8.199970e-001	-8.200030e-001	-2.994092e-005	2.994092e-005	-3.639835e-002	3.639835e-002	-1.496998e-002	-3.727525e-012	3.727525e-012	2.994092e-005	1.494004e-002	2.142837e-002	1.496998e-002	-1.398028e-010	1.398028e-010	3.727367e-012	-3.727520e-012	3.639835e-002
1.000000906660728e-003	-7.451820e-002	-6.548166e-002	-4.533304e+000	-4.533252e+000	-5.133170e-005	-2.271173e+000	-2.262131e+000	-2.266655e+000	-2.266649e+000	-2.336649e+000	-2.336655e+000	-2.993328e-005	2.993328e-005	-1.100016e-001	1.100016e-001	-4.524159e-002	-1.129543e-011	1.129543e-011	2.993329e-005	4.521165e-002	6.476001e-002	4.524159e-002	-1.026634e-009	1.026634e-009	1.129443e-011	-1.129593e-011	1.100016e-001
1.000001000000000e-003	-7.498384e-002	-6.501627e-002	-5.000000e+000	-4.999939e+000	-6.127005e-005	-2.504987e+000	-2.495013e+000	-2.500003e+000	-2.499997e+000	-2.569997e+000	-2.570003e+000	-3.024261e-005	3.024261e-005	-1.213259e-001	1.213259e-001	-4.989904e-002	-1.245964e-011	1.245964e-011	3.024263e-005	4.986880e-002	7.142682e-002	4.989904e-002	-1.225401e-009	1.225401e-009	1.245970e-011	-1.246148e-011	1.213259e-001
1.000001060585470e-003	-7.498884e-002	-6.501126e-002	-5.000000e+000	-4.999931e+000	-6.862060e-005	-2.504989e+000	-2.495011e+000	-2.500000e+000	-2.500000e+000	-2.570000e+000	-2.570000e+000	-1.027931e-005	1.027931e-005	-1.213255e-001	1.213255e-001	-4.989885e-002	-1.246957e-011	1.246957e-011	1.027932e-005	4.988857e-002	7.142661e-002	4.989885e-002	-1.372412e-009	1.372412e-009	1.246932e-011	-1.247157e-011	1.213255e-001
1.000001181756411e-003	-7.499003e-002	-6.501007e-002	-5.000000e+000	-4.999917e+000	-8.332165e-005	-2.504990e+000	-2.495010e+000	-2.500000e+000	-2.500000e+000	-2.570000e+000	-2.570000e+000	-4.195954e-009	4.195954e-009	-1.213247e-001	1.213247e-001	-4.989854e-002	-1.247463e-011	1.247463e-011	4.208421e-009	4.989853e-002	7.142619e-002	4.989854e-002	-1.666433e-009	1.666433e-009	1.247408e-011	-1.247602e-011	1.213247e-001
1.000001419835188e-003	-7.498956e-002	-6.501055e-002	-5.000000e+000	-4.999888e+000	-1.122062e-004	-2.504990e+000	-2.495010e+000	-2.500000e+000	-2.500000e+000	-2.570000e+000	-2.570000e+000	4.278926e-009	-4.278926e-009	-1.213233e-001	1.213233e-001	-4.989796e-002	-1.247449e-011	1.247449e-011	-4.266468e-009	4.989797e-002	7.142536e-002	4.989796e-002	-2.244124e-009	2.244124e-009	1.247470e-011	-1.247524e-011	1.213233e-001
1.000001895992743e-003	-7.498980e-002	-6.501031e-002	-5.000000e+000	-4.999830e+000	-1.699740e-004	-2.504990e+000	-2.495010e+000	-2.500000e+000	-2.500000e+000	-2.570000e+000	-2.570000e+000	6.464992e-011	-6.464992e-011	-1.213205e-001	1.213205e-001	-4.989681e-002	-1.247420e-011	1.247420e-011	-5.217278e-011	4.989681e-002	7.142372e-002	4.989681e-002	-3.399481e-009	3.399481e-009	1.247513e-011	-1.247510e-011	1.213205e-001
1.000002848307852e-003	-7.498932e-002	-6.501079e-002	-5.000000e+000	-4.999714e+000	-2.855047e-004	-2.504989e+000	-2.495011e+000	-2.500000e+000	-2.500000e+000	-2.570000e+000	-2.570000e+000	2.140922e-009	-2.140922e-009	-1.213149e-001	1.213149e-001	-4.989450e-002	-1.247363e-011	1.247363e-011	-2.128445e-009	4.989450e-002	7.142042e-002	4.989450e-002	-5.710095e-009	5.710095e-009	1.247381e-011	-1.247431e-011	1.213149e-001
1.000019989979815e-003	-7.498537e-002	-6.501473e-002	-5.000000e+000	-4.997636e+000	-2.363911e-003	-2.504985e+000	-2.495015e+000	-2.500000e+000	-2.500000e+000	-2.570000e+000	-2.570000e+000	1.713909e-009	-1.713909e-009	-1.212140e-001	1.212140e-001	-4.985301e-002	-1.246326e-011	1.246326e-011	-1.701447e-009	4.985302e-002	7.136103e-002	4.985301e-002	-4.727822e-008	4.727822e-008	1.246306e-011	-1.246347e-011	1.212140e-001
1.000037131651779e-003	-7.498137e-002	-6.501874e-002	-5.000000e+000	-4.995560e+000	-4.440164e-003	-2.504981e+000	-2.495019e+000	-2.500000e+000	-2.500000e+000	-2.570000e+000	-2.570000e+000	1.396575e-009	-1.396575e-009	-1.211132e-001	1.211132e-001	-4.981157e-002	-1.245289e-011	1.245289e-011	-1.384128e-009	4.981158e-002	7.130171e-002	4.981157e-002	-8.880327e-008	8.880327e-008	1.245245e-011	-1.245278e-011	1.211133e-001
1.000054273323742e-003	-7.497731e-002	-6.502280e-002	-5.000000e+000	-4.993486e+000	-6.514262e-003	-2.504977e+000	-2.495023e+000	-2.500000e+000	-2.500000e+000	-2.570000e+000	-2.570000e+000	1.188921e-009	-1.188921e-009	-1.210125e-001	1.210125e-001	-4.977017e-002	-1.244254e-011	1.244254e-011	-1.176486e-009	4.977018e-002	7.124245e-002	4.977017e-002	-1.302852e-007	1.302852e-007	1.244199e-011	-1.244225e-011	1.210126e-001
1.000071414995706e-003	-7.497318e-002	-6.502692e-002	-5.000000e+000	-4.991414e+000	-8.586207e-003	-2.504973e+000	-2.495027e+000	-2.500000e+000	-2.500000e+000	-2.570000e+000	-2.570000e+000	1.090946e-009	-1.090946e-009	-1.209119e-001	1.209119e-001	-4.972882e-002	-1.243221e-011	1.243221e-011	-1.078521e-009	4.972882e-002	7.118325e-002	4.972882e-002	-1.717241e-007	1.717241e-007	1.243167e-011	-1.243189e-011	1.209121e-001
1.000088556667669e-003	-7.496900e-002	-6.503110e-002	-5.000000e+000	-4.989344e+000	-1.065600e-002	-2.504969e+000	-2.495031e+000	-2.500000e+000	-2.500000e+000	-2.570000e+000	-2.570000e+000	1.102650e-009	-1.102650e-009	-1.208114e-001	1.208114e-001	-4.968750e-002	-1.242188e-011	1.242188e-011	-1.090235e-009	4.968751e-002	7.112412e-002	4.968750e-002	-2.131199e-007	2.131199e-007	1.242148e-011	-1.242169e-011	1.208116e-001
1.000105698339633e-003	-7.496477e-002	-6.503534e-002	-5.000000e+000	-4.987277e+000	-1.272363e-002	-2.504965e+000	-2.495035e+000	-2.500000e+000	-2.500000e+000	-2.570000e+000	-2.570000e+000	1.224034e-009	-1.224034e-009	-1.207110e-001	1.207110e-001	-4.964623e-002	-1.241156e-011	1.241156e-011	-1.211626e-009	4.964624e-002	7.106504e-002	4.964623e-002	-2.544727e-007	2.544727e-007	1.241144e-011	-1.241164e-011	1.207113e-001
1.000122840011596e-003	-7.496047e-002	-6.503963e-002	-5.000000e+000	-4.985211e+000	-1.478912e-002	-2.504961e+000	-2.495039e+000	-2.500000e+000	-2.500000e+000	-2.570000e+000	-2.570000e+000	1.455097e-009	-1.455097e-009	-1.206107e-001	1.206107e-001	-4.960501e-002	-1.240125e-011	1.240125e-011	-1.442695e-009	4.960501e-002	7.100603e-002	4.960501e-002	-2.957823e-007	2.957823e-007	1.240154e-011	-1.240176e-011	1.206110e-001
1.000244736345559e-003	-7.493162e-002	-6.506848e-002	-5.000000e+000	-4.970584e+000	-2.941542e-002	-2.504931e+000	-2.495069e+000	-2.500000e+000	-2.500000e+000	-2.570000e+000	-2.570000e+000	1.430588e-009	-1.430588e-009	-1.199006e-001	1.199006e-001	-4.931306e-002	-1.232827e-011	1.232827e-011	-1.418262e-009	4.931307e-002	7.058813e-002	4.931306e-002	-5.883084e-007	5.883084e-007	1.232813e-011	-1.232883e-011	1.199012e-001
1.000488529013485e-003	-7.487345e-002	-6.512666e-002	-5.000000e+000	-4.941653e+000	-5.834698e-002	-2.504874e+000	-2.495126e+000	-2.500000e+000	-2.500000e+000	-2.570000e+000	-2.570000e+000	1.421758e-009	-1.421758e-009	-1.184959e-001	1.184959e-001	-4.873559e-002	-1.218390e-011	1.218390e-011	-1.409584e-009	4.873559e-002	6.976151e-002	4.873559e-002	-1.166940e-006	1.166940e-006	1.218350e-011	-1.218489e-011	1.184971e-001
1.000976114349336e-003	-7.476091e-002	-6.523919e-002	-5.000000e+000	-4.885046e+000	-1.149538e-001	-2.504761e+000	-2.495239e+000	-2.500000e+000	-2.500000e+000	-2.570000e+000	-2.570000e+000	1.384857e-009	-1.384857e-009	-1.157476e-001	1.157476e-001	-4.760572e-002	-1.190143e-011	1.190143e-011	-1.372977e-009	4.760572e-002	6.814418e-002	4.760572e-002	-2.299076e-006	2.299076e-006	1.189982e-011	-1.190140e-011	1.157499e-001
1.001951285021038e-003	-7.454181e-002	-6.545830e-002	-5.000000e+000	-4.775459e+000	-2.245405e-001	-2.504542e+000	-2.495458e+000	-2.500000e+000	-2.500000e+000	-2.570000e+000	-2.570000e+000	1.322507e-009	-1.322507e-009	-1.104270e-001	1.104270e-001	-4.541835e-002	-1.135459e-011	1.135459e-011	-1.311164e-009	4.541835e-002	6.501313e-002	4.541835e-002	-4.490811e-006	4.490811e-006	1.135349e-011	-1.135352e-011	1.104315e-001
1.002951285021038e-003	-7.432699e-002	-6.567311e-002	-5.000000e+000	-4.667682e+000	-3.323179e-001	-2.504327e+000	-2.495673e+000	-2.500000e+000	-2.500000e+000	-2.570000e+000	-2.570000e+000	1.259821e-009	-1.259821e-009	-1.051942e-001	1.051942e-001	-4.326711e-002	-1.081678e-011	1.081678e-011	-1.248992e-009	4.326711e-002	6.193377e-002	4.326711e-002	-6.646358e-006	6.646358e-006	1.081791e-011	-1.081681e-011	1.052009e-001
1.003951285021038e-003	-7.412171e-002	-6.587839e-002	-5.000000e+000	-4.564981e+000	-4.350190e-001	-2.504122e+000	-2.495878e+000	-2.500000e+000	-2.500000e+000	-2.570000e+000	-2.570000e+000	1.200107e-009	-1.200107e-009	-1.002079e-001	1.002079e-001	-4.121719e-002	-1.030430e-011	1.030430e-011	-1.189790e-009	4.121719e-002	5.899946e-002	4.121719e-002	-8.700380e-006	8.700380e-006	1.030580e-011	-1.030541e-011	1.002166e-001
1.004951285021037e-003	-7.392645e-002	-6.607366e-002	-5.000000e+000	-4.467148e+000	-5.328520e-001	-2.503926e+000	-2.496074e+000	-2.500000e+000	-2.500000e+000	-2.570000e+000	-2.570000e+000	1.143206e-009	-1.143206e-009	-9.545800e-002	9.545800e-002	-3.926443e-002	-9.816109e-012	9.816109e-012	-1.133387e-009	3.926443e-002	5.620423e-002	3.926443e-002	-1.065704e-005	1.065704e-005	9.817470e-012	-9.818410e-012	9.546866e-002
1.005951285021037e-003	-7.374024e-002	-6.625986e-002	-5.000000e+000	-4.373952e+000	-6.260476e-001	-2.503740e+000	-2.496260e+000	-2.500000e+000	-2.500000e+000	-2.570000e+000	-2.570000e+000	1.089006e-009	-1.089006e-009	-9.093322e-002	9.093322e-002	-3.740424e-002	-9.351061e-012	9.351061e-012	-1.079670e-009	3.740424e-002	5.354150e-002	3.740424e-002	-1.252095e-005	1.252095e-005	9.352368e-012	-9.353308e-012	9.094574e-002
1.006951285021037e-003	-7.356358e-002	-6.643653e-002	-5.000000e+000	-4.285174e+000	-7.148256e-001	-2.503563e+000	-2.496437e+000	-2.500000e+000	-2.500000e+000	-2.570000e+000	-2.570000e+000	1.037392e-009	-1.037392e-009	-8.662291e-002	8.662291e-002	-3.563222e-002	-8.908056e-012	8.908057e-012	-1.028496e-009	3.563222e-002	5.100498e-002	3.563222e-002	-1.429651e-005	1.429651e-005	8.909070e-012	-8.909122e-012	8.663721e-002
1.008951285021037e-003	-7.323384e-002	-6.676626e-002	-5.000000e+000	-4.120043e+000	-8.799568e-001	-2.503234e+000	-2.496766e+000	-2.500000e+000	-2.500000e+000	-2.570000e+000	-2.570000e+000	9.413981e-010	-9.413981e-010	-7.860555e-002	7.860555e-002	-3.233619e-002	-8.084048e-012	8.084049e-012	-9.333121e-010	3.233619e-002	4.628695e-002	3.233619e-002	-1.759914e-005	1.759914e-005	8.082512e-012	-8.082565e-012	7.862314e-002
1.010951285021037e-003	-7.293463e-002	-6.706548e-002	-5.000000e+000	-3.970196e+000	-1.029804e+000	-2.502934e+000	-2.497066e+000	-2.500000e+000	-2.500000e+000	-2.570000e+000	-2.570000e+000	8.542429e-010	-8.542429e-010	-7.133022e-002	7.133022e-002	-2.934523e-002	-7.336306e-012	7.336308e-012	-8.469385e-010	2.934523e-002	4.200559e-002	2.934523e-002	-2.059609e-005	2.059609e-005	7.335794e-012	-7.333627e-012	7.135081e-002
1.012951285021037e-003	-7.266331e-002	-6.733680e-002	-5.000000e+000	-3.834218e+000	-1.165783e+000	-2.502663e+000	-2.497337e+000	-2.500000e+000	-2.500000e+000	-2.570000e+000	-2.570000e+000	7.751879e-010	-7.751879e-010	-6.472827e-002	6.472827e-002	-2.663109e-002	-6.657771e-012	6.657773e-012	-7.685372e-010	2.663109e-002	3.812050e-002	2.663109e-002	-2.331565e-005	2.331565e-005	6.657245e-012	-6.656853e-012	6.475158e-002
1.015951285021037e-003	-7.230234e-002	-6.769776e-002	-5.000000e+000	-3.653479e+000	-1.346521e+000	-2.502302e+000	-2.497698e+000	-2.500000e+000	-2.500000e+000	-2.570000e+000	-2.570000e+000	6.700986e-010	-6.700986e-010	-5.595316e-002	5.595316e-002	-2.302354e-002	-5.755883e-012	5.755887e-012	-6.643575e-010	2.302354e-002	3.295655e-002	2.302354e-002	-2.693041e-005	2.693041e-005	5.757017e-012	-5.756626e-012	5.598009e-002
1.018951285021036e-003	-7.199073e-002	-6.800938e-002	-5.000000e+000	-3.497243e+000	-1.502756e+000	-2.501991e+000	-2.498009e+000	-2.500000e+000	-2.500000e+000	-2.570000e+000	-2.570000e+000	5.792629e-010	-5.792629e-010	-4.836768e-002	4.836768e-002	-1.990506e-002	-4.976262e-012	4.976268e-012	-5.742606e-010	1.990506e-002	2.849267e-002	1.990506e-002	-3.005513e-005	3.005513e-005	4.976925e-012	-4.976978e-012	4.839773e-002
1.021951285021036e-003	-7.172084e-002	-6.827927e-002	-5.000000e+000	-3.362188e+000	-1.637812e+000	-2.501721e+000	-2.498279e+000	-2.500000e+000	-2.500000e+000	-2.570000e+000	-2.570000e+000	5.007195e-010	-5.007195e-010	-4.181055e-002	4.181055e-002	-1.720935e-002	-4.302335e-012	4.302340e-012	-4.964278e-010	1.720935e-002	2.463395e-002	1.720935e-002	-3.275623e-005	3.275623e-005	4.302191e-012	-4.302688e-012	4.184330e-002
1.024951285021036e-003	-7.148814e-002	-6.851196e-002	-5.000000e+000	-3.245442e+000	-1.754558e+000	-2.501488e+000	-2.498512e+000	-2.500000e+000	-2.500000e+000	-2.570000e+000	-2.570000e+000	4.328342e-010	-4.328342e-010	-3.614236e-002	3.614236e-002	-1.487909e-002	-3.719769e-012	3.719776e-012	-4.291252e-010	1.487909e-002	2.129835e-002	1.487909e-002	-3.509115e-005	3.509115e-005	3.720969e-012	-3.719245e-012	3.617745e-002
1.027951285021036e-003	-7.128644e-002	-6.871367e-002	-5.000000e+000	-3.144524e+000	-1.855476e+000	-2.501287e+000	-2.498713e+000	-2.500000e+000	-2.500000e+000	-2.570000e+000	-2.570000e+000	3.741576e-010	-3.741576e-010	-3.124259e-002	3.124259e-002	-1.286474e-002	-3.216182e-012	3.216190e-012	-3.709459e-010	1.286474e-002	1.841496e-002	1.286474e-002	-3.710953e-005	3.710953e-005	3.217120e-012	-3.215840e-012	3.127970e-002
1.030951285021035e-003	-7.111263e-002	-6.888747e-002	-5.000000e+000	-3.057286e+000	-1.942714e+000	-2.501112e+000	-2.498888e+000	-2.500000e+000	-2.500000e+000	-2.570000e+000	-2.570000e+000	3.234533e-010	-3.234533e-010	-2.700708e-002	2.700708e-002	-1.112348e-002	-2.780865e-012	2.780874e-012	-3.206537e-010	1.112348e-002	1.592246e-002	1.112348e-002	-3.885428e-005	3.885428e-005	2.783690e-012	-2.781966e-012	2.704594e-002
1.033951285021035e-003	-7.096171e-002	-6.903839e-002	-5.000000e+000	-2.981875e+000	-2.018125e+000	-2.500962e+000	-2.499038e+000	-2.500000e+000	-2.500000e+000	-2.570000e+000	-2.570000e+000	2.795986e-010	-2.795986e-010	-2.334577e-002	2.334577e-002	-9.618270e-003	-2.404562e-012	2.404573e-012	-2.771827e-010	9.618270e-003	1.376787e-002	9.618270e-003	-4.036249e-005	4.036249e-005	2.404027e-012	-2.404080e-012	2.338614e-002
1.036951285021035e-003	-7.083178e-002	-6.916833e-002	-5.000000e+000	-2.916688e+000	-2.083312e+000	-2.500832e+000	-2.499168e+000	-2.500000e+000	-2.500000e+000	-2.570000e+000	-2.570000e+000	2.416840e-010	-2.416840e-010	-2.018083e-002	2.018083e-002	-8.317123e-003	-2.079275e-012	2.079287e-012	-2.396234e-010	8.317123e-003	1.190537e-002	8.317123e-003	-4.166624e-005	4.166624e-005	2.080165e-012	-2.078885e-012	2.022249e-002
1.039951285021034e-003	-7.071924e-002	-6.928086e-002	-5.000000e+000	-2.860338e+000	-2.139662e+000	-2.500719e+000	-2.499281e+000	-2.500000e+000	-2.500000e+000	-2.570000e+000	-2.570000e+000	2.089138e-010	-2.089138e-010	-1.744494e-002	1.744494e-002	-7.192370e-003	-1.798086e-012	1.798099e-012	-2.071232e-010	7.192370e-003	1.029536e-002	7.192370e-003	-4.279325e-005	4.279325e-005	1.799318e-012	-1.799371e-012	1.748773e-002
1.042951285021034e-003	-7.062221e-002	-6.937790e-002	-5.000000e+000	-2.811627e+000	-2.188373e+000	-2.500622e+000	-2.499378e+000	-2.500000e+000	-2.500000e+000	-2.570000e+000	-2.570000e+000	1.806058e-010	-1.806058e-010	-1.507996e-002	1.507996e-002	-6.220098e-003	-1.555018e-012	1.555032e-012	-1.790568e-010	6.220099e-003	8.903626e-003	6.220098e-003	-4.376746e-005	4.376746e-005	1.555792e-012	-1.553625e-012	1.512372e-002
1.045951285021034e-003	-7.053781e-002	-6.946230e-002	-5.000000e+000	-2.769520e+000	-2.230480e+000	-2.500538e+000	-2.499462e+000	-2.500000e+000	-2.500000e+000	-2.570000e+000	-2.570000e+000	1.561204e-010	-1.561204e-010	-1.303559e-002	1.303559e-002	-5.379636e-003	-1.344902e-012	1.344916e-012	-1.547562e-010	5.379636e-003	7.700565e-003	5.379636e-003	-4.460961e-005	4.460961e-005	1.344254e-012	-1.343863e-012	1.308020e-002
1.048951285021034e-003	-7.046556e-002	-6.953454e-002	-5.000000e+000	-2.733121e+000	-2.266879e+000	-2.500465e+000	-2.499535e+000	-2.500000e+000	-2.500000e+000	-2.570000e+000	-2.570000e+000	1.349321e-010	-1.349321e-010	-1.126838e-002	1.126838e-002	-4.653114e-003	-1.163271e-012	1.163286e-012	-1.337952e-010	4.653114e-003	6.660600e-003	4.653114e-003	-4.533758e-005	4.533758e-005	1.163995e-012	-1.164492e-012	1.131371e-002
1.051951285021033e-003	-7.040238e-002	-6.959772e-002	-5.000000e+000	-2.701657e+000	-2.298343e+000	-2.500402e+000	-2.499598e+000	-2.500000e+000	-2.500000e+000	-2.570000e+000	-2.570000e+000	1.166427e-010	-1.166427e-010	-9.740740e-003	9.740740e-003	-4.025085e-003	-1.006263e-012	1.006280e-012	-1.156621e-010	4.025085e-003	5.761622e-003	4.025085e-003	-4.596687e-005	4.596687e-005	1.007658e-012	-1.006379e-012	9.786707e-003
1.054951285021033e-003	-7.034850e-002	-6.965160e-002	-5.000000e+000	-2.674458e+000	-2.325542e+000	-2.500348e+000	-2.499652e+000	-2.500000e+000	-2.500000e+000	-2.570000e+000	-2.570000e+000	1.008260e-010	-1.008260e-010	-8.420203e-003	8.420203e-003	-3.482197e-003	-8.705403e-013	8.705585e-013	-9.997336e-011	3.482197e-003	4.984517e-003	3.482197e-003	-4.651084e-005	4.651084e-005	8.703060e-013	-8.690266e-013	8.466714e-003
1.057951285021033e-003	-7.030129e-002	-6.969881e-002	-5.000000e+000	-2.650947e+000	-2.349053e+000	-2.500301e+000	-2.499699e+000	-2.500000e+000	-2.500000e+000	-2.570000e+000	-2.570000e+000	8.716938e-011	-8.716938e-011	-7.278689e-003	7.278689e-003	-3.012908e-003	-7.532174e-013	7.532366e-013	-8.641621e-011	3.012908e-003	4.312763e-003	3.012908e-003	-4.698107e-005	4.698107e-005	7.539148e-013	-7.535238e-013	7.325670e-003
1.060951285021033e-003	-7.026100e-002	-6.973910e-002	-5.000000e+000	-2.630623e+000	-2.369377e+000	-2.500261e+000	-2.499739e+000	-2.500000e+000	-2.500000e+000	-2.570000e+000	-2.570000e+000	7.534595e-011	-7.534595e-011	-6.291929e-003	6.291929e-003	-2.607239e-003	-6.517997e-013	6.518200e-013	-7.470646e-011	2.607239e-003	3.732077e-003	2.607239e-003	-4.738754e-005	4.738754e-005	6.527772e-013	-6.528302e-013	6.339316e-003
1.063951285021032e-003	-7.022572e-002	-6.977439e-002	-5.000000e+000	-2.613054e+000	-2.386946e+000	-2.500226e+000	-2.499774e+000	-2.500000e+000	-2.500000e+000	-2.570000e+000	-2.570000e+000	6.512835e-011	-6.512835e-011	-5.438942e-003	5.438942e-003	-2.256567e-003	-5.641310e-013	5.641524e-013	-6.457412e-011	2.256567e-003	3.230114e-003	2.256567e-003	-4.773892e-005	4.773892e-005	5.647018e-013	-5.647549e-013	5.486681e-003
