time,"V(N008,N005)","V(N009,N004)",V(n001),V(n002),V(n003),V(n004),V(n005),V(n006),V(n007),V(n008),V(n009),I(C1),I(C2),I(C3),I(C4),I(R1),I(R2),I(R3),I(R4),I(R5),I(R6),I(R7),I(R8),I(R9),I(V1),I(V2),I(V3)
0.0,-0.07,-0.07,0.0,-2.1000000000000002e-20,-2.1000000000000002e-20,-2.1021e-20,-2.1021e-20,-2.1021e-20,-2.1021e-20,-0.07,-0.07,4.199999999999999e-25,4.199999999999999e-25,2.0999999999999996e-38,2.0999999999999996e-38,-4.579483e-38,-4.5794819999999995e-38,0.0,3.009266e-36,4.199999999999999e-25,4.199999999999999e-25,4.298951e-38,4.199999999999999e-25,4.199999999999999e-25,-1.2611689999999998e-43,-1.2611689999999998e-43,-4.199999999999999e-25
0.001,-0.07,-0.07,0.0,2.94645e-16,2.94645e-16,3.047882e-16,3.047882e-16,3.81081e-11,3.81081e-11,-0.07,-0.07,-1.0778489999999999e-19,-1.0778489999999999e-19,-1.969715e-19,-1.969715e-19,-9.526947e-20,-9.526947e-20,0.0,0.0,-2.0286440000000001e-19,-2.0286440000000001e-19,-2.2538879999999996e-32,-5.892899e-21,-5.892899e-21,9.526947e-20,9.526947e-20,2.0286440000000001e-19
0.0010000001,-0.07187536,-0.06812465,-0.5,-0.49999840000000007,-1.612557e-06,-0.2524338,-0.24756620000000001,-0.25055839999999996,-0.24944149999999998,-0.3194416,-0.3205585,-8.369087e-05,8.369087e-05,-0.0120941,0.0120941,-5.0383660000000006e-12,5.038365e-12,8.369087e-05,0.004867601,-0.004951292,0.004951292,0.007142811,-3.2251140000000004e-11,3.2251140000000004e-11,5.038359e-12,-5.038369e-12,0.0120941
0.0010000003,-0.07651716,-0.06348282,-1.5,-1.4999930000000001,-6.967775e-06,-0.7573525,-0.7426475,-0.7508354,-0.7491646,-0.8191646,-0.8208353999999999,-0.0001477507,0.0001477507,-0.03628118,0.03628118,-1.653444e-11,1.653444e-11,0.0001477507,0.01470506,-0.01485281,0.01485281,0.02142837,-1.393555e-10,1.393555e-10,1.6534420000000002e-11,-1.653446e-11,0.03628118
0.001000000452275298,-0.08041465,-0.05958545,-2.261376,-2.2613630000000002,-1.367114e-05,-1.141809,-1.1195680000000001,-1.131394,-1.129982,-1.1999819999999999,-1.201394,-0.0001501924,0.0001501924,-0.05469607,0.05469607,-2.5923710000000002e-11,2.5923710000000002e-11,0.0001501924,0.02224089,-0.02239108,0.02239108,0.03230499,-2.734229e-10,2.734229e-10,2.592369e-11,-2.5923729999999997e-11,0.05469607
0.001000000603744237,-0.08411407,-0.05588591,-3.0187209999999998,-3.018697,-2.403306e-05,-1.524232,-1.4944899999999999,-1.510118,-1.508604,-1.5786040000000001,-1.5801180000000001,-0.00014719790000000002,0.00014719790000000002,-0.07301322,0.07301322,-3.5337670000000003e-11,3.5337670000000003e-11,0.00014719790000000002,0.02974211,-0.02988931,0.02988931,0.0431239,-4.806613e-10,4.806613e-10,3.5337640000000005e-11,-3.53377e-11,0.07301322
0.001000000906682115,-0.0916357,-0.0483644,-4.533411,-4.53336,-5.1167879999999994e-05,-2.2890740000000003,-2.244336,-2.267439,-2.265972,-2.335972,-2.337439,-0.0001480426,0.0001480426,-0.10964729999999999,0.10964729999999999,-5.407155e-11,5.407155e-11,0.0001480427,0.04473766,-0.04488571,0.04488571,0.06476155,-1.023358e-09,1.023358e-09,5.4071559999999996e-11,-5.4071530000000005e-11,0.10964729999999999
0.001000001,-0.09393406,-0.04606581,-5.0,-4.999939,-6.107182e-05,-2.5246779999999998,-2.4753220000000002,-2.500744,-2.499256,-2.569256,-2.570744,-0.000148827,0.000148827,-0.120932,0.120932,-5.983514e-11,5.983514e-11,0.00014882709999999998,0.04935639,-0.04950522,0.04950522,0.07142682,-1.2214360000000002e-09,1.2214360000000002e-09,5.983519e-11,-5.983497e-11,0.120932
0.001000001017767486,-0.0942173,-0.04578257,-5.0,-4.999937,-6.322047e-05,-2.524701,-2.475299,-2.500484,-2.499516,-2.569516,-2.5704830000000003,-0.0001027916,0.0001027916,-0.12093150000000001,0.12093150000000001,-6.046751e-11,6.046751e-11,0.00010279170000000001,0.04940192,-0.04950472,0.04950472,0.07142676,-1.2644089999999999e-09,1.2644089999999999e-09,6.046754e-11,-6.046739e-11,0.12093150000000001
0.001000001053302458,-0.09458399,-0.04541612,-5.0,-4.999932,-6.751774000000001e-05,-2.5247290000000002,-2.4752709999999998,-2.5001450000000003,-2.4998549999999997,-2.569855,-2.570145,-4.653995e-05,4.653995e-05,-0.1209307,0.1209307,-6.124017e-11,6.124017e-11,4.654001e-05,0.04945754,-0.04950408,0.04950408,0.07142664,-1.350355e-09,1.350355e-09,6.124016e-11,-6.124005e-11,0.1209307
0.001000001124372401,-0.09475279,-0.04524708,-5.0,-4.999924,-7.611224e-05,-2.524747,-2.475253,-2.499995,-2.500005,-2.570005,-2.569994,-8.62773e-06,8.62773e-06,-0.12092989999999999,0.12092989999999999,-6.176078e-11,6.176078e-11,8.627791999999999e-06,0.0494949,-0.04950353,0.04950353,0.0714264,-1.5222449999999998e-09,1.5222449999999998e-09,6.176074e-11,-6.176066e-11,0.12092989999999999
0.001000001245024353,-0.09475017,-0.04524994,-5.0,-4.999909,-9.07026e-05,-2.524752,-2.475248,-2.500002,-2.499998,-2.569999,-2.570002,1.501131e-07,-1.501131e-07,-0.12092910000000001,0.12092910000000001,-6.188101e-11,6.188101e-11,-1.500512e-07,0.0495033,-0.04950315,0.04950315,0.07142598,-1.8140520000000002e-09,1.8140520000000002e-09,6.188094e-11,-6.188095e-11,0.12092910000000001
0.001000001371447493,-0.09475207,-0.04524803,-5.0,-4.999894,-0.0001059908,-2.5247509999999997,-2.4752490000000003,-2.5,-2.5,-2.570001,-2.569999,-5.8616820000000004e-08,5.8616820000000004e-08,-0.12092839999999999,0.12092839999999999,-6.187776e-11,6.187776e-11,5.8678699999999996e-08,0.04950279,-0.04950285,0.04950285,0.07142554,-2.1198150000000003e-09,2.1198150000000003e-09,6.187768e-11,-6.187776e-11,0.12092839999999999
0.001000001624293773,-0.09475088,-0.04524899,-5.0,-4.999864,-0.0001365667,-2.5247509999999997,-2.4752490000000003,-2.5,-2.5,-2.57,-2.57,1.872152e-08,-1.872152e-08,-0.1209269,0.1209269,-6.187807e-11,6.187807e-11,-1.865964e-08,0.04950226,-0.04950225,0.04950225,0.07142467,-2.7313350000000003e-09,2.7313350000000003e-09,6.187804e-11,-6.187810999999999e-11,0.1209269
0.001000002129986334,-0.09475064,-0.04524922,-5.0,-4.999802,-0.0001977173,-2.52475,-2.47525,-2.5,-2.5,-2.57,-2.57,3.594286e-09,-3.594286e-09,-0.120924,0.120924,-6.187634e-11,6.187634e-11,-3.5324090000000003e-09,0.04950104,-0.04950104,0.04950104,0.07142292,-3.954344999999999e-09,3.954344999999999e-09,6.187638e-11,-6.187638e-11,0.120924
0.001000003141371456,-0.09474921,-0.04525089,-5.0,-4.999680000000001,-0.0003200127,-2.5247490000000004,-2.4752509999999996,-2.5,-2.5,-2.57,-2.57,8.607464e-09,-8.607464e-09,-0.12091800000000001,0.12091800000000001,-6.187338e-11,6.187338e-11,-8.545590000000001e-09,0.04949862,-0.04949861,0.04949861,0.07141943,-6.4002550000000005e-09,6.4002550000000005e-09,6.18734e-11,-6.187339000000001e-11,0.12091800000000001
0.0010000051641417,-0.09474707,-0.0452528,-5.0,-4.999435,-0.0005645812,-2.524747,-2.475253,-2.5,-2.5,-2.57,-2.57,6.547605e-09,-6.547605e-09,-0.12090619999999999,0.12090619999999999,-6.18673e-11,6.18673e-11,-6.485738e-09,0.04949378,-0.04949377,0.04949377,0.07141244,-1.129162e-08,1.129162e-08,6.186731999999999e-11,-6.186731999999999e-11,0.12090619999999999
0.001000152537402342,-0.09457137,-0.04542861,-5.0,-4.981701,-0.01829867,-2.524571,-2.475429,-2.5,-2.5,-2.57,-2.57,6.901428000000001e-09,-6.901428000000001e-09,-0.120048,0.120048,-6.142835e-11,6.142835e-11,-6.84e-09,0.04914261,-0.0491426,0.0491426,0.07090575,-3.659735e-07,3.659735e-07,6.142836e-11,-6.142836e-11,0.12004839999999999
0.0010002999106629839,-0.09439721,-0.04560285,-5.0,-4.964119,-0.03588127,-2.524397,-2.475603,-2.5,-2.5,-2.57,-2.57,7.150886e-09,-7.150886e-09,-0.1191971,0.1191971,-6.099314e-11,6.099314e-11,-7.089893000000001e-09,0.04879444,-0.04879443,0.04879443,0.07040339,-7.176254e-07,7.176254e-07,6.099315e-11,-6.099315e-11,0.1191978
0.001000447283923625,-0.09422459,-0.04577551,-5.0,-4.946688,-0.05331237,-2.524225,-2.475775,-2.5,-2.5,-2.57,-2.57,7.295977999999999e-09,-7.295977999999999e-09,-0.1183536,0.1183536,-6.056168000000001e-11,6.056168000000001e-11,-7.235416e-09,0.04844927,-0.04844926,0.04844926,0.06990536,-1.066247e-06,1.066247e-06,6.056169e-11,-6.056168000000001e-11,0.1183546
0.001000594657184267,-0.09405351,-0.04594659,-5.0,-4.9294080000000005,-0.07059197,-2.524054,-2.475946,-2.5,-2.5,-2.57,-2.57,7.336705e-09,-7.336705e-09,-0.1175173,0.1175173,-6.013396e-11,6.013396e-11,-7.27657e-09,0.0481071,-0.04810709,0.04810709,0.06941166,-1.41184e-06,1.41184e-06,6.013397e-11,-6.013397e-11,0.11751869999999999
0.001000742030444909,-0.09388397,-0.04611609,-5.0,-4.91228,-0.08772008,-2.523884,-2.476116,-2.5,-2.5,-2.57,-2.57,7.273065e-09,-7.273065e-09,-0.1166885,0.1166885,-5.971e-11,5.971e-11,-7.213354999999999e-09,0.04776793,-0.04776792,0.04776792,0.06892228,-1.7544020000000001e-06,1.7544020000000001e-06,5.971e-11,-5.971e-11,0.11669020000000001
0.00100088940370555,-0.09371596,-0.04628402,-5.0,-4.895303,-0.10469669999999999,-2.523716,-2.476284,-2.5,-2.5,-2.57,-2.57,7.105060000000001e-09,-7.105060000000001e-09,-0.11586689999999998,0.11586689999999998,-5.928978e-11,5.928978e-11,-7.04577e-09,0.04743176,-0.04743175,0.04743175,0.06843723,-2.093934e-06,2.093934e-06,5.928978e-11,-5.928979e-11,0.115869
0.001001036776966192,-0.09354949,-0.04645038,-5.0,-4.878478,-0.12152180000000001,-2.523549,-2.476451,-2.5,-2.5,-2.57,-2.57,6.8326880000000005e-09,-6.8326880000000005e-09,-0.11505270000000001,0.11505270000000001,-5.887331999999999e-11,5.887331999999999e-11,-6.773816e-09,0.04709858,-0.04709858,0.04709858,0.06795651,-2.4304359999999998e-06,2.4304359999999998e-06,5.887331e-11,-5.887331999999999e-11,0.11505510000000002
0.0010020367769661919,-0.09244347,-0.04755664,-5.0,-4.7667910000000004,-0.23320860000000002,-2.5224439999999997,-2.4775560000000003,-2.5,-2.5,-2.57,-2.57,6.513739000000001e-09,-6.513739000000001e-09,-0.1096478,0.1096478,-5.610879e-11,5.610879e-11,-6.457630999999999e-09,0.04488697,-0.04488696,0.04488696,0.06476547,-4.664171999999999e-06,4.664171999999999e-06,5.610878000000001e-11,-5.6108740000000004e-11,0.10965239999999998
0.001003036776966192,-0.0913837,-0.04861617,-5.0,-4.659733999999999,-0.3402659,-2.521384,-2.478616,-2.5,-2.5,-2.57,-2.57,6.205964e-09,-6.205964e-09,-0.10446689999999999,0.10446689999999999,-5.345885e-11,5.345885e-11,-6.152505e-09,0.04276702,-0.04276701,0.04276701,0.06170669,-6.805318999999999e-06,6.805318999999999e-06,5.3458869999999996e-11,-5.345881e-11,0.1044737
0.001004036776966192,-0.09037352,-0.04962659,-5.0,-4.557735,-0.4422648,-2.5203740000000003,-2.4796259999999997,-2.5,-2.5,-2.57,-2.57,5.9127319999999995e-09,-5.9127319999999995e-09,-0.09953082,0.09953082,-5.093412e-11,5.093412e-11,-5.861797e-09,0.04074724,-0.04074723,0.04074723,0.05879243,-8.845295999999999e-06,8.845295999999999e-06,5.093417e-11,-5.093412e-11,0.09953967
0.001005036776966191,-0.08941174,-0.05058813,-5.0,-4.4605559999999995,-0.5394441999999999,-2.519412,-2.480588,-2.5,-2.5,-2.57,-2.57,5.633354e-09,-5.633354e-09,-0.09482798,0.09482798,-4.852869e-11,4.852869e-11,-5.584825e-09,0.03882289,-0.03882289,0.03882289,0.05601588,-1.078888e-05,1.078888e-05,4.8528720000000004e-11,-4.852868e-11,0.09483877
0.0010060367769661911,-0.08849454,-0.05150557,-5.0,-4.367968,-0.6320319000000001,-2.518495,-2.481505,-2.5,-2.5,-2.57,-2.57,5.3671780000000015e-09,-5.3671780000000015e-09,-0.09034735,0.09034735,-4.623691e-11,4.623691e-11,-5.320939999999999e-09,0.03698947,-0.03698947,0.03698947,0.05337052,-1.2640639999999998e-05,1.2640639999999998e-05,4.62369e-11,-4.623689e-11,0.09035999
0.001007036776966191,-0.08762145,-0.05237842,-5.0,-4.279755000000001,-0.7202447,-2.517621,-2.482379,-2.5,-2.5,-2.57,-2.57,5.113578e-09,-5.113578e-09,-0.08607842,0.08607842,-4.405342e-11,4.405342e-11,-5.069523e-09,0.03524268,-0.03524268,0.03524268,0.05085015,-1.44049e-05,1.44049e-05,4.40534e-11,-4.40534e-11,0.08609283
0.001009036776966191,-0.08599663,-0.05400324,-5.0,-4.115637,-0.8843632,-2.515996,-2.484004,-2.5,-2.5,-2.57,-2.57,4.641760999999999e-09,-4.641760999999999e-09,-0.07813617,0.07813617,-3.999107e-11,3.999107e-11,-4.601769e-09,0.03199281,-0.03199281,0.03199281,0.04616105,-1.768727e-05,1.768727e-05,3.999108e-11,-3.999107e-11,0.07815386
0.001011036776966191,-0.08452153,-0.05547833,-5.0,-3.966661,-1.033339,-2.514521,-2.485479,-2.5,-2.5,-2.57,-2.57,4.213477e-09,-4.213477e-09,-0.07092673,0.07092673,-3.630355e-11,3.630355e-11,-4.177172000000001e-09,0.0290428,-0.02904279,0.02904279,0.0419046,-2.066678e-05,2.066678e-05,3.6303590000000004e-11,-3.63036e-11,0.07094739
0.001013036776966191,-0.08318257,-0.05681729,-5.0,-3.831431,-1.168569,-2.513182,-2.486818,-2.5,-2.5,-2.57,-2.57,3.824709e-09,-3.824709e-09,-0.06438249,0.06438249,-3.295627e-11,3.295627e-11,-3.791751e-09,0.02636497,-0.02636497,0.02636497,0.03804089,-2.337138e-05,2.337138e-05,3.2956320000000004e-11,-3.295628e-11,0.06440586
0.001016036776966191,-0.08140206,-0.05859804,-5.0,-3.651617,-1.3483829999999999,-2.511402,-2.488598,-2.5,-2.5,-2.57,-2.57,3.3077690000000006e-09,-3.3077670000000003e-09,-0.05568067,0.05568067,-2.8505420000000003e-11,2.8505420000000003e-11,-3.2792630000000002e-09,0.0228043,-0.0228043,0.0228043,0.03290334,-2.6967659999999997e-05,2.6967659999999997e-05,2.850545e-11,-2.8505420000000003e-11,0.05570764
0.00101903677696619,-0.07986259,-0.06013727,-5.0,-3.4961059999999997,-1.503894,-2.509862,-2.490138,-2.5,-2.5,-2.57,-2.57,2.8606970000000005e-09,-2.8606970000000005e-09,-0.04815498,0.04815498,-2.4656129999999997e-11,2.4656129999999997e-11,-2.83604e-09,0.01972488,-0.01972488,0.01972488,0.02846018,-3.0077870000000003e-05,3.0077870000000003e-05,2.465614e-11,-2.46561e-11,0.04818505
0.00102203677696619,-0.07853079,-0.06146932,-5.0,-3.361614,-1.6383860000000001,-2.508531,-2.491469,-2.5,-2.5,-2.57,-2.57,2.4740490000000003e-09,-2.4740490000000003e-09,-0.04164644,0.04164644,-2.132711e-11,2.132711e-11,-2.4527220000000004e-09,0.01706167,-0.01706167,0.01706167,0.02461755,-3.2767719999999996e-05,3.2767719999999996e-05,2.132713e-11,-2.132711e-11,0.04167921
0.00102503677696619,-0.07737947,-0.06262064,-5.0,-3.2453,-1.7547,-2.5073790000000002,-2.4926209999999998,-2.5,-2.5,-2.57,-2.57,2.139661e-09,-2.139661e-09,-0.03601759,0.03601759,-1.844804e-11,1.844804e-11,-2.121214e-09,0.01475841,-0.01475841,0.01475841,0.02129427,-3.509401e-05,3.509401e-05,1.844806e-11,-1.844806e-11,0.03605268
0.0010280367769661901,-0.07638311,-0.06361699,-5.0,-3.1447060000000002,-1.8552939999999998,-2.506383,-2.493617,-2.5,-2.5,-2.57,-2.57,1.85047e-09,-1.85047e-09,-0.03114952,0.03114952,-1.5958089999999998e-11,1.5958089999999998e-11,-1.834511e-09,0.01276646,-0.01276645,0.01276645,0.01842017,-3.710588e-05,3.710588e-05,1.59581e-11,-1.5958120000000003e-11,0.03118663
0.001031036776966189,-0.07552195,-0.06447816,-5.0,-3.0577080000000003,-1.942292,-2.505522,-2.494478,-2.5,-2.5,-2.57,-2.57,1.600363e-09,-1.600363e-09,-0.02693941,0.02693941,-1.3804679999999999e-11,1.3804679999999999e-11,-1.5865589999999998e-09,0.01104373,-0.01104373,0.01104373,0.01593452,-3.884583e-05,3.884583e-05,1.38047e-11,-1.3804679999999999e-11,0.02697825
0.001034036776966189,-0.07477689,-0.06522322,-5.0,-2.982469,-2.017531,-2.5047770000000003,-2.4952229999999997,-2.5,-2.5,-2.57,-2.57,1.384062e-09,-1.384062e-09,-0.02329833,0.02329833,-1.194233e-11,1.194233e-11,-1.372119e-09,0.009553846999999999,-0.009553846,0.009553846,0.01378484,-4.035061e-05,4.035061e-05,1.194231e-11,-1.194232e-11,0.02333868
0.0010370367769661892,-0.07413292,-0.06586719,-5.0,-2.917399,-2.082601,-2.5041330000000004,-2.4958669999999996,-2.5,-2.5,-2.57,-2.57,1.196994e-09,-1.196994e-09,-0.02014937,0.02014937,-1.033168e-11,1.033168e-11,-1.186662e-09,0.008265332,-0.008265330999999999,0.008265330999999999,0.01192569,-4.165202e-05,4.165202e-05,1.033169e-11,-1.033165e-11,0.02019102
0.0010400367769661891,-0.0735755,-0.06642461,-5.0,-2.8611240000000002,-2.1388759999999998,-2.503576,-2.496424,-2.5,-2.5,-2.57,-2.57,1.03521e-09,-1.03521e-09,-0.01742602,0.01742602,-8.938726e-12,8.938726e-12,-1.0262719999999998e-09,0.007150971,-0.00715097,0.00715097,0.01031783,-4.277752e-05,4.277752e-05,8.93872e-12,-8.93873e-12,0.0174688
0.001043036776966188,-0.07309389,-0.06690621,-5.0,-2.812455,-2.187545,-2.503094,-2.496906,-2.5,-2.5,-2.57,-2.57,8.952927e-10,-8.952927e-10,-0.01507075,0.01507075,-7.734041999999999e-12,7.734041999999999e-12,-8.875585e-10,0.006187224,-0.006187224,0.006187224,0.00892728,-4.37509e-05,4.37509e-05,7.734045e-12,-7.734055999999999e-12,0.0151145
0.0010460367769661882,-0.0726769,-0.06732321,-5.0,-2.770364,-2.229636,-2.5026770000000003,-2.4973229999999997,-2.5,-2.5,-2.57,-2.57,7.742882e-10,-7.742882e-10,-0.01303382,0.01303382,-6.692180000000001e-12,6.692180000000001e-12,-7.675949e-10,0.0053537359999999996,-0.0053537359999999996,0.0053537359999999996,0.007724675,-4.459273e-05,4.459273e-05,6.692184e-12,-6.692139999999999e-12,0.01307841
0.0010490367769661882,-0.07231665,-0.06768346,-5.0,-2.733961,-2.266039,-2.502316,-2.497684,-2.5,-2.5,-2.57,-2.57,6.696368e-10,-6.696368e-10,-0.01127219,0.01127219,-5.791134e-12,5.791134e-12,-6.638441e-10,0.004632901,-0.0046329,0.0046329,0.0066846119999999995,-4.532077e-05,4.532077e-05,5.79116e-12,-5.7911300000000006e-12,0.01131751
0.0010520367769661881,-0.0720048,-0.06799531,-5.0,-2.7024790000000003,-2.2975209999999997,-2.502005,-2.497995,-2.5,-2.5,-2.57,-2.57,5.791287e-10,-5.791287e-10,-0.009748664,0.009748664,-5.0118720000000005e-12,5.0118720000000005e-12,-5.741185e-10,0.004009492,-0.004009491,0.004009491,0.0057851230000000005,-4.595042e-05,4.595042e-05,5.011881e-12,-5.011829e-12,0.009794614
0.001055036776966187,-0.07173538,-0.06826472,-5.0,-2.675252,-2.324748,-2.501735,-2.498265,-2.5,-2.5,-2.57,-2.57,5.008554e-10,-5.008554e-10,-0.008431053,0.008431053,-4.337933e-12,4.337933999999999e-12,-4.965175e-10,0.003470342,-0.0034703409999999996,0.0034703409999999996,0.005007206,-4.649496e-05,4.649496e-05,4.337974e-12,-4.33793e-12,0.008477548
0.001058036776966187,-0.07150197,-0.06849813,-5.0,-2.6517049999999998,-2.3482950000000002,-2.501502,-2.498498,-2.5,-2.5,-2.57,-2.57,4.331611e-10,-4.331611e-10,-0.007291528,0.007291528,-3.755083e-12,3.755083e-12,-4.29405e-10,0.003004062,-0.003004062,0.003004062,0.004334432,-4.6965900000000004e-05,4.6965900000000004e-05,3.755119e-12,-3.755095e-12,0.007338494
0.001061036776966187,-0.07130051,-0.0686996,-5.0,-2.631341,-2.368659,-2.5013,-2.4987,-2.5,-2.5,-2.57,-2.57,3.74615e-10,-3.74615e-10,-0.006306019,0.006306019,-3.251009e-12,3.25101e-12,-3.713634e-10,0.002600804,-0.002600804,0.002600804,0.003752588,-4.737319e-05,4.737319e-05,3.2510349999999998e-12,-3.251019e-12,0.006353391999999999
0.001064036776966187,-0.07112598,-0.06887412,-5.0,-2.613729,-2.386271,-2.5011259999999997,-2.4988740000000003,-2.5,-2.5,-2.57,-2.57,3.239826e-10,-3.239826e-10,-0.005453709,0.005453709,-2.815066e-12,2.815066e-12,-3.211689e-10,0.00225205,-0.002252049,0.002252049,0.003249385,-4.772543e-05,4.772543e-05,2.815096e-12,-2.8150799999999998e-12,0.005501435
0.001067036776966186,-0.0709753,-0.0690248,-5.0,-2.598497,-2.401503,-2.500975,-2.499025,-2.5,-2.5,-2.57,-2.57,2.801945e-10,-2.801945e-10,-0.004716596,0.004716596,-2.438043e-12,2.438044e-12,-2.777565e-10,0.0019504320000000002,-0.0019504320000000002,0.0019504320000000002,0.0028141940000000003,-4.803006e-05,4.803006e-05,2.4380560000000003e-12,-2.438054e-12,0.004764626
0.001070036776966186,-0.07084465,-0.06915545,-5.0,-2.585324,-2.414676,-2.500845,-2.499155,-2.5,-2.5,-2.57,-2.57,2.423235e-10,-2.423235e-10,-0.00407911,0.00407911,-2.1119790000000003e-12,2.1119790000000003e-12,-2.402114e-10,0.0016895810000000001,-0.00168958,0.00168958,0.002437823,-4.8293519999999996e-05,4.8293519999999996e-05,2.1119740000000002e-12,-2.111945e-12,0.004127404
0.001073036776966186,-0.07073212,-0.06926799,-5.0,-2.573931,-2.426069,-2.500732,-2.499268,-2.5,-2.5,-2.57,-2.57,2.095719e-10,-2.095719e-10,-0.003527785,0.003527785,-1.829984e-12,1.829985e-12,-2.077423e-10,0.001463985,-0.001463985,0.001463985,0.0021123220000000002,-4.852137e-05,4.852137e-05,1.830016e-12,-1.829986e-12,0.003576307
0.001076036776966185,-0.07063437,-0.06936574,-5.0,-2.564079,-2.435921,-2.500634,-2.499366,-2.5,-2.5,-2.57,-2.57,1.812461e-10,-1.812461e-10,-0.003050976,0.003050976,-1.586103e-12,1.5861040000000002e-12,-1.796607e-10,0.0012688810000000001,-0.0012688810000000001,0.0012688810000000001,0.0018308139999999998,-4.871843e-05,4.871843e-05,1.586097e-12,-1.586046e-12,0.003099695
