time,"V(N008,N005)","V(N009,N004)",V(n001),V(n002),V(n003),V(n004),V(n005),V(n006),V(n007),V(n008),V(n009),I(C1),I(C2),I(C3),I(C4),I(R1),I(R2),I(R3),I(R4),I(R5),I(R6),I(R7),I(R8),I(R9),I(V1),I(V2),I(V3)
0.0,-0.07,-0.07,0.0,-2.1000000000000002e-20,-2.1000000000000002e-20,-2.1021e-20,-2.1021e-20,-2.1021e-20,-2.1021e-20,-0.07,-0.07,4.199999999999999e-25,4.199999999999999e-25,2.0999999999999996e-38,2.0999999999999996e-38,2.536958e-37,2.536958e-37,0.0,0.0,4.199999999999999e-25,4.199999999999999e-25,-4.298951e-38,4.199999999999999e-25,4.199999999999999e-25,-1.2611689999999998e-43,-1.2611689999999998e-43,-4.199999999999999e-25
0.001,-0.07,-0.07,0.0,-8.268006e-15,-8.268006e-15,-8.234877e-15,-8.234877e-15,-1.1517100000000002e-09,-1.1517100000000002e-09,-0.07,-0.07,-3.541868e-18,-3.541868e-18,-8.281633999999999e-19,-8.281633999999999e-19,2.879255e-18,2.879255e-18,0.0,0.0,-6.625915e-19,-6.625915e-19,-1.8031110000000002e-31,1.653601e-19,1.653601e-19,-2.879255e-18,-2.879255e-18,6.628033e-19
0.0010000001,-0.07048258,-0.0695174,-0.5,-0.49999840000000007,-1.617713e-06,-0.25049699999999997,-0.24950300000000003,-0.2500145,-0.2499855,-0.3199855,-0.32001440000000003,-1.9601210000000002e-05,1.9601210000000002e-05,-0.01213284,0.01213284,-1.218102e-12,1.218108e-12,1.9601210000000002e-05,0.004970426,-0.004990027,0.004990027,0.007142811,-3.235426e-11,3.235426e-11,1.218131e-12,-1.21811e-12,0.01213284
0.0010000003,-0.07147861,-0.06852138,-1.5,-1.4999930000000001,-6.990137999999999e-06,-0.7514940999999999,-0.7485059000000001,-0.7500154,-0.7499846,-0.8199846,-0.8200154000000001,-2.9948870000000002e-05,2.9948870000000002e-05,-0.03639835,0.03639835,-3.697569000000001e-12,3.697575e-12,2.994888e-05,0.01494003,-0.01496998,0.01496998,0.02142837,-1.398028e-10,1.398028e-10,3.697656e-12,-3.697645e-12,0.03639835
0.0010000009066607849,-0.07450652,-0.06549358,-4.533304,-4.533253,-5.13317e-05,-2.271173,-2.262131,-2.266667,-2.266637,-2.336637,-2.336667,-2.9901399999999998e-05,2.9901399999999998e-05,-0.1100016,0.1100016,-1.126554e-11,1.126555e-11,2.9901420000000003e-05,0.04521169,-0.04524159,0.04524159,0.06476002,-1.026634e-09,1.026634e-09,1.126546e-11,-1.126522e-11,0.1100016
0.001000001,-0.07497144,-0.06502843,-5.0,-4.999939,-6.127005e-05,-2.504987,-2.495013,-2.5000150000000003,-2.4999849999999997,-2.569985,-2.570015,-3.059276e-05,3.059276e-05,-0.1213259,0.1213259,-1.242887e-11,1.242887e-11,3.059277e-05,0.04986845,-0.04989904,0.04989904,0.07142682,-1.225401e-09,1.225401e-09,1.242895e-11,-1.24285e-11,0.1213259
0.001000001060585476,-0.07498789,-0.06501222,-5.0,-4.999931,-6.86206e-05,-2.504989,-2.495011,-2.5000009999999997,-2.4999990000000003,-2.569999,-2.570001,-1.080048e-05,1.080048e-05,-0.12132550000000002,0.12132550000000002,-1.245851e-11,1.245852e-11,1.08005e-05,0.04988805,-0.04989885,0.04989885,0.07142661,-1.372412e-09,1.372412e-09,1.2458419999999999e-11,-1.245804e-11,0.12132550000000002
0.001000001181756428,-0.07499051,-0.06500936,-5.0,-4.999917,-8.332165e-05,-2.5049900000000003,-2.4950099999999997,-2.4999990000000003,-2.5000009999999997,-2.570001,-2.569999,-4.8025570000000005e-08,4.8025570000000005e-08,-0.12132470000000001,0.12132470000000001,-1.247456e-11,1.247456e-11,4.803807e-08,0.04989849,-0.04989854,0.04989854,0.07142619,-1.666433e-09,1.666433e-09,1.24744e-11,-1.247433e-11,0.12132470000000001
0.001000001424098331,-0.07498908,-0.06501079,-5.0,-4.999887,-0.0001127234,-2.5049900000000003,-2.4950099999999997,-2.5000009999999997,-2.4999990000000003,-2.569999,-2.570001,2.3739460000000003e-08,-2.3739460000000003e-08,-0.1213233,0.1213233,-1.247452e-11,1.2474530000000001e-11,-2.3726950000000002e-08,0.04989797,-0.04989795,0.04989795,0.07142535,-2.2544679999999997e-09,2.2544679999999997e-09,1.247432e-11,-1.247435e-11,0.1213233
0.001000001908782138,-0.07499027,-0.06500959,-5.0,-4.999828,-0.00017152560000000002,-2.5049900000000003,-2.4950099999999997,-2.4999990000000003,-2.5000009999999997,-2.570001,-2.569999,-9.124847e-09,9.124847e-09,-0.1213204,0.1213204,-1.2474180000000001e-11,1.2474180000000001e-11,9.137334e-09,0.04989677,-0.04989678,0.04989678,0.07142367,-3.430513e-09,3.430513e-09,1.2474019999999999e-11,-1.2474010000000001e-11,0.1213204
0.0010000028781497509,-0.07498884,-0.06501102,-5.0,-4.9997110000000005,-0.0002891249,-2.5049900000000003,-2.4950099999999997,-2.5000009999999997,-2.4999990000000003,-2.569999,-2.570001,6.605944e-09,-6.605963e-09,-0.1213147,0.1213147,-1.247361e-11,1.2473619999999999e-11,-6.5935149999999994e-09,0.04989443,-0.04989443,0.04989443,0.07142031,-5.782498e-09,5.782498e-09,1.247355e-11,-1.2473689999999999e-11,0.1213147
0.001000004816884978,-0.0749898,-0.06501007,-5.0,-4.999475,-0.0005243027,-2.504989,-2.495011,-2.4999990000000003,-2.5000009999999997,-2.570001,-2.569999,-1.090579e-09,1.0905219999999999e-09,-0.12130330000000002,0.12130330000000002,-1.247243e-11,1.247243e-11,1.10299e-09,0.04988973,-0.04988974,0.04988974,0.07141359,-1.048605e-08,1.048605e-08,1.247253e-11,-1.247255e-11,0.12130330000000002
0.001000008694355433,-0.07498741,-0.06501245,-5.0,-4.999005,-0.0009945752,-2.504988,-2.495012,-2.5000009999999997,-2.4999990000000003,-2.569999,-2.570001,2.7158649999999997e-09,-2.7159030000000002e-09,-0.12128050000000001,0.12128050000000001,-1.2470089999999999e-11,1.2470089999999999e-11,-2.7033970000000003e-09,0.04988035,-0.04988035,0.04988035,0.07140015,-1.989151e-08,1.989151e-08,1.24703e-11,-1.247011e-11,0.12128050000000001
0.001000016449296341,-0.07498693,-0.06501293,-5.0,-4.998065,-0.0019347879999999998,-2.504986,-2.495014,-2.4999990000000003,-2.5000009999999997,-2.570001,-2.569999,8.22278e-10,-8.22278e-10,-0.12123479999999999,0.12123479999999999,-1.246539e-11,1.24654e-11,-8.097913e-10,0.04986158,-0.04986158,0.04986158,0.07137329,-3.869577e-08,3.869577e-08,1.246562e-11,-1.2465510000000001e-11,0.12123489999999999
0.001000125018469059,-0.07495928,-0.06504059,-5.0,-4.984948,-0.01505146,-2.50496,-2.49504,-2.5000009999999997,-2.4999990000000003,-2.569999,-2.570001,1.5227399999999999e-09,-1.5227399999999999e-09,-0.120598,0.120598,-1.239994e-11,1.239995e-11,-1.5103670000000003e-09,0.04959977,-0.04959977,0.04959977,0.07099853,-3.0102909999999995e-07,3.0102909999999995e-07,1.240012e-11,-1.24003e-11,0.12059829999999999
0.0010002490975235948,-0.07493091,-0.06506896,-5.0,-4.970063,-0.02993672,-2.50493,-2.49507,-2.4999990000000003,-2.5000009999999997,-2.570001,-2.569999,1.396378e-09,-1.396378e-09,-0.11987529999999999,0.11987529999999999,-1.232566e-11,1.2325669999999999e-11,-1.38408e-09,0.04930266,-0.04930266,0.04930266,0.07057323,-5.987344e-07,5.987344e-07,1.2325830000000001e-11,-1.232591e-11,0.11987590000000001
0.0010004972556326651,-0.07487082,-0.06512904,-5.0,-4.940625,-0.05937473,-2.504872,-2.495128,-2.5000009999999997,-2.4999990000000003,-2.569999,-2.570001,1.43812e-09,-1.43812e-09,-0.11844600000000001,0.11844600000000001,-1.217877e-11,1.217877e-11,-1.425955e-09,0.04871507,-0.04871507,0.04871507,0.06973215,-1.187495e-06,1.187495e-06,1.217901e-11,-1.217915e-11,0.1184472
0.001000993571850806,-0.0747571,-0.06524277,-5.0,-4.88305,-0.11695,-2.504756,-2.495244,-2.4999990000000003,-2.5000009999999997,-2.570001,-2.569999,1.375251e-09,-1.375251e-09,-0.11565070000000001,0.11565070000000001,-1.189147e-11,1.189147e-11,-1.3633329999999998e-09,0.04756587,-0.04756587,0.04756587,0.06808715,-2.339001e-06,2.339001e-06,1.189155e-11,-1.189184e-11,0.11565299999999999
0.0010019862042870882,-0.07453346,-0.0654664,-5.0,-4.771629,-0.2283706,-2.504534,-2.495466,-2.5000009999999997,-2.4999990000000003,-2.569999,-2.570001,1.3203710000000002e-09,-1.3203710000000002e-09,-0.110241,0.110241,-1.133548e-11,1.133548e-11,-1.3090009999999998e-09,0.04534191,-0.04534191,0.04534191,0.0649037,-4.567413e-06,4.567413e-06,1.1335419999999999e-11,-1.1335510000000001e-11,0.11024560000000001
0.001002986204287088,-0.07432008,-0.06567979,-5.0,-4.664011,-0.3359893,-2.5043189999999997,-2.4956810000000003,-2.4999990000000003,-2.5000009999999997,-2.570001,-2.569999,1.257717e-09,-1.257717e-09,-0.10501600000000001,0.10501600000000001,-1.079846e-11,1.079846e-11,-1.246889e-09,0.04319382,-0.04319382,0.04319382,0.06182888,-6.7197860000000005e-06,6.7197860000000005e-06,1.0798339999999999e-11,-1.0798260000000001e-11,0.10502269999999998
0.001003986204287088,-0.07411408,-0.06588578,-5.0,-4.561483,-0.43851629999999997,-2.504115,-2.495885,-2.5000009999999997,-2.4999990000000003,-2.569999,-2.570001,1.198089e-09,-1.198089e-09,-0.1000381,0.1000381,-1.0286839999999999e-11,1.028685e-11,-1.187772e-09,0.04114738,-0.04114738,0.04114738,0.05889953,-8.770327e-06,8.770327e-06,1.0286889999999999e-11,-1.028661e-11,0.1000469
0.0010049862042870881,-0.07392049,-0.06607938,-5.0,-4.463817,-0.5361835,-2.50392,-2.49608,-2.4999990000000003,-2.5000009999999997,-2.570001,-2.569999,1.1413019999999998e-09,-1.1413019999999998e-09,-0.09529625,0.09529625,-9.799482000000001e-12,9.799488000000001e-12,-1.1314970000000002e-09,0.03919793,-0.03919793,0.03919793,0.05610904,-1.072367e-05,1.072367e-05,9.79976e-12,-9.79948e-12,0.09530698
0.001005986204287087,-0.07373333,-0.06626654,-5.0,-4.370779,-0.6292211999999999,-2.503734,-2.496266,-2.5000009999999997,-2.4999990000000003,-2.569999,-2.570001,1.087216e-09,-1.087216e-09,-0.09077913,0.09077913,-9.335222e-12,9.335228e-12,-1.077865e-09,0.03734089,-0.03734089,0.03734089,0.05345082,-1.258443e-05,1.258443e-05,9.335452999999999e-12,-9.335284e-12,0.09079172
0.001006986204287087,-0.07355785,-0.06644201,-5.0,-4.282151,-0.7178488000000001,-2.503557,-2.496443,-2.4999990000000003,-2.5000009999999997,-2.570001,-2.569999,1.0356589999999998e-09,-1.0356589999999998e-09,-0.08647612,0.08647612,-8.892967999999999e-12,8.892975e-12,-1.026734e-09,0.03557188,-0.03557188,0.03557188,0.0509186,-1.4356979999999999e-05,1.4356979999999999e-05,8.893166e-12,-8.892886e-12,0.08649048
0.001008986204287087,-0.07322884,-0.06677103,-5.0,-4.1173,-0.8827002,-2.503228,-2.496772,-2.4999990000000003,-2.5000009999999997,-2.570001,-2.569999,9.397922e-10,-9.397922e-10,-0.07847235,0.07847235,-8.070356e-12,8.070364e-12,-9.317489e-10,0.03228143,-0.03228143,0.03228143,0.04620856,-1.7654e-05,1.7654e-05,8.070766e-12,-8.070376e-12,0.07849
0.001010986204287087,-0.07293034,-0.06706953,-5.0,-3.9677059999999997,-1.032294,-2.50293,-2.49707,-2.4999990000000003,-2.5000009999999997,-2.570001,-2.569999,8.52765e-10,-8.52765e-10,-0.07120936,0.07120936,-7.323881e-12,7.323889e-12,-8.45489e-10,0.02929554,-0.02929553,0.02929553,0.04193446,-2.0645879999999997e-05,2.0645879999999997e-05,7.323911e-12,-7.32352e-12,0.07122999
0.0010129862042870868,-0.07265925,-0.06734061,-5.0,-3.831958,-1.168042,-2.502659,-2.497341,-2.4999990000000003,-2.5000009999999997,-2.570001,-2.569999,7.738663e-10,-7.738663e-10,-0.06461859,0.06461859,-6.6464949999999995e-12,6.646503999999999e-12,-7.67244e-10,0.026586,-0.02658599,0.02658599,0.03805595,-2.336083e-05,2.336083e-05,6.646464e-12,-6.646295e-12,0.06464195
0.001015986204287087,-0.07229757,-0.06770229,-5.0,-3.651526,-1.348474,-2.502298,-2.497702,-2.5000009999999997,-2.4999990000000003,-2.569999,-2.570001,6.689334e-10,-6.689334e-10,-0.05585834,0.05585834,-5.746136e-12,5.746146e-12,-6.632206e-10,0.02298456,-0.02298456,0.02298456,0.03290075,-2.696947e-05,2.696947e-05,5.74634e-12,-5.7460610000000004e-12,0.05588531
0.0010189862042870859,-0.07198763,-0.06801224,-5.0,-3.4955550000000004,-1.504445,-2.5019869999999997,-2.4980130000000003,-2.4999990000000003,-2.5000009999999997,-2.570001,-2.569999,5.782397e-10,-5.782397e-10,-0.04828572,0.04828572,-4.967837e-12,4.967847e-12,-5.733227e-10,0.01987137,-0.01987137,0.01987137,0.02844444,-3.0088890000000002e-05,3.0088890000000002e-05,4.968286e-12,-4.968006e-12,0.0483158
0.0010219862042870858,-0.07171726,-0.0682826,-5.0,-3.360729,-1.639271,-2.501718,-2.498282,-2.5000009999999997,-2.4999990000000003,-2.569999,-2.570001,4.998526e-10,-4.998526e-10,-0.04173969,0.04173969,-4.29505e-12,4.295062e-12,-4.955609e-10,0.01718022,-0.01718022,0.01718022,0.02459226,-3.278542e-05,3.278542e-05,4.295266000000001e-12,-4.294987e-12,0.04177248
0.001024986204287086,-0.071486,-0.06851387,-5.0,-3.244181,-1.7558189999999998,-2.5014849999999997,-2.4985150000000003,-2.4999990000000003,-2.5000009999999997,-2.570001,-2.569999,4.320952e-10,-4.320952e-10,-0.03608111,0.03608111,-3.713473e-12,3.713485e-12,-4.284288e-10,0.01485391,-0.01485391,0.01485391,0.02126231,-3.511638e-05,3.511638e-05,3.713578e-12,-3.71341e-12,0.03611623
0.001027986204287086,-0.07128358,-0.06871629,-5.0,-3.1434330000000004,-1.8565669999999999,-2.501284,-2.498716,-2.5000009999999997,-2.4999990000000003,-2.569999,-2.570001,3.735465e-10,-3.735465e-10,-0.03118965,0.03118965,-3.210739e-12,3.210752e-12,-3.703065e-10,0.01284298,-0.01284298,0.01284298,0.0183838,-3.713134e-05,3.713134e-05,3.210811e-12,-3.210754e-12,0.03122678
0.0010309862042870849,-0.0711112,-0.06888866,-5.0,-3.0563439999999997,-1.943656,-2.501111,-2.498889,-2.4999990000000003,-2.5000009999999997,-2.570001,-2.569999,3.22899e-10,-3.22899e-10,-0.02696132,0.02696132,-2.776159e-12,2.776173e-12,-3.201137e-10,0.01110466,-0.01110466,0.01110466,0.01589553,-3.887313e-05,3.887313e-05,2.776084e-12,-2.776027e-12,0.02700019
0.001033986204287085,-0.07095933,-0.06904054,-5.0,-2.981061,-2.018939,-2.50096,-2.49904,-2.5000009999999997,-2.4999990000000003,-2.569999,-2.570001,2.791296e-10,-2.791296e-10,-0.02330621,0.02330621,-2.400495e-12,2.400509e-12,-2.767422e-10,0.009602007,-0.009602007,0.009602007,0.01374459,-4.0378790000000006e-05,4.0378790000000006e-05,2.400509e-12,-2.400119e-12,0.02334659
0.001036986204287085,-0.07083082,-0.06916904,-5.0,-2.915984,-2.084016,-2.50083,-2.49917,-2.4999990000000003,-2.5000009999999997,-2.570001,-2.569999,2.413003e-10,-2.413003e-10,-0.02014663,0.02014663,-2.075759e-12,2.075774e-12,-2.391971e-10,0.008303065,-0.008303065,0.008303065,0.01188524,-4.168033e-05,4.168033e-05,2.076112e-12,-2.0757220000000003e-12,0.02018831
0.001039986204287085,-0.07071733,-0.06928253,-5.0,-2.859729,-2.140271,-2.500718,-2.499282,-2.5000009999999997,-2.4999990000000003,-2.569999,-2.570001,2.085301e-10,-2.085301e-10,-0.01741538,0.01741538,-1.7950459999999998e-12,1.7950630000000001e-12,-2.067679e-10,0.007180218,-0.007180218,0.007180218,0.01027797,-4.280542e-05,4.280542e-05,1.7951439999999998e-12,-1.7950869999999999e-12,0.01745819
0.001042986204287084,-0.07062149,-0.06937838,-5.0,-2.8111,-2.1889,-2.5006209999999998,-2.4993790000000002,-2.4999990000000003,-2.5000009999999997,-2.570001,-2.569999,1.803073e-10,-1.802505e-10,-0.0150544,0.0150544,-1.55239e-12,1.552407e-12,-1.787441e-10,0.006209593,-0.006209593,0.006209593,0.008888589,-4.377799e-05,4.377799e-05,1.5527969999999999e-12,-1.552519e-12,0.01509818
0.001045986204287084,-0.07053638,-0.06946349,-5.0,-2.7690650000000003,-2.2309349999999997,-2.500537,-2.499463,-2.5000009999999997,-2.4999990000000003,-2.569999,-2.570001,1.558647e-10,-1.558647e-10,-0.0130135,0.0130135,-1.34263e-12,1.342648e-12,-1.545004e-10,0.005370555,-0.005370555,0.005370555,0.007687566,-4.46187e-05,4.46187e-05,1.34234e-12,-1.342062e-12,0.01305812
0.001048986204287084,-0.07046509,-0.06953478,-5.0,-2.732728,-2.267272,-2.500464,-2.499536,-2.4999990000000003,-2.5000009999999997,-2.570001,-2.569999,1.347189e-10,-1.347189e-10,-0.01124928,0.01124928,-1.161307e-12,1.161326e-12,-1.33582e-10,0.0046452640000000005,-0.0046452640000000005,0.0046452640000000005,0.0066493640000000005,-4.534544e-05,4.534544e-05,1.1611469999999998e-12,-1.161091e-12,0.01129463
0.001051986204287084,-0.07040119,-0.06959867,-5.0,-2.701317,-2.298683,-2.5004020000000002,-2.4995979999999998,-2.5000009999999997,-2.4999990000000003,-2.569999,-2.570001,1.164153e-10,-1.164153e-10,-0.009724234,0.009724234,-1.004565e-12,1.004585e-12,-1.154774e-10,0.004018299,-0.004018299,0.004018299,0.005751909,-4.597366e-05,4.597366e-05,1.004534e-12,-1.004478e-12,0.009770208
0.001054986204287083,-0.07034826,-0.0696516,-5.0,-2.6741639999999998,-2.3258360000000002,-2.500348,-2.499652,-2.4999990000000003,-2.5000009999999997,-2.570001,-2.569999,1.006697e-10,-1.006697e-10,-0.008405935,0.008405935,-8.690726e-13,8.690934000000001e-13,-9.978861999999999e-11,0.0034763309999999996,-0.0034763309999999996,0.0034763309999999996,0.00497612,-4.6516709999999995e-05,4.6516709999999995e-05,8.689453000000002e-13,-8.688890999999999e-13,0.008452452
0.001057986204287083,-0.0703001,-0.06969976,-5.0,-2.650693,-2.349307,-2.500301,-2.499699,-2.5000009999999997,-2.4999990000000003,-2.569999,-2.570001,8.699885e-11,-8.699885e-11,-0.007266356,0.007266356,-7.519485999999999e-13,7.519703e-13,-8.628831e-11,0.003007837,-0.003007837,0.003007837,0.004305504,-4.698615e-05,4.698615e-05,7.522054000000001e-13,-7.520382e-13,0.007313342
0.001060986204287083,-0.070261,-0.06973886,-5.0,-2.630403,-2.369597,-2.50026,-2.49974,-2.4999990000000003,-2.5000009999999997,-2.570001,-2.569999,7.526069e-11,-7.526069e-11,-0.006281266999999999,0.006281266999999999,-6.507029e-13,6.507254e-13,-7.457856999999999e-11,0.002602856,-0.002602856,0.002602856,0.0037258029999999998,-4.7391940000000006e-05,4.7391940000000006e-05,6.508555e-13,-6.506884e-13,0.006328659
0.001063986204287083,-0.07022452,-0.06977534,-5.0,-2.612864,-2.387136,-2.500225,-2.499775,-2.5000009999999997,-2.4999990000000003,-2.569999,-2.570001,6.502887e-11,-6.502887e-11,-0.005429726,0.005429726,-5.631829000000001e-13,5.632062e-13,-6.448886e-11,0.002252778,-0.002252778,0.002252778,0.00322469,-4.774272e-05,4.774272e-05,5.631521e-13,-5.632071e-13,0.005477468
0.001066986204287082,-0.07019567,-0.06980419,-5.0,-2.597703,-2.402297,-2.500195,-2.499805,-2.4999990000000003,-2.5000009999999997,-2.570001,-2.569999,5.621814e-11,-5.621814e-11,-0.004693625999999999,0.004693625999999999,-4.875277e-13,4.875519000000001e-13,-5.573497e-11,0.001950159,-0.001950159,0.001950159,0.002791513,-4.804594e-05,4.804594e-05,4.877011e-13,-4.874232e-13,0.004741672
0.001069986204287082,-0.07016802,-0.06983185,-5.0,-2.584597,-2.415403,-2.500169,-2.499831,-2.5000009999999997,-2.4999990000000003,-2.569999,-2.570001,4.860112e-11,-4.860112e-11,-0.004057318,0.004057318,-4.2212890000000006e-13,4.22154e-13,-4.81748e-11,0.001688566,-0.001688566,0.001688566,0.002417061,-4.8308059999999996e-05,4.8308059999999996e-05,4.220643e-13,-4.220085e-13,0.004105627
0.001072986204287082,-0.07014704,-0.06985283,-5.0,-2.573268,-2.426732,-2.500146,-2.499854,-2.4999990000000003,-2.5000009999999997,-2.570001,-2.569999,4.2035709999999996e-11,-4.2035709999999996e-11,-0.0035072740000000003,0.0035072740000000003,-3.655961e-13,3.65622e-13,-4.1609379999999997e-11,0.0014624360000000001,-0.0014624360000000001,0.0014624360000000001,0.002093373,-4.853464e-05,4.853464e-05,3.6537509999999995e-13,-3.6543049999999997e-13,0.003555809
0.001075986204287082,-0.07012606,-0.06987381,-5.0,-2.563475,-2.436525,-2.500127,-2.499873,-2.5000009999999997,-2.4999990000000003,-2.569999,-2.570001,3.629452e-11,-3.629452e-11,-0.003031798,0.003031798,-3.1672729999999996e-13,3.167541e-13,-3.5953459999999997e-11,0.001266963,-0.001266962,0.001266962,0.001813566,-4.8730500000000004e-05,4.8730500000000004e-05,3.16798e-13,-3.164094e-13,0.0030805290000000003
0.001078986204287081,-0.07011032,-0.06988955,-5.0,-2.555009,-2.444991,-2.50011,-2.49989,-2.4999990000000003,-2.5000009999999997,-2.570001,-2.569999,3.140599e-11,-3.140599e-11,-0.0026207820000000003,0.0026207820000000003,-2.744835e-13,2.745111e-13,-3.109335e-11,0.001097989,-0.001097989,0.001097989,0.0015716929999999999,-4.889982e-05,4.889982e-05,2.7451149999999997e-13,-2.74234e-13,0.002669682
0.001081986204287081,-0.07009435,-0.06990552,-5.0,-2.547691,-2.452309,-2.500095,-2.499905,-2.5000009999999997,-2.4999990000000003,-2.569999,-2.570001,2.714273e-11,-2.714273e-11,-0.002265487,0.002265487,-2.379666e-13,2.37995e-13,-2.6915359999999996e-11,0.0009519231,-0.0009519231,0.0009519231,0.00136261,-4.904618e-05,4.904618e-05,2.380471e-13,-2.376587e-13,0.0023145329999999997
