time,"V(N012,N005)","V(N013,N007)"
0.00E+00,-0.07,-0.07
1.01E-03,-0.07000007,-0.07000009
2.03E-03,-0.07000014,-0.07000009
3.05E-03,-0.07000018,-0.07000009
4.08E-03,-0.07000018,-0.07000009
5.00E-03,-0.07000018,-0.07000009
5.00E-03,-0.07001712,-0.07000943
5.00E-03,-0.07019319,-0.0701045
5.00E-03,-0.07036588,-0.07019779
5.00E-03,-0.07053488,-0.07029098
5.00E-03,-0.07070374,-0.07038407
5.01E-03,-0.0708724,-0.07047707
5.01E-03,-0.07104084,-0.07056995
5.01E-03,-0.0712091,-0.07066272
5.01E-03,-0.07137719,-0.07075539
5.01E-03,-0.07154512,-0.07084796
5.01E-03,-0.07171279,-0.07094043
5.01E-03,-0.07188022,-0.07103279
5.01E-03,-0.07204759,-0.07112506
5.01E-03,-0.07238173,-0.0713093
5.02E-03,-0.07271504,-0.07149309
5.02E-03,-0.07304764,-0.07167649
5.02E-03,-0.07337952,-0.07185948
5.02E-03,-0.07371056,-0.07204193
5.02E-03,-0.07404101,-0.07222408
5.03E-03,-0.07453513,-0.07249659
5.03E-03,-0.07502759,-0.07276821
5.03E-03,-0.07551837,-0.07303882
5.04E-03,-0.0760076,-0.07330859
5.04E-03,-0.07663083,-0.07365584
5.06E-03,-0.07645178,-0.07355714
5.09E-03,-0.07630157,-0.07347453
5.10E-03,-0.07619977,-0.07341826
5.14E-03,-0.07590628,-0.07325649
5.20E-03,-0.07556725,-0.07306957
5.26E-03,-0.07518482,-0.07285869
5.34E-03,-0.07477129,-0.07263088
5.42E-03,-0.07433498,-0.0723902
5.52E-03,-0.07388067,-0.07213962
5.64E-03,-0.07341695,-0.07188392
5.76E-03,-0.07299924,-0.07165372
5.88E-03,-0.07263625,-0.07145345
6.00E-03,-0.07232094,-0.07127964
6.11E-03,-0.07208526,-0.07114983
6.23E-03,-0.07184231,-0.07101572
6.35E-03,-0.07163119,-0.07089925
6.47E-03,-0.07144773,-0.07079816
6.59E-03,-0.07128823,-0.07071018
6.71E-03,-0.07114971,-0.07063377
6.83E-03,-0.07102942,-0.07056749
6.95E-03,-0.070925,-0.07050979
7.07E-03,-0.07083404,-0.07045972
7.13E-03,-0.07079625,-0.07043874
7.25E-03,-0.07072163,-0.07039762
7.37E-03,-0.07065701,-0.07036197
7.50E-03,-0.07060087,-0.0703311
7.62E-03,-0.07055211,-0.07030427
7.74E-03,-0.07050991,-0.07028079
7.86E-03,-0.07047319,-0.07026064
7.98E-03,-0.07044148,-0.07024312
8.11E-03,-0.07041383,-0.07022786
8.15E-03,-0.07040393,-0.07022238
8.28E-03,-0.07038105,-0.07020986
8.40E-03,-0.07036126,-0.07019889
8.52E-03,-0.07034409,-0.07018948
8.65E-03,-0.07032931,-0.07018113
8.77E-03,-0.0703162,-0.07017398
8.89E-03,-0.07030499,-0.07016778
9.02E-03,-0.07029521,-0.07016242
9.14E-03,-0.07028675,-0.07015777
9.18E-03,-0.07028449,-0.07015657
9.30E-03,-0.07027745,-0.07015264
9.43E-03,-0.07027125,-0.07014918
9.56E-03,-0.07026589,-0.07014632
9.69E-03,-0.07026124,-0.0701437
9.81E-03,-0.07025731,-0.07014155
9.95E-03,-0.07025373,-0.07013953
1.01E-02,-0.07025063,-0.07013774
1.02E-02,-0.07024825,-0.07013643
1.03E-02,-0.07024586,-0.07013512
1.05E-02,-0.07024384,-0.07013404
1.06E-02,-0.07024205,-0.07013309
1.08E-02,-0.07024062,-0.07013226
1.09E-02,-0.07023919,-0.07013154
1.11E-02,-0.07023811,-0.07013094
1.12E-02,-0.07023716,-0.07013035
1.12E-02,-0.07023716,-0.07013035
1.14E-02,-0.07023621,-0.07012987
1.16E-02,-0.07023549,-0.07012951
1.17E-02,-0.07023489,-0.07012916
1.19E-02,-0.07023442,-0.0701288
1.22E-02,-0.07023394,-0.07012856
1.23E-02,-0.0702337,-0.07012844
1.25E-02,-0.07023335,-0.07012832
1.28E-02,-0.07023311,-0.07012808
1.31E-02,-0.07023275,-0.07012796
1.33E-02,-0.07023275,-0.07012796
1.37E-02,-0.07023251,-0.07012773
1.42E-02,-0.07023239,-0.07012761
1.43E-02,-0.07023239,-0.07012761
1.51E-02,-0.07023227,-0.07012761
1.53E-02,-0.07023227,-0.07012761
1.63E-02,-0.07023227,-0.07012761
1.74E-02,-0.07023227,-0.07012761
1.84E-02,-0.07023215,-0.07012761
1.94E-02,-0.07023215,-0.07012761
2.04E-02,-0.07023227,-0.07012761
2.15E-02,-0.07023227,-0.07012761
2.25E-02,-0.07023227,-0.07012761
2.35E-02,-0.07023227,-0.07012761
2.45E-02,-0.07023227,-0.07012761
2.50E-02,-0.07023227,-0.07012761
2.50E-02,-0.07021189,-0.0701164
2.50E-02,-0.07016456,-0.07009029
2.50E-02,-0.06999445,-0.06999755
2.50E-02,-0.06845748,-0.06915694
2.50E-02,-0.06677692,-0.06823027
2.50E-02,-0.0661073,-0.06786108
2.50E-02,-0.0617913,-0.06548131
2.50E-02,-0.05696964,-0.06281519
2.50E-02,-0.05697393,-0.06281769
2.51E-02,-0.05814004,-0.06346035
2.52E-02,-0.05914211,-0.06401324
2.53E-02,-0.06000018,-0.06448603
2.53E-02,-0.06073189,-0.06488931
2.54E-02,-0.06134057,-0.06522489
2.55E-02,-0.06185317,-0.06550753
2.55E-02,-0.0622735,-0.06573939
2.55E-02,-0.06260562,-0.06592262
2.55E-02,-0.0626719,-0.06595922
2.56E-02,-0.06291509,-0.06609321
2.56E-02,-0.06308818,-0.06618857
2.56E-02,-0.06319594,-0.06624794
2.56E-02,-0.06324911,-0.06627727
2.56E-02,-0.06336188,-0.06633937
2.57E-02,-0.06353068,-0.06643271
2.57E-02,-0.06375837,-0.06655824
2.57E-02,-0.0640378,-0.06671238
2.58E-02,-0.06436777,-0.06689405
2.58E-02,-0.06474304,-0.06710112
2.59E-02,-0.06515181,-0.06732643
2.60E-02,-0.06558597,-0.06756592
2.61E-02,-0.06604028,-0.0678165
2.62E-02,-0.06650281,-0.06807148
2.63E-02,-0.06693113,-0.06830776
2.65E-02,-0.0673033,-0.06851292
2.66E-02,-0.06760907,-0.06868148
2.67E-02,-0.06789231,-0.06883776
2.68E-02,-0.06813824,-0.0689733
2.69E-02,-0.06835198,-0.06909132
2.71E-02,-0.06853771,-0.06919372
2.72E-02,-0.06869912,-0.06928277
2.73E-02,-0.06883919,-0.06936002
2.74E-02,-0.06896114,-0.06942725
2.75E-02,-0.069067,-0.06948566
2.76E-02,-0.06911111,-0.06950998
2.77E-02,-0.06919789,-0.06955791
2.78E-02,-0.06927335,-0.06959951
2.80E-02,-0.06933868,-0.06963563
2.81E-02,-0.06939542,-0.06966686
2.82E-02,-0.06944466,-0.06969404
2.83E-02,-0.06948745,-0.06971765
2.84E-02,-0.06952453,-0.06973815
2.86E-02,-0.06955671,-0.06975591
2.86E-02,-0.06956816,-0.06976223
2.87E-02,-0.06959462,-0.06977677
2.89E-02,-0.06961763,-0.06978965
2.90E-02,-0.06963766,-0.06980062
2.91E-02,-0.06965506,-0.06981015
2.92E-02,-0.0696702,-0.0698185
2.94E-02,-0.06968331,-0.06982589
2.95E-02,-0.06969464,-0.06983209
2.96E-02,-0.06970453,-0.06983757
2.96E-02,-0.06970727,-0.069839
2.98E-02,-0.0697155,-0.06984353
2.99E-02,-0.06972265,-0.06984758
3.00E-02,-0.06972885,-0.06985092
3.01E-02,-0.06973422,-0.06985402
3.03E-02,-0.06973898,-0.06985664
3.04E-02,-0.06974304,-0.06985879
3.05E-02,-0.06974661,-0.06986082
3.07E-02,-0.06974959,-0.06986248
3.08E-02,-0.06975234,-0.06986392
3.09E-02,-0.06975472,-0.06986523
3.11E-02,-0.06975663,-0.0698663
3.12E-02,-0.06975842,-0.06986737
3.14E-02,-0.06975985,-0.06986821
3.15E-02,-0.06976128,-0.06986892
3.17E-02,-0.06976235,-0.06986964
3.17E-02,-0.06976259,-0.06986964
3.19E-02,-0.06976354,-0.06987023
3.20E-02,-0.06976438,-0.06987071
3.22E-02,-0.06976497,-0.06987107
3.24E-02,-0.06976569,-0.06987143
3.26E-02,-0.06976616,-0.06987166
3.27E-02,-0.0697664,-0.0698719
3.29E-02,-0.069767,-0.06987214
3.32E-02,-0.06976724,-0.06987238
3.35E-02,-0.06976748,-0.0698725
3.37E-02,-0.06976771,-0.06987262
3.41E-02,-0.06976795,-0.06987274
3.46E-02,-0.06976807,-0.06987286
3.48E-02,-0.06976807,-0.06987286
3.55E-02,-0.06976819,-0.06987286
3.58E-02,-0.06976819,-0.06987286
3.68E-02,-0.06976819,-0.06987286
3.78E-02,-0.06976831,-0.06987286
3.89E-02,-0.06976831,-0.06987286
3.99E-02,-0.06976831,-0.06987286
4.09E-02,-0.06976819,-0.06987286
4.19E-02,-0.06976831,-0.06987286
4.30E-02,-0.06976831,-0.06987286
4.40E-02,-0.06976819,-0.06987286
4.50E-02,-0.06976831,-0.06987286
4.50E-02,-0.06978011,-0.06987941
4.50E-02,-0.06978524,-0.06988227
4.50E-02,-0.07013369,-0.07007051
4.50E-02,-0.07148057,-0.07081312
4.50E-02,-0.07314724,-0.0717321
4.50E-02,-0.07380871,-0.07209679
4.50E-02,-0.07639956,-0.0735291
4.51E-02,-0.07627046,-0.07345809
4.51E-02,-0.07596862,-0.07329148
4.52E-02,-0.0751825,-0.0728582
4.53E-02,-0.07450271,-0.0724834
4.55E-02,-0.07391214,-0.07215776
4.56E-02,-0.07339907,-0.07187484
4.57E-02,-0.07295328,-0.07162903
4.58E-02,-0.07256597,-0.07141546
4.59E-02,-0.07222942,-0.07122989
4.60E-02,-0.07206967,-0.0711418
4.61E-02,-0.07179826,-0.07099213
4.63E-02,-0.07156244,-0.07086209
4.64E-02,-0.07135756,-0.0707491
4.65E-02,-0.07117954,-0.07065094
4.66E-02,-0.07102488,-0.07056564
4.67E-02,-0.0708905,-0.07049153
4.69E-02,-0.07077377,-0.07042715
4.70E-02,-0.07067232,-0.0703712
4.70E-02,-0.07063,-0.07034786
4.72E-02,-0.07054679,-0.07030196
4.73E-02,-0.07047457,-0.07026212
4.74E-02,-0.07041189,-0.07022755
4.75E-02,-0.07035751,-0.07019755
4.76E-02,-0.07031031,-0.07017152
4.78E-02,-0.07026935,-0.07014891
4.79E-02,-0.0702338,-0.0701293
4.80E-02,-0.07020295,-0.07011228
4.81E-02,-0.07019196,-0.07010622
4.82E-02,-0.07016664,-0.07009224
4.83E-02,-0.0701445,-0.07008002
4.84E-02,-0.0701253,-0.07006942
4.86E-02,-0.07010867,-0.07006024
4.87E-02,-0.07009424,-0.07005228
4.88E-02,-0.07008165,-0.07004533
4.89E-02,-0.07007074,-0.0700393
4.90E-02,-0.07006123,-0.07003405
4.91E-02,-0.07005866,-0.07003263
4.92E-02,-0.07005078,-0.07002828
4.93E-02,-0.07004391,-0.07002448
4.95E-02,-0.07003794,-0.07002118
4.96E-02,-0.07003278,-0.07001833
4.97E-02,-0.07002829,-0.07001585
4.98E-02,-0.07002437,-0.07001368
5.00E-02,-0.07002097,-0.0700118
5.00E-02,-0.07002046,-0.07001152
5.00E-02,-0.07002045,-0.07001151
