time,"V(N012,N005)","V(N013,N007)"
0.0,-0.07,-0.07
0.001006310719994777,-0.07000009,-0.07000009
0.002030310719994708,-0.07000009,-0.07000009
0.0030543107199948443,-0.07000009,-0.07000009
0.0040783107199949785,-0.07000009,-0.07000009
0.005,-0.07000009,-0.07000009
0.0050000013999372825,-0.07000131,-0.07000091
0.005000004199811847,-0.07000384,-0.07000261
0.0050001,-0.070091,-0.07006129
0.005002040673822956,-0.07184387,-0.07124133
0.0050039813476459106,-0.07357557,-0.07240712
0.005005922021468865,-0.07528613,-0.07355867
0.005007862695291821,-0.07697553,-0.07469598
0.005009803369114775,-0.07864378,-0.07581904
0.005011744042937731,-0.08029087,-0.07692787
0.0050136847167606855,-0.08191681,-0.07802245
0.0050146847167606865,-0.08274686,-0.07858127
0.005015684716760687,-0.08357158,-0.07913646
0.005016684716760687,-0.08439094,-0.07968807
0.005017684716760687,-0.08520502,-0.08023608
0.005019684716760686,-0.08681744,-0.08132154
0.005021684716760688,-0.08840901,-0.08239299
0.005023684716760689,-0.08998007,-0.08345062
0.005025684716760688,-0.0915308,-0.08449459
0.005028684716760688,-0.09381956,-0.08603543
0.005031684716760689,-0.09606421,-0.08754653
0.005034684716760689,-0.09826553,-0.08902848
0.005035444042937732,-0.09881579,-0.08939896
0.005036203369114778,-0.09936347,-0.08976768
0.005036962695291822,-0.09990857,-0.09013466
0.005037722021468867,-0.1004511,-0.09049988
0.005038481347645911,-0.100991,-0.09086335
0.005039240673822956,-0.1015284,-0.09122507
0.00504,-0.10206319999999999,-0.09158504
0.0050401000000000005,-0.10204260000000001,-0.09157109
0.0050403,-0.102001,-0.09154308
0.005046328571428572,-0.1007773,-0.09071935
0.005052357142857145,-0.0995966,-0.08992458
0.005058385714285717,-0.09845901,-0.08915877
0.005064414285714289,-0.09736446,-0.08842192
0.005070442857142861,-0.09631297,-0.08771403
0.005076471428571434,-0.09530452,-0.0870351
0.0050825000000000045,-0.09433913,-0.08638513
0.005083500000000006,-0.09418201,-0.08627939
0.005100100000000001,-0.0917176,-0.08462036
0.005114014285714288,-0.08987944,-0.08338295
0.005127928571428576,-0.0881719,-0.08223346
0.005141842857142863,-0.08659497,-0.08117188
0.00515575714285715,-0.08514865,-0.08019821
0.005169671428571439,-0.08383295,-0.07931245
0.005183585714285725,-0.08264787,-0.07851461
0.005197500000000013,-0.08159339,-0.07780468
0.005211500000000015,-0.08061539,-0.0771463
0.0052255000000000175,-0.07970724,-0.07653492
0.005239500000000018,-0.07886892,-0.07597056
0.00525350000000002,-0.07810045,-0.07545321
0.005267500000000022,-0.07740181,-0.07498287
0.005281500000000024,-0.07677302,-0.07455954
0.005295500000000026,-0.07621408,-0.07418323
0.005309500000000028,-0.07569877,-0.07383632
0.00532350000000003,-0.07522026,-0.07351418
0.005337500000000032,-0.07477855,-0.07321683
0.0053515000000000324,-0.07437363,-0.07294425
0.005365500000000035,-0.0740055,-0.07269644
0.005379500000000037,-0.07367417,-0.07247341
0.005393500000000039,-0.07337964,-0.07227516
0.005407500000000041,-0.07310808,-0.07209235
0.005421500000000043,-0.07285593,-0.0719226
0.005435500000000045,-0.07262317,-0.07176591
0.005449500000000046,-0.0724098,-0.07162228
0.005463500000000047,-0.07221582,-0.07149171
0.00547750000000005,-0.07204125,-0.0713742
0.005491500000000053,-0.07188606,-0.07126975
0.005505500000000054,-0.07174298,-0.07117335
0.0055195000000000565,-0.07161011,-0.07108386
0.0055335000000000575,-0.07148746,-0.07100126
0.005547500000000059,-0.07137503,-0.07092556
0.005561500000000061,-0.07127282,-0.07085676
0.005575500000000063,-0.07118082,-0.07079486
0.005589500000000065,-0.07109904,-0.07073987
0.005603500000000067,-0.07102364,-0.07068912
0.005617500000000069,-0.07095363,-0.070642
0.005631500000000071,-0.07088901,-0.07059849
0.0056455000000000715,-0.07082978,-0.07055861
0.005659500000000074,-0.07077594,-0.07052234
0.005673500000000076,-0.07072749,-0.0704897
0.005687500000000078,-0.07068443,-0.07046068
0.00570150000000008,-0.07064472,-0.07043394
0.005715500000000082,-0.07060784,-0.07040911
0.005729500000000084,-0.07057379,-0.07038619
0.005743500000000085,-0.07054258,-0.07036517
0.005757500000000086,-0.07051419,-0.07034607
0.005771500000000089,-0.07048864,-0.07032887
0.005785500000000091,-0.07046592,-0.07031357
0.005799500000000093,-0.07044493,-0.07029942
0.0058135000000000955,-0.07042544,-0.07028629
0.0058275000000000965,-0.07040747,-0.07027418
0.0058415000000000975,-0.070391,-0.0702631
0.0058555000000001,-0.07037604,-0.07025303
0.005869500000000102,-0.07036259,-0.07024399
0.005883500000000104,-0.07035065,-0.07023597
0.005897642857142963,-0.07033953,-0.07022849
0.005911785714285822,-0.07032922,-0.07022154
0.005925928571428681,-0.0703197,-0.07021513
0.00594007142857154,-0.07031098,-0.07020926
0.005954214285714399,-0.07030306,-0.07020391
0.005968357142857258,-0.07029594,-0.07019911
0.005982500000000117,-0.07028961,-0.07019484
0.005996785714285833,-0.07028374,-0.07019087
0.00601107142857155,-0.07027829,-0.07018718
0.0060253571428572645,-0.07027326,-0.07018379
0.006039642857142982,-0.07026864,-0.07018069
0.006053928571428698,-0.07026444,-0.07017788
0.0060682142857144145,-0.07026067,-0.07017537
0.0060825000000001295,-0.07025731,-0.07017314
0.006104500000000132,-0.07025266,-0.07017004
0.006119214285714421,-0.07024997,-0.07016822
0.006133928571428709,-0.07024747,-0.07016652
0.0061486428571429965,-0.07024516,-0.07016494
0.0061633571428572845,-0.07024303,-0.0701635
0.006178071428571572,-0.07024109,-0.07016217
0.00619278571428586,-0.07023933,-0.07016098
0.006207500000000147,-0.07023776,-0.07015991
0.0062230714285715786,-0.07023628,-0.07015893
0.006238642857143009,-0.07023492,-0.07015802
0.006254214285714439,-0.07023368,-0.0701572
0.006269785714285869,-0.07023256,-0.07015645
0.0062853571428573,-0.07023155,-0.07015578
0.0063009285714287315,-0.07023066,-0.07015518
0.0063165000000001605,-0.07022989,-0.07015467
0.006333500000000164,-0.07022908,-0.07015413
0.006350500000000166,-0.07022834,-0.07015364
0.006367500000000168,-0.07022768,-0.0701532
0.00638450000000017,-0.0702271,-0.07015281
0.006401500000000173,-0.0702266,-0.07015247
0.006418500000000175,-0.07022618,-0.07015217
0.006435500000000177,-0.07022583,-0.07015193
0.006455357142857322,-0.07022541,-0.0701516
0.0064752142857144685,-0.07022503,-0.07015132
0.006495071428571614,-0.07022468,-0.07015108
0.006514928571428759,-0.07022438,-0.07015087
0.006534785714285904,-0.07022411,-0.07015071
0.00655464285714305,-0.07022388,-0.07015058
0.0065745000000001965,-0.07022369,-0.07015049
0.006600500000000199,-0.07022345,-0.07015029
0.006626500000000203,-0.07022324,-0.07015011
0.006652500000000206,-0.07022305,-0.07014996
0.0066785000000002094,-0.0702229,-0.07014984
0.006704500000000213,-0.07022278,-0.07014975
0.0067305000000002155,-0.07022268,-0.07014969
0.006756500000000221,-0.07022262,-0.07014966
0.006796500000000225,-0.07022254,-0.07014963
0.0068365000000002295,-0.07022247,-0.07014959
0.006876500000000236,-0.0702224,-0.07014956
0.006916500000000241,-0.07022235,-0.07014952
0.006956500000000246,-0.07022231,-0.07014949
0.0069965000000002525,-0.07022228,-0.07014946
0.007036500000000257,-0.07022226,-0.07014942
0.007128500000000269,-0.07022214,-0.0701493
0.007274642857143104,-0.07022215,-0.07014931
0.007420785714285938,-0.07022215,-0.07014932
0.007566928571428774,-0.07022215,-0.07014931
0.007713071428571606,-0.07022213,-0.07014929
0.007859214285714441,-0.0702221,-0.07014927
0.008005357142857276,-0.07022207,-0.07014923
0.00815150000000011,-0.07022202,-0.07014918
0.00815250000000011,-0.07022202,-0.07014918
0.009176499999999357,-0.0702219,-0.07014906
0.01020049999999861,-0.07022178,-0.07014894
0.01122449999999785,-0.07022178,-0.07014894
0.0122484999999971,-0.07022178,-0.07014894
0.01327249999999635,-0.07022166,-0.07014894
0.0142964999999956,-0.07022166,-0.07014894
0.01532049999999484,-0.07022166,-0.07014894
0.016344499999995342,-0.07022166,-0.07014894
0.01736849999999636,-0.07022166,-0.07014894
0.01839249999999739,-0.07022166,-0.07014894
0.01941649999999841,-0.07022166,-0.07014894
0.020440499999999442,-0.07022166,-0.07014894
0.02146450000000046,-0.07022166,-0.07014894
0.02248850000000148,-0.07022166,-0.07014894
0.02351250000000251,-0.07022166,-0.07014894
0.02453650000000353,-0.07022166,-0.07014894
0.025,-0.07022166,-0.07014894
0.02500002,-0.07018542,-0.07012451
0.02500006,-0.07011259,-0.07007539
0.0250002,-0.06985795,-0.06990409
0.02500177257142857,-0.06701552,-0.06799053
0.02500334514285714,-0.06420098,-0.06609575
0.02500491771428572,-0.06141434,-0.06421976
0.025006490285714292,-0.05865559,-0.06236255
0.025008062857142858,-0.05592473,-0.06052414
0.02500963542857143,-0.05322177,-0.05870451
0.025011208,-0.05054671,-0.05690366
0.02501532114285715,-0.04368895,-0.05228699
0.02501943428571429,-0.03700039,-0.04778422
0.025023547428571432,-0.03048101,-0.04339536
0.025027660571428568,-0.02413083,-0.0391204
0.02503177371428571,-0.01794983,-0.03495935
0.02503588685714286,-0.01193803,-0.03091221
0.02504,-0.006095409,-0.02697897
0.02504006008332743,-0.006120324,-0.02699566
0.02504018024998228,-0.006170154000000001,-0.02702928
0.02504870629757772,-0.00959519,-0.02933501
0.02505723234517316,-0.01285708,-0.03153092
0.0250657583927686,-0.01595582,-0.033617
0.025074284440364032,-0.01889142,-0.03559325
0.02508281048795947,-0.02166387,-0.03745968
0.025091336535554908,-0.02427317,-0.03921627
0.02509986258315035,-0.02671933,-0.04086304
0.02510371972600749,-0.02778996,-0.04158375
0.02510757686886464,-0.0288355,-0.04228759
0.025111434011721792,-0.02985595,-0.04297456
0.02511529115457893,-0.03085131,-0.04364465
0.02511914829743608,-0.03182159,-0.04429787
0.025123005440293233,-0.03276678,-0.04493421
0.025126862583150368,-0.03368688,-0.04555368
0.02512886258315037,-0.03415573,-0.04586935
0.02513186258315038,-0.03484762,-0.0463351
0.02513886258315038,-0.03640282,-0.04738205
0.02514586258315039,-0.03789554,-0.04838694
0.0251528625831504,-0.03932579,-0.04934977
0.025159862583150408,-0.04069356,-0.05027055
0.025166862583150408,-0.04199886,-0.05114926
0.02517386258315042,-0.04324168,-0.05198591
0.025180862583150432,-0.04442203,-0.05278051
0.02518361078555751,-0.04487313,-0.05308421
0.02518635898796459,-0.04531657,-0.05338274
0.02518910719037167,-0.04575233,-0.0536761
0.02519185539277875,-0.04618043,-0.0539643
0.02519460359518583,-0.04660086,-0.05424733
0.02519735179759292,-0.04701362,-0.05452519
0.0252001,-0.04741871,-0.05479789
0.0252140142857143,-0.04933065,-0.05608508
0.0252279285714286,-0.05110674,-0.0572808
0.0252418428571429,-0.05274697,-0.05838504
0.0252557571428572,-0.05425136,-0.05939781
0.0252696714285715,-0.0556199,-0.0603191
0.02528358571428579,-0.05685259,-0.06114892
0.02529750000000009,-0.05794942,-0.06188726
0.025311500000000108,-0.05896664,-0.06257203
0.02532550000000012,-0.05991123,-0.06320792
0.02533950000000014,-0.06078318,-0.06379493
0.02535350000000015,-0.06158249,-0.06433306
0.02536750000000016,-0.06230918,-0.06482231
0.02538150000000018,-0.06296322,-0.06526267
0.025395500000000192,-0.06354463,-0.06565416
0.02540950000000021,-0.06408065,-0.06601497
0.02542350000000022,-0.0645784,-0.06635001
0.02543750000000023,-0.06503787,-0.0666593
0.02545150000000025,-0.06545907,-0.06694284
0.02546550000000026,-0.065842,-0.06720061
0.02547950000000028,-0.06618665,-0.06743262
0.02549350000000029,-0.06649303,-0.06763887
0.02550064285714316,-0.06664215,-0.06773928
0.025507785714286017,-0.06678516,-0.06783558
0.025514928571428883,-0.06692206,-0.06792776
0.02552207142857175,-0.06705287,-0.06801582
0.02552921428571461,-0.06717758,-0.06809976
0.025536357142857482,-0.06729618,-0.06817959
0.02554350000000034,-0.06740868,-0.06825531
0.02554450000000034,-0.06742406,-0.06826568
0.02555850000000036,-0.06762641,-0.06840191
0.02557250000000037,-0.06781432,-0.06852842
0.02558650000000038,-0.06798778,-0.06864521
0.0256005000000004,-0.06814681,-0.06875227
0.025614500000000408,-0.06829139,-0.06884962
0.025628500000000432,-0.06842153,-0.06893724
0.02564250000000044,-0.06853724,-0.06901515
0.02565650000000045,-0.06864386,-0.06908692
0.025670500000000467,-0.06874287,-0.06915356
0.02568450000000048,-0.06883426,-0.06921507
0.0256985000000005,-0.06891803,-0.06927146
0.02571250000000051,-0.06899418,-0.06932272
0.02572650000000052,-0.06906271,-0.06936885
0.02574050000000054,-0.06912363,-0.06940985
0.02575450000000055,-0.06917984,-0.06944776
0.02576850000000057,-0.06923204,-0.06948294
0.025782500000000583,-0.06928022,-0.0695154
0.02579650000000059,-0.06932437,-0.06954513
0.02581050000000061,-0.06936451,-0.06957214
0.025824500000000618,-0.06940063,-0.06959643
0.025838500000000642,-0.06943274,-0.06961799
0.02585250000000065,-0.06946235,-0.0696379
0.02586650000000066,-0.06948985,-0.06965641
0.02588050000000068,-0.06951525,-0.06967351
0.02589450000000069,-0.06953853,-0.06968919
0.02590850000000071,-0.06955969,-0.06970346
0.02592250000000072,-0.06957875,-0.06971633
0.02593650000000073,-0.06959569,-0.06972778
0.02595064285714361,-0.06961146,-0.06973837
0.025964785714286467,-0.06962608,-0.06974819
0.02597892857142935,-0.06963957,-0.06975726
0.02599307142857222,-0.06965191,-0.06976558
0.02600721428571509,-0.06966312,-0.06977313
0.02602135714285796,-0.06967319,-0.06977992
0.026035500000000832,-0.06968212,-0.06978595
0.026049642857143708,-0.06969039,-0.06979154
0.02606378571428657,-0.06969807,-0.06979672
0.02607792857142945,-0.06970515,-0.06980148
0.026092071428572318,-0.06971164,-0.06980584
0.02610621428571519,-0.06971753,-0.06980979
0.02612035714285806,-0.06972283,-0.06981334
0.02613450000000093,-0.06972754,-0.06981647
0.02614892857142952,-0.06973191,-0.06981942
0.0261633571428581,-0.06973598,-0.06982216
0.02617778571428669,-0.06973973,-0.0698247
0.02619221428571528,-0.06974317,-0.06982703
0.026206642857143858,-0.0697463,-0.06982916
0.02622107142857245,-0.06974911,-0.06983108
0.026235500000001032,-0.06975162,-0.0698328
0.02625035714285819,-0.06975395,-0.06983438
0.02626521428571535,-0.06975611,-0.06983584
0.02628007142857251,-0.06975809,-0.06983718
0.02629492857142966,-0.06975989,-0.06983841
0.02630978571428682,-0.06976152,-0.06983952
0.02632464285714398,-0.06976298,-0.06984051
0.02633950000000114,-0.06976426,-0.06984138
0.02635535714285829,-0.06976554,-0.0698422
0.02637121428571546,-0.06976672,-0.06984296
0.02638707142857261,-0.0697678,-0.06984367
0.026402928571429767,-0.06976879,-0.06984433
0.026418785714286932,-0.06976968,-0.06984495
0.02643464285714409,-0.06977047,-0.06984552
0.02645050000000125,-0.06977117,-0.06984603
0.02646721428571555,-0.06977176,-0.06984645
0.02648392857142985,-0.06977232,-0.06984683
0.02650064285714416,-0.06977283,-0.06984718
0.02651735714285846,-0.06977331,-0.0698475
0.02653407142857276,-0.06977375,-0.0698478
0.02655078571428706,-0.06977415,-0.06984806
0.02656750000000136,-0.06977451,-0.0698483
0.02656850000000137,-0.06977451,-0.0698483
0.02658935714285853,-0.0697749,-0.06984857
0.02661021428571569,-0.06977525,-0.06984882
0.02663107142857286,-0.06977556,-0.06984904
0.02665192857143002,-0.06977583,-0.06984922
0.026672785714287182,-0.06977607,-0.06984938
0.02669364285714435,-0.06977626,-0.06984951
0.026714500000001508,-0.06977642,-0.06984961
0.0267426428571444,-0.06977661,-0.06984978
0.02677078571428728,-0.06977679,-0.06984993
0.02679892857143017,-0.06977694,-0.06985004
0.02682707142857305,-0.06977708,-0.06985013
0.02685521428571594,-0.06977719,-0.06985018
0.02688335714285882,-0.06977729,-0.06985021
0.02691150000000171,-0.06977737,-0.06985021
0.02695721428571604,-0.06977751,-0.06985035
0.027002928571430367,-0.06977762,-0.06985045
0.0270486428571447,-0.0697777,-0.06985053
0.02709435714285903,-0.06977775,-0.06985059
0.02714007142857337,-0.06977777,-0.06985061
0.0271857857142877,-0.06977776,-0.0698506
0.027231500000002032,-0.06977773,-0.06985056
0.02728292857143065,-0.06977776,-0.0698506
0.02733435714285927,-0.0697778,-0.06985063
0.0273857857142879,-0.06977783,-0.06985067
0.027437214285716518,-0.06977786,-0.0698507
0.02748864285714514,-0.0697779,-0.06985073
0.02754007142857377,-0.06977793,-0.06985077
0.027591500000002392,-0.06977797,-0.0698508
0.02759250000000239,-0.06977797,-0.0698508
0.028616500000003414,-0.0697782,-0.06985104
0.029640500000004438,-0.06977844,-0.06985128
0.03066450000000546,-0.06977856,-0.0698514
0.03168850000000648,-0.06977868,-0.06985152
0.03271250000000751,-0.06977868,-0.06985152
0.03373650000000853,-0.0697788,-0.06985164
0.03476050000000956,-0.0697788,-0.06985164
0.03578450000001058,-0.0697788,-0.06985164
0.0368085000000116,-0.0697788,-0.06985164
0.037832500000012634,-0.06977892,-0.06985164
0.03885650000001365,-0.06977892,-0.06985164
0.03988050000001468,-0.06977892,-0.06985164
0.0409045000000157,-0.06977892,-0.06985164
0.041928500000016716,-0.06977892,-0.06985164
0.04295250000001775,-0.06977892,-0.06985164
0.04397650000001877,-0.06977892,-0.06985164
0.045,-0.06977892,-0.06985164
0.04500001,-0.06978798,-0.06985784
0.04500003,-0.0698061,-0.06987
0.0450001,-0.06986988,-0.06991291
0.045000388,-0.07013138,-0.07008897
0.04500067600000001,-0.0703924,-0.0702647
0.04500096400000001,-0.07065293,-0.0704401
0.04500125200000002,-0.07091298,-0.07061517
0.04500154000000002,-0.07117254,-0.0707899
0.04500182800000003,-0.07143161,-0.07096431
0.04500211600000003,-0.0716902,-0.07113838
0.04500511600000003,-0.07435739,-0.07293391
0.04500768742857146,-0.0766011,-0.07444439
0.0450102588571429,-0.07880914,-0.07593086
0.04501283028571432,-0.08098151,-0.07739331
0.04501540171428576,-0.08311821,-0.07883174
0.04501797314285719,-0.08521923,-0.08024615
0.045020544571428615,-0.08728458,-0.08163655
0.04502311600000005,-0.08931425,-0.08300292
0.04502552800000004,-0.09118759,-0.08426405
0.04502794000000004,-0.09303304,-0.08550641
0.04503035200000003,-0.09485062,-0.08673
0.04503276400000002,-0.09664031,-0.08793482
0.04503517600000001,-0.09840211,-0.08912087
0.045037588,-0.100136,-0.09028816
0.04504,-0.1018421,-0.09143667
0.0450401,-0.1018213,-0.09142271
0.0450403,-0.1017798,-0.09139475
0.04504882857142857,-0.1000682,-0.09024248
0.045057357142857135,-0.0984381,-0.0891451
0.045065885714285714,-0.09688953,-0.0881026
0.045074414285714286,-0.09542248,-0.08711498
0.045082942857142864,-0.09403696,-0.08618224
0.04509147142857143,-0.09273297,-0.08530438
0.0451,-0.0915105,-0.08448141
0.04511392857142859,-0.0896694,-0.08324198
0.04512785714285717,-0.08795923,-0.08209068
0.04514178571428576,-0.08637997,-0.08102753
0.04515571428571434,-0.08493164,-0.0800525
0.04516964285714293,-0.08361423,-0.07916562
0.04518357142857151,-0.08242774,-0.07836686
0.0451975000000001,-0.08137218,-0.07765625
0.04521150000000011,-0.08039422,-0.07699789
0.045225500000000134,-0.07948609,-0.07638653
0.04523950000000014,-0.07864779,-0.07582218
0.04525350000000016,-0.07787932,-0.07530485
0.04526750000000017,-0.07718068,-0.07483452
0.04528150000000018,-0.07655186,-0.07441119
0.0452955000000002,-0.07599287,-0.07403488
0.04530950000000021,-0.07547757,-0.07368797
0.04532350000000023,-0.07499906,-0.07336583
0.04533750000000024,-0.07455734,-0.07306846
0.04535150000000025,-0.07415242,-0.07279587
0.04536550000000027,-0.07378429,-0.07254804
0.04537950000000028,-0.07345295,-0.07232498
0.0453935000000003,-0.07315841,-0.07212669
0.045407500000000316,-0.07288689,-0.0719439
0.045421500000000316,-0.07263475,-0.07177416
0.04543550000000034,-0.072402,-0.07161747
0.04544950000000035,-0.07218863,-0.07147383
0.04546350000000037,-0.07199466,-0.07134324
0.04547750000000038,-0.07182007,-0.07122571
0.045491500000000386,-0.07166487,-0.07112122
0.045505500000000414,-0.07152179,-0.0710249
0.04551950000000042,-0.07138893,-0.07093546
0.045533500000000435,-0.07126629,-0.07085289
0.04554750000000045,-0.07115386,-0.0707772
0.04556150000000046,-0.07105164,-0.07070839
0.045575500000000484,-0.07095965,-0.07064646
0.04558950000000049,-0.07087787,-0.0705914
0.04560350000000051,-0.07080248,-0.07054064
0.04561750000000052,-0.07073247,-0.07049351
0.04563150000000053,-0.07066784,-0.07045
0.04564550000000055,-0.0706086,-0.07041012
0.04565950000000056,-0.07055474,-0.07037386
0.04567350000000058,-0.07050626,-0.07034122
0.04568750000000059,-0.07046317,-0.07031221
0.0457015000000006,-0.07042344,-0.07028546
