time,"V(N012,N005)","V(N013,N007)"
0.0,-0.07,-0.07
0.001006310719994777,-0.07000009,-0.07000009
0.002030310719994708,-0.07000009,-0.07000009
0.0030543107199948443,-0.07000009,-0.07000009
0.0040783107199949785,-0.07000009,-0.07000009
0.005,-0.07000009,-0.07000009
0.005000001528777893,-0.07000143,-0.07000077
0.0050000045863336775,-0.07000419,-0.07000217
0.0050001,-0.070091,-0.07004622
0.005002166367881656,-0.07195814,-0.07099359
0.005004232735763311,-0.07380362,-0.07192996
0.005006299103644968,-0.07562744,-0.07285535
0.005008365471526625,-0.07742961,-0.07376975
0.005010431839408281,-0.07921011,-0.07467316
0.005012498207289937,-0.08096896,-0.07556558
0.005014564575171593,-0.08270615,-0.07644701
0.005015564575171593,-0.08353955,-0.07686988
0.005016564575171593,-0.08436811,-0.07729024
0.005017564575171593,-0.08519179,-0.07770818
0.005019564575171593,-0.08682477,-0.07853681
0.005021564575171594,-0.08843881,-0.07935572
0.005023564575171594,-0.09003407,-0.08016515
0.005025564575171594,-0.09161085,-0.0809651
0.005028564575171595,-0.09394157,-0.08214778
0.005031564575171595,-0.0962317,-0.08330977
0.005034564575171595,-0.09848213,-0.08445156
0.005035341064432796,-0.09905806,-0.08474376
0.005036117553693997,-0.0996315,-0.0850347
0.005036894042955198,-0.1002025,-0.08532439
0.005037670532216398,-0.1007709,-0.08561283
0.005038447021477599,-0.1013369,-0.08590001
0.005039223510738799,-0.10190039999999999,-0.08618593
0.00504,-0.1024613,-0.0864706
0.0050401000000000005,-0.10244249999999999,-0.08646095
0.0050403,-0.1024046,-0.08644176
0.005046328571428572,-0.1012854,-0.08587387
0.005052357142857145,-0.100202,-0.08532419
0.005058385714285717,-0.09915453,-0.08479272
0.005064414285714289,-0.09814295,-0.08427945
0.005070442857142861,-0.09716727,-0.0837844
0.005076471428571434,-0.09622747,-0.08330755
0.0050825000000000045,-0.09532356,-0.08284891
0.005083500000000006,-0.09517622,-0.08277416
0.005100100000000001,-0.09285247,-0.08159506
0.005115585714285717,-0.09091338,-0.08061125
0.005131071428571433,-0.08911244,-0.07969752
0.005146557142857149,-0.08744964,-0.07885386
0.005162042857142866,-0.08592498,-0.07808028
0.005177528571428582,-0.08453848,-0.07737677
0.005193014285714298,-0.08329012,-0.07674334
0.005208500000000014,-0.0821799,-0.07617998
0.0052239285714285886,-0.08115974,-0.07566235
0.005239357142857161,-0.08021207,-0.0751815
0.005254785714285734,-0.07933686,-0.07473742
0.0052702142857143095,-0.07853414,-0.07433012
0.005285642857142882,-0.0778039,-0.07395959
0.0053010714285714544,-0.07714614,-0.07362583
0.005316500000000029,-0.07656085,-0.07332885
0.005331928571428602,-0.0760211,-0.07305497
0.005347357142857175,-0.0755197,-0.07280055
0.00536278571428575,-0.07505663,-0.07256559
0.005378214285714323,-0.0746319,-0.07235009
0.005393642857142896,-0.07424552,-0.07215406
0.0054090714285714705,-0.07389748,-0.07197749
0.005424500000000043,-0.07358778,-0.07182038
0.0054399285714286155,-0.07330216,-0.07167547
0.00545535714285719,-0.07303684,-0.07154085
0.005470785714285763,-0.07279181,-0.07141651
0.005486214285714336,-0.07256706,-0.07130247
0.005501642857142911,-0.07236261,-0.0711987
0.005517071428571484,-0.07217844,-0.07110522
0.005532500000000057,-0.07201457,-0.07102203
0.0055479285714286316,-0.07186345,-0.07094538
0.005563357142857204,-0.07172306,-0.07087416
0.005578785714285777,-0.07159341,-0.07080838
0.0055942142857143525,-0.07147449,-0.07074805
0.005609642857142925,-0.0713663,-0.07069315
0.0056250714285714975,-0.07126885,-0.07064369
0.005640500000000072,-0.07118213,-0.07059968
0.0056560714285715024,-0.07110153,-0.0705588
0.005671642857142933,-0.07102669,-0.07052084
0.005687214285714364,-0.07095761,-0.0704858
0.005702785714285794,-0.0708943,-0.07045369
0.005718357142857225,-0.07083674,-0.07042449
0.0057339285714286545,-0.07078495,-0.07039821
0.005749500000000086,-0.07073891,-0.07037485
0.005765071428571517,-0.07069652,-0.07035331
0.005780642857142948,-0.07065714,-0.0703333
0.005796214285714378,-0.07062078,-0.07031484
0.0058117857142858075,-0.07058743,-0.07029791
0.005827357142857239,-0.07055711,-0.07028252
0.005842928571428671,-0.07052979,-0.07026867
0.005858500000000101,-0.0705055,-0.07025635
0.005874071428571531,-0.07048321,-0.07024501
0.005889642857142962,-0.07046251,-0.07023449
0.005905214285714393,-0.0704434,-0.07022478
0.005920785714285823,-0.0704259,-0.07021589
0.0059363571428572535,-0.07040999,-0.07020782
0.005951928571428684,-0.07039567,-0.07020056
0.005967500000000115,-0.07038295,-0.07019413
0.005983214285714403,-0.07037107,-0.07018814
0.0059989285714286905,-0.07036006,-0.07018258
0.006014642857142979,-0.07034991,-0.07017746
0.006030357142857266,-0.07034063,-0.07017276
0.006046071428571554,-0.07033222,-0.07016848
0.006061785714285842,-0.07032467,-0.07016464
0.00607750000000013,-0.07031798,-0.07016122
0.006081214285714415,-0.07031645,-0.0701604
0.006084928571428702,-0.07031494,-0.07015961
0.006088642857142989,-0.07031347,-0.07015885
0.006092357142857274,-0.07031202,-0.07015812
0.006096071428571561,-0.0703106,-0.07015742
0.0060997857142858465,-0.07030921,-0.07015674
0.006103500000000133,-0.07030785,-0.0701561
0.006104500000000132,-0.07030749,-0.07015586
0.006120500000000135,-0.07030215,-0.07015313
0.006136500000000138,-0.07029718,-0.07015059
0.00615250000000014,-0.0702926,-0.07014825
0.006168500000000143,-0.07028839,-0.07014611
0.006184500000000144,-0.07028456,-0.07014416
0.006200500000000146,-0.07028112,-0.0701424
0.006216500000000147,-0.07027805,-0.07014084
0.006232928571428722,-0.07027519,-0.07013942
0.006249357142857295,-0.07027255,-0.0701381
0.006265785714285869,-0.07027012,-0.07013688
0.006282214285714443,-0.07026791,-0.07013576
0.0062986428571430155,-0.07026591,-0.07013473
0.00631507142857159,-0.07026412,-0.0701338
0.006331500000000163,-0.07026255,-0.07013297
0.00634878571428588,-0.07026104,-0.07013222
0.006366071428571597,-0.07025965,-0.07013152
0.006383357142857313,-0.07025838,-0.07013088
0.00640064285714303,-0.07025722,-0.0701303
0.006417928571428746,-0.07025618,-0.07012978
0.006435214285714463,-0.07025525,-0.07012932
0.006452500000000179,-0.07025445,-0.07012892
0.006471642857143039,-0.07025367,-0.07012851
0.006490785714285898,-0.07025294,-0.07012812
0.0065099285714287575,-0.07025226,-0.07012777
0.006529071428571618,-0.07025163,-0.07012745
0.006548214285714478,-0.07025105,-0.07012715
0.006567357142857336,-0.07025052,-0.07012689
0.006586500000000197,-0.07025003,-0.07012665
0.006609071428571629,-0.07024961,-0.07012641
0.006631642857143061,-0.07024923,-0.0701262
0.006654214285714492,-0.07024888,-0.07012602
0.006676785714285922,-0.07024857,-0.07012586
0.006699357142857355,-0.07024831,-0.07012574
0.0067219285714287865,-0.07024808,-0.07012565
0.006744500000000218,-0.07024789,-0.07012558
0.006774500000000222,-0.07024769,-0.07012547
0.006804500000000226,-0.07024752,-0.07012536
0.006834500000000229,-0.07024736,-0.07012527
0.006864500000000234,-0.07024723,-0.07012518
0.006894500000000238,-0.07024711,-0.07012511
0.006924500000000242,-0.07024701,-0.07012504
0.006954500000000246,-0.07024693,-0.07012498
0.0069792142857145354,-0.07024691,-0.07012501
0.007003928571428824,-0.07024688,-0.07012501
0.007028642857143113,-0.07024684,-0.070125
0.007053357142857402,-0.07024679,-0.07012496
0.00707807142857169,-0.07024673,-0.07012491
0.00710278571428598,-0.07024666,-0.07012484
0.007127500000000269,-0.07024658,-0.07012475
0.007128500000000269,-0.07024658,-0.07012475
0.007204500000000279,-0.07024653,-0.07012475
0.007280500000000289,-0.07024649,-0.07012475
0.0073565000000002986,-0.07024647,-0.07012475
0.0074325000000003095,-0.07024645,-0.07012475
0.0075085000000003205,-0.07024644,-0.07012475
0.00758450000000033,-0.07024645,-0.07012475
0.007660500000000341,-0.07024646,-0.07012475
0.00815250000000011,-0.07024634,-0.07012463
0.009176499999999357,-0.07024622,-0.07012451
0.01020049999999861,-0.0702461,-0.07012439
0.01122449999999785,-0.0702461,-0.07012439
0.0122484999999971,-0.07024598,-0.07012439
0.01327249999999635,-0.07024598,-0.07012439
0.0142964999999956,-0.07024598,-0.07012439
0.01532049999999484,-0.07024598,-0.07012439
0.016344499999995342,-0.07024598,-0.07012439
0.01736849999999636,-0.07024598,-0.07012439
0.01839249999999739,-0.07024598,-0.07012439
0.01941649999999841,-0.07024598,-0.07012439
0.020440499999999442,-0.07024598,-0.07012439
0.02146450000000046,-0.07024598,-0.07012439
0.02248850000000148,-0.07024598,-0.07012439
0.02351250000000251,-0.07024598,-0.07012439
0.02453650000000353,-0.07024598,-0.07012439
0.025,-0.07024598,-0.07012439
0.02500002,-0.07020962,-0.07010591
0.02500006,-0.0701369,-0.07006896
0.0250002,-0.06988215,-0.06993973
0.02500191542857143,-0.06678058,-0.06836603
0.02500363085714286,-0.06370899,-0.06680754
0.02500534628571429,-0.06066736,-0.06526425
0.025007061714285718,-0.05765571,-0.06373616
0.02500877714285715,-0.05467403,-0.06222328
0.02501049257142858,-0.05172232,-0.06072561
0.025012208000000008,-0.04880059,-0.05924314
0.02501617828571429,-0.04215784,-0.05587268
0.02502014857142857,-0.03565899,-0.05257523
0.025024118857142858,-0.02930404,-0.0493508
0.02502808914285715,-0.023093,-0.04619939
0.02503205942857143,-0.01702586,-0.043121
0.02503602971428572,-0.01110263,-0.04011564
0.02504,-0.005323291,-0.03718328
0.025040052495341518,-0.00534308,-0.0371933
0.02504015748602455,-0.005382895,-0.03721356
0.02504979603881921,-0.008912651,-0.03900448
0.02505943459161386,-0.01227153,-0.0407087
0.02506907314440851,-0.01545954,-0.04232624
0.02507871169720317,-0.01847668,-0.04385709
0.02508835024999782,-0.02132294,-0.04530126
0.02509798880279247,-0.02399833,-0.04665873
0.02510762735558713,-0.02650285,-0.04792953
0.02511191306987284,-0.02758002,-0.04847606
0.02511619878415856,-0.02863191,-0.04900978
0.02512048449844428,-0.02965851,-0.04953068
0.02512477021273,-0.03065984,-0.05003877
0.02512905592701572,-0.03163588,-0.05053404
0.02513334164130144,-0.03258664,-0.0510165
0.02513762735558716,-0.03351212,-0.05148613
0.025139627355587158,-0.03393686,-0.05170155
0.025142627355587158,-0.0345645,-0.05202007
0.02514991306987288,-0.03603743,-0.05276742
0.025157198784158608,-0.03745441,-0.05348637
0.025164484498444332,-0.03881544,-0.05417692
0.02517177021273005,-0.0401205,-0.05483908
0.02517905592701577,-0.04136962,-0.05547284
0.025186341641301492,-0.04256278,-0.0560782
0.02519362735558721,-0.04369998,-0.05665517
0.0252001,-0.04467535,-0.05715013
0.025214871428571442,-0.04673424,-0.05819478
0.02522964285714288,-0.04865176,-0.05916771
0.02524441428571433,-0.05042791,-0.06006892
0.02525918571428577,-0.0520627,-0.06089842
0.02527395714285722,-0.05355611,-0.06165619
0.025288728571428658,-0.05490816,-0.06234224
0.0253035000000001,-0.05611885,-0.06295657
0.02531892857142869,-0.05728436,-0.06354789
0.02533435714285727,-0.05836707,-0.06409721
0.02534978571428586,-0.059367,-0.06460454
0.02536521428571445,-0.06028413,-0.06506988
0.02538064285714304,-0.06111846,-0.06549324
0.02539607142857162,-0.06187,-0.0658746
0.025411500000000208,-0.06253874,-0.06621397
0.0254269285714288,-0.06315537,-0.0665268
0.02544235714285738,-0.0637282,-0.06681744
0.025457785714285967,-0.06425724,-0.06708586
0.02547321428571456,-0.06474249,-0.06733208
0.02548864285714314,-0.06518395,-0.06755609
0.02550407142857173,-0.06558162,-0.0677579
0.02551950000000032,-0.06593549,-0.06793749
0.02554350000000034,-0.06643903,-0.06819296
0.02554450000000034,-0.06645846,-0.06820285
0.02555992857142893,-0.06674009,-0.0683457
0.02557535714285751,-0.0670017,-0.06847842
0.0255907857142861,-0.0672433,-0.06860099
0.02560621428571469,-0.06746487,-0.06871342
0.02562164285714328,-0.06766643,-0.06881571
0.02563707142857186,-0.06784797,-0.06890786
0.02565250000000045,-0.0680095,-0.06898987
0.02566792857142904,-0.06815853,-0.06906549
0.02568335714285762,-0.06829697,-0.06913574
0.02569878571428621,-0.06842483,-0.06920061
0.0257142142857148,-0.06854209,-0.06926011
0.02572964285714339,-0.06864877,-0.06931424
0.025745071428571967,-0.06874487,-0.069363
0.02576050000000056,-0.06883037,-0.06940639
0.025776071428572,-0.0689099,-0.06944675
0.02579164285714345,-0.06898373,-0.06948423
0.02580721428571489,-0.06905187,-0.06951881
0.025822785714286332,-0.06911432,-0.0695505
0.02583835714285778,-0.06917108,-0.0695793
0.025853928571429218,-0.06922214,-0.06960522
0.02586950000000067,-0.06926751,-0.06962824
0.02588507142857211,-0.06930931,-0.06964949
0.02590064285714356,-0.06934814,-0.06966922
0.025916214285715,-0.06938398,-0.06968742
0.02593178571428644,-0.06941685,-0.06970409
0.02594735714285789,-0.06944674,-0.06971924
0.02596292857142933,-0.06947365,-0.06973286
0.025978500000000782,-0.06949759,-0.06974494
0.02599407142857222,-0.06951958,-0.06975613
0.026009642857143668,-0.06954,-0.06976651
0.02602521428571511,-0.06955885,-0.06977609
0.02604078571428655,-0.06957612,-0.06978488
0.026056357142858,-0.06959181,-0.06979287
0.02607192857142944,-0.06960592,-0.06980006
0.02608750000000088,-0.06961846,-0.06980646
0.02610321428571519,-0.06963018,-0.06981236
0.02611892857142949,-0.06964105,-0.06981785
0.02613464285714379,-0.06965108,-0.06982291
0.02615035714285809,-0.06966026,-0.06982756
0.026166071428572392,-0.06966859,-0.06983179
0.02618178571428669,-0.06967608,-0.06983561
0.02619750000000099,-0.06968272,-0.069839
0.02621335714285815,-0.06968885,-0.06984215
0.02622921428571531,-0.06969455,-0.06984507
0.026245071428572467,-0.0696998,-0.06984776
0.026260928571429632,-0.06970462,-0.06985021
0.02627678571428679,-0.069709,-0.06985243
0.02629264285714395,-0.06971295,-0.06985442
0.02630850000000111,-0.06971645,-0.06985617
0.02632478571428683,-0.06971977,-0.0698578
0.02634107142857257,-0.06972283,-0.06985932
0.0263573571428583,-0.06972564,-0.06986074
0.026373642857144032,-0.06972819,-0.06986205
0.026389928571429758,-0.06973049,-0.06986326
0.02640621428571549,-0.06973254,-0.06986436
0.02642250000000122,-0.06973433,-0.06986535
0.0264396428571441,-0.06973616,-0.06986626
0.02645678571428697,-0.06973784,-0.0698671
0.02647392857142984,-0.06973936,-0.06986786
0.02649107142857272,-0.06974072,-0.06986854
0.026508214285715592,-0.06974193,-0.06986914
0.02652535714285846,-0.06974298,-0.06986967
0.02654250000000134,-0.06974387,-0.06987011
0.02656850000000137,-0.06974518,-0.06987083
0.02658750000000138,-0.06974602,-0.0698713
0.0266065000000014,-0.06974678,-0.06987172
0.02662550000000142,-0.06974748,-0.06987209
0.02664450000000144,-0.06974811,-0.06987242
0.02666350000000146,-0.06974867,-0.06987269
0.026682500000001483,-0.06974917,-0.06987292
0.0267015000000015,-0.06974959,-0.06987309
0.02672392857143009,-0.06975,-0.06987332
0.026746357142858692,-0.06975039,-0.06987353
0.026768785714287282,-0.06975074,-0.06987372
0.026791214285715882,-0.06975106,-0.06987389
0.02681364285714447,-0.06975136,-0.06987404
0.02683607142857306,-0.06975162,-0.06987417
0.02685850000000166,-0.06975186,-0.06987429
0.02688821428571597,-0.0697521,-0.06987439
0.02691792857143029,-0.06975231,-0.06987449
0.0269476428571446,-0.06975249,-0.06987459
0.02697735714285892,-0.06975265,-0.0698747
0.02700707142857323,-0.06975277,-0.0698748
0.02703678571428755,-0.06975287,-0.0698749
0.02706650000000186,-0.06975293,-0.069875
0.0271132142857162,-0.06975305,-0.06987504
0.02715992857143053,-0.06975315,-0.06987507
0.027206642857144858,-0.06975325,-0.0698751
0.027253357142859192,-0.06975333,-0.06987514
0.027300071428573533,-0.06975341,-0.06987517
0.02734678571428786,-0.06975347,-0.06987521
0.02739350000000219,-0.06975353,-0.06987524
0.02759250000000239,-0.06975353,-0.06987536
0.02773864285714539,-0.06975361,-0.06987539
0.0278847857142884,-0.06975368,-0.06987543
0.0280309285714314,-0.06975374,-0.06987546
0.0281770714285744,-0.06975379,-0.0698755
0.02832321428571741,-0.06975383,-0.06987553
0.02846935714286041,-0.06975386,-0.06987556
0.028615500000003413,-0.06975389,-0.0698756
0.028616500000003414,-0.06975389,-0.0698756
0.029640500000004438,-0.06975412,-0.06987584
0.03066450000000546,-0.06975424,-0.06987596
0.03168850000000648,-0.06975436,-0.06987607
0.03271250000000751,-0.06975436,-0.06987607
0.03373650000000853,-0.06975448,-0.06987619
0.03476050000000956,-0.06975448,-0.06987619
0.03578450000001058,-0.06975448,-0.06987619
0.0368085000000116,-0.06975448,-0.06987619
0.037832500000012634,-0.0697546,-0.06987619
0.03885650000001365,-0.0697546,-0.06987619
0.03988050000001468,-0.0697546,-0.06987619
0.0409045000000157,-0.0697546,-0.06987619
0.041928500000016716,-0.0697546,-0.06987619
0.04295250000001775,-0.0697546,-0.06987619
0.04397650000001877,-0.0697546,-0.06987619
0.045,-0.0697546,-0.06987619
0.04500001,-0.06976366,-0.06988084
0.04500003,-0.06978178,-0.06989014
0.0450001,-0.06984556,-0.06992245
0.045002388,-0.07191148,-0.07097071
0.045004676000000014,-0.07395096,-0.07200553
0.04500696400000002,-0.07596398,-0.07302692
0.045009252000000034,-0.07795054,-0.07403488
0.04501154000000003,-0.07991065,-0.0750294
0.04501382800000004,-0.0818443,-0.07601049
0.04501611600000004,-0.0837515,-0.07697815
0.04501897314285719,-0.08609678,-0.07816812
0.04502183028571433,-0.08840476,-0.07933916
0.045024687428571485,-0.09067544,-0.08049127
0.04502754457142863,-0.09290881,-0.08162446
0.04503040171428577,-0.09510488,-0.08273872
0.04503325885714292,-0.09726364,-0.08383405
0.045036116000000063,-0.0993851,-0.08491046
0.04504,-0.1022159,-0.08634678
0.0450401,-0.102197,-0.08633719
0.0450403,-0.1021591,-0.08631796
0.04504882857142857,-0.1005915,-0.08552258
0.045057357142857135,-0.09909222,-0.08476185
0.045065885714285714,-0.09766123,-0.08403577
0.045074414285714286,-0.09629853,-0.08334436
0.045082942857142864,-0.09500414,-0.08268759
0.04509147142857143,-0.09377806,-0.08206549
0.0451,-0.09262027,-0.08147804
0.04511550000000002,-0.0906784,-0.08049276
0.04513100000000003,-0.08887497,-0.07957771
0.04514650000000005,-0.08720998,-0.07873291
0.04516200000000006,-0.08568342,-0.07795834
0.04517750000000008,-0.08429529,-0.07725402
0.04519300000000009,-0.0830456,-0.07661993
0.04520850000000011,-0.08193434,-0.07605609
0.0452239285714287,-0.08091421,-0.07553848
0.04523935714285728,-0.07996656,-0.07505765
0.045254785714285865,-0.07909137,-0.07461359
0.04527021428571446,-0.07828866,-0.0742063
0.04528564285714305,-0.07755841,-0.07383577
0.04530107142857163,-0.07690064,-0.07350202
0.04531650000000022,-0.07631534,-0.07320504
0.045331928571428814,-0.07577557,-0.07293116
0.04534735714285739,-0.07527414,-0.07267674
0.04536278571428598,-0.07481106,-0.07244178
0.04537821428571456,-0.07438633,-0.07222627
0.04539364285714315,-0.07399994,-0.07203022
0.045409071428571736,-0.0736519,-0.07185362
0.04542450000000033,-0.0733422,-0.07169648
0.045439928571428916,-0.0730566,-0.07155156
0.0454553571428575,-0.07279128,-0.07141694
0.04547078571428609,-0.07254626,-0.07129261
0.04548621428571467,-0.07232152,-0.07117858
0.04550164285714326,-0.07211707,-0.07107484
0.04551707142857184,-0.07193291,-0.0709814
0.045532500000000434,-0.07176904,-0.07089825
0.04554792857142902,-0.07161792,-0.07082157
0.04556335714285761,-0.07147754,-0.07075034
0.0455787857142862,-0.07134789,-0.07068456
0.04559421428571478,-0.07122898,-0.07062422
0.04560964285714337,-0.0711208,-0.07056932
0.04562507142857195,-0.07102335,-0.07051988
0.045640500000000535,-0.07093665,-0.07047587
0.04565607142857198,-0.07085599,-0.07043495
0.04567164285714343,-0.07078111,-0.07039696
0.04568721428571487,-0.070712,-0.07036189
0.04570278571428632,-0.07064867,-0.07032975
0.04571835714285776,-0.0705911,-0.07030054
0.04573392857142921,-0.0705393,-0.07027425
0.04574950000000065,-0.07049327,-0.07025089
0.045765071428572085,-0.07045085,-0.07022936
0.04578064285714354,-0.07041146,-0.07020938
0.04579621428571498,-0.0703751,-0.07019093
0.04581178571428643,-0.07034179,-0.07017402
0.04582735714285787,-0.0703115,-0.07015865
0.04584292857142932,-0.07028425,-0.07014482
0.04585850000000076,-0.07026004,-0.07013253
0.0458740714285722,-0.07023772,-0.0701212
0.04588964285714365,-0.070217,-0.07011069
0.04590521428571509,-0.07019787,-0.07010098
0.04592078571428654,-0.07018034,-0.07009208
0.04593635714285798,-0.07016441,-0.07008399
0.045951928571429435,-0.07015007,-0.07007672
0.04596750000000087,-0.07013733,-0.07007025
