time,"V(N012,N005)","V(N013,N007)",V(n001),V(n002),V(n003),V(n004),V(n005),V(n006),V(n007),V(n008),V(n009),V(n010),V(n011),V(n012),V(n013),V(n014),V(n015),V(nc_01),V(nc_02),V(nc_03),V(nc_04),V(nc_05),V(nc_06),V(nc_07),V(nc_08),V(nc_09),V(nc_10),V(nc_11),V(nc_12),V(nc_13),V(nc_14),I(C1),I(C2),I(C3),I(C4),I(C5),I(C6),I(R1),I(R2),I(R3),I(R4),I(R5),I(R6),I(R7),I(R8),I(R9),I(R10),I(R11),I(R12),I(R13),I(R14),I(V1),I(V2),I(V3),I(V4),I(V5),I(V6),I(V7),I(V8),I(V9),I(V10),I(V11),I(V12)
Step Information: X=500  (Run: 1/10),,,,,,,,,,,,,,,,,,,,,,,,,,,,,,,,,,,,,,,,,,,,,,,,,,,,,,,,,,,,,,,
0.000000000000000e+000,-0.07,-0.07,-4.18529e-20,0.0,-4.21471e-20,-4.2205709999999996e-20,-4.221428e-20,-4.251004e-20,-4.250139e-20,-4.2209970000000005e-20,-4.2209970000000005e-20,-4.250568e-20,-4.250568e-20,-0.07,-0.07,-0.07,-0.07,0.0,0.0,-0.07,0.0,0.0,0.0,0.0,0.0,0.0,0.0,0.0,0.0,0.0,0.0,4.199999999999999e-25,4.199999999999999e-25,2.0926449999999997e-38,2.107355e-38,4.199999999999999e-25,4.199999999999999e-25,1.06274e-32,-1.079483e-32,0.0,-2.856297e-25,7.056297e-25,1.343703e-25,8.370579999999999e-25,8.429420000000001e-25,-1.0905739999999999e-32,1.0737139999999998e-32,0.0,2.8857169999999997e-25,1.314283e-25,7.085716999999999e-25,-1.0785209999999998e-32,1.0785209999999998e-32,0.0,-2.5503629999999998e-43,0.0,0.0,-8.370579999999999e-25,-2.5503629999999998e-43,0.0,0.0,0.0,0.0
1.006310719994777e-003,-0.07000009,-0.07000007,-2.236491e-12,0.0,-2.6472630000000003e-12,-2.550409e-12,-2.562373e-12,-3.1946150000000003e-12,-3.181463e-12,-9.161388e-08,-9.161388e-08,-7.440971e-08,-7.440971e-08,-0.07000009,-0.07000007,-0.07000009,-0.07000007,0.0,0.0,-0.07,0.0,0.0,0.0,0.0,0.0,0.0,0.0,0.0,0.0,0.0,0.0,5.293956e-23,0.0,7.747317999999999e-16,8.456755000000001e-16,4.439966e-16,4.439967e-16,2.290283e-16,2.290283e-16,0.0,-3.9880830000000003e-16,6.278366e-16,-1.6978e-16,4.472981e-17,5.2945259999999993e-17,1.860161e-16,1.860161e-16,3.469447e-16,4.3838790000000004e-16,1.916249e-16,1.068401e-15,-2.290292e-16,-2.290292e-16,0.0,1.8370919999999998e-16,0.0,0.0,-8.194616e-16,-4.822668e-16,0.0,0.0,0.0,0.0
2.030310719994708e-003,-0.07000009,-0.07000014,-3.914591e-12,0.0,-4.3387910000000005e-12,-4.235028e-12,-4.2473830000000005e-12,-4.830155e-12,-4.818511e-12,-9.161557e-08,-9.161557e-08,-1.3971570000000003e-07,-1.3971570000000003e-07,-0.07000009,-0.07000014,-0.07000009,-0.07000014,0.0,0.0,-0.07,0.0,0.0,0.0,0.0,0.0,0.0,0.0,0.0,0.0,0.0,0.0,0.0,0.0,7.456942999999999e-16,6.898460000000001e-16,2.219983e-16,2.2199840000000003e-16,2.290283e-16,2.290283e-16,0.0,-4.1184500000000004e-16,6.408733e-16,-1.8281669999999998e-16,7.829182e-17,8.677583000000001e-17,3.492774e-16,3.492774e-16,0.0,3.881628e-16,1.831129e-16,9.594385000000001e-16,-2.290297e-16,-2.290276e-16,0.0,-5.796187e-17,0.0,0.0,-8.239861999999999e-16,3.862671e-16,0.0,0.0,0.0,0.0
3.054310719994844e-003,-0.07000009,-0.07000018,-5.436221e-12,0.0,-5.889115e-12,-5.770586e-12,-5.783776999999999e-12,-6.465939e-12,-6.452138e-12,-9.161710000000001e-08,-9.161710000000001e-08,-1.77605e-07,-1.77605e-07,-0.07000009,-0.07000018,-0.07000009,-0.07000018,0.0,0.0,-0.07,0.0,0.0,0.0,0.0,0.0,0.0,0.0,0.0,0.0,0.0,0.0,5.293956e-23,-1.0587909999999999e-22,7.659502000000001e-16,7.975897999999999e-16,2.2199840000000003e-16,2.2199840000000003e-16,2.290283e-16,2.290283e-16,0.0,-4.3970260000000005e-16,6.687309e-16,-2.106744e-16,1.0872440000000002e-16,1.1778230000000002e-16,4.439967e-16,4.439967e-16,0.0,4.600514e-16,2.059437e-16,1.126046e-15,-2.290288e-16,-2.290274e-16,0.0,-7.759126999999999e-17,0.0,0.0,-8.746746e-16,3.666635e-16,0.0,0.0,0.0,0.0
4.078310719994979e-003,-0.07000009,-0.07000018,-6.674245e-12,0.0,-6.992053999999999e-12,-6.943036e-12,-6.952292e-12,-7.381802000000001e-12,-7.372511e-12,-9.161828e-08,-9.161828e-08,-1.8049210000000002e-07,-1.8049210000000002e-07,-0.07000009,-0.07000018,-0.07000009,-0.07000018,0.0,0.0,-0.07,0.0,0.0,0.0,0.0,0.0,0.0,0.0,0.0,0.0,0.0,0.0,0.0,-1.0587909999999999e-22,5.456074e-16,5.415462000000001e-16,-1.0587909999999999e-22,2.646978e-23,2.290283e-16,2.290283e-16,0.0,-3.085528e-16,5.3758109999999995e-16,-7.952465e-17,1.334849e-16,1.3984110000000002e-16,4.512116000000001e-16,4.512117e-16,0.0,3.097003e-16,1.415113e-16,7.60912e-16,-2.290298e-16,-2.290278e-16,0.0,-8.858161e-17,0.0,0.0,-6.790924e-16,-8.847011999999999e-17,0.0,0.0,0.0,0.0
5.000000000000000e-003,-0.07000009,-0.07000018,-7.658874e-12,0.0,-7.974716000000001e-12,-7.948491e-12,-7.95769e-12,-8.232916999999999e-12,-8.225624000000001e-12,-9.162127e-08,-9.162127e-08,-1.804804e-07,-1.804804e-07,-0.07000009,-0.07000018,-0.07000009,-0.07000018,0.0,0.0,-0.07,0.0,0.0,0.0,0.0,0.0,0.0,0.0,0.0,0.0,0.0,0.0,4.3558459999999993e-17,4.3558029999999997e-17,5.408643e-16,3.0827249999999997e-16,-9.327082e-17,-1.9246430000000002e-16,2.2903330000000004e-16,2.2903330000000004e-16,0.0,-3.066416e-16,5.792333e-16,-3.4050229999999995e-17,1.5317750000000001e-16,1.594943e-16,4.511802999999999e-16,4.511802999999999e-16,0.0,2.4310110000000004e-16,1.148085e-16,5.01817e-16,-2.290336e-16,-2.290311e-16,0.0,-1.4333069999999998e-16,0.0,0.0,-6.940417999999999e-16,-1.432038e-16,0.0,0.0,0.0,0.0
5.000001942590955e-003,-0.07000181,-0.07000049,-0.00012141120000000001,-0.0001214119,-7.329447e-10,-6.242226e-05,-5.898969e-05,-1.161885e-05,-1.0979970000000001e-05,-6.0797609999999996e-05,-6.079755999999999e-05,-1.147596e-05,-1.147595e-05,-0.0700608,-0.07001147,-0.0700608,-0.07001147,-4.856477e-05,0.0,-0.07,0.0,-0.006993327,0.0,-9.130177e-05,0.0,-5.244996e-05,0.0,-0.006993327,0.0,-0.0004856477,0.0,-3.5589699999999998e-09,3.5589709999999997e-09,-1.3993639999999999e-07,1.3993639999999999e-07,-6.625122e-10,6.625123e-10,-4.061632e-15,4.5197000000000005e-15,3.5589759999999996e-09,1.144189e-07,-1.179779e-07,1.179779e-07,-1.434622e-14,1.465889e-14,-3.474099e-16,1.2497710000000002e-15,6.625131e-10,2.1295959999999998e-08,-2.195847e-08,2.195847e-08,4.06144e-15,-4.519733e-15,0.0,7.122499e-16,0.0,0.0,1.3993639999999999e-07,-8.330447999999998e-16,0.0,0.0,0.0,0.0
5.000010011955098e-003,-0.07000912,-0.07000186,-0.000625739,-0.0006257472,-8.234874e-09,-0.0003219066,-0.00030384060000000003,-5.995121999999999e-05,-5.658701e-05,-0.0003129652,-0.0003129652,-5.844945e-05,-5.8449440000000006e-05,-0.07031296,-0.07005845,-0.07031296,-0.07005845,-0.0002502989,0.0,-0.07,0.0,-0.03604304,0.0,-0.0004705619,0.0,-0.0002703228,0.0,-0.03604304,0.0,-0.0025029889999999997,0.0,-5.462416999999999e-09,5.462418000000001e-09,-7.208221000000001e-07,7.208221000000001e-07,-1.017426e-09,1.017426e-09,-2.235348e-14,2.281155e-14,5.462439999999999e-09,6.022022e-07,-6.076647e-07,6.076647e-07,-1.643848e-13,1.646975e-13,-3.754061e-15,4.656423e-15,1.01743e-09,1.121401e-07,-1.131575e-07,1.131575e-07,2.234988e-14,-2.281235e-14,0.0,4.121456e-15,0.0,0.0,7.208221999999999e-07,-4.049259e-15,0.0,0.0,0.0,0.0
5.000100000000000e-003,-0.07009101,-0.07001711,-0.00624928,-0.00625,-7.200128e-07,-0.0032159159999999997,-0.0030340840000000003,-0.000599559,-0.0005656920999999999,-0.0031250920000000003,-0.0031250920000000003,-0.000582806,-0.000582806,-0.07312509,-0.07058281,-0.07312509,-0.07058281,-0.0025,0.0,-0.07,0.0,-0.36,0.0,-0.0047,0.0,-0.0027,0.0,-0.36,0.0,-0.025,0.0,-5.627916999999999e-09,5.627916999999999e-09,-7.196657e-06,7.196657e-06,-1.048715e-09,1.048715e-09,-2.2706210000000002e-13,2.2752020000000004e-13,5.628145e-09,6.061099e-06,-6.0667269999999996e-06,6.0667269999999996e-06,-1.439994e-11,1.440026e-11,-4.188238e-14,4.2784750000000005e-14,1.048757e-09,1.128895e-06,-1.129944e-06,1.129944e-06,2.2707629999999999e-13,-2.2756e-13,0.0,4.097842e-14,0.0,0.0,7.196671e-06,-4.167595e-14,0.0,0.0,0.0,0.0
5.000677044745715e-003,-0.07061512,-0.07010984,-0.04227632,-0.0423153,-3.897656e-05,-0.02177268,-0.02054262,-0.004087013,-0.0038579070000000003,-0.02115774,-0.02115774,-0.003967745,-0.003967745,-0.09115774,-0.07396775,-0.09115774,-0.07396775,-0.01692612,0.0,-0.07,0.0,-0.36,0.0,-0.0318211,0.0,-0.01828021,0.0,-0.36,0.0,-0.1692612,0.0,-5.444167e-09,5.444166000000001e-09,-4.8644369999999996e-05,4.8644369999999996e-05,-1.014014e-09,1.014012e-09,-1.53734e-12,1.537798e-12,5.445706e-09,4.100184e-05,-4.100729e-05,4.100729e-05,-7.795308e-10,7.795312e-10,-2.859307e-13,2.868328e-13,1.014299e-09,7.636847e-06,-7.637862e-06,7.637862e-06,1.537299e-12,-1.537678e-12,0.0,2.867901e-13,0.0,0.0,4.864515e-05,-2.870816e-13,0.0,0.0,0.0,0.0
5.001256352412001e-003,-0.07113963,-0.07019558,-0.07838793,-0.07852203,-0.0001340935,-0.04040055,-0.03812147,-0.007633981999999999,-0.007209489,-0.0392611,-0.0392611,-0.007405065,-0.007405065,-0.10926110000000001,-0.07740507,-0.10926110000000001,-0.07740507,-0.03140881,0.0,-0.07,0.0,-0.36,0.0,-0.05904856,0.0,-0.03392151,0.0,-0.36,0.0,-0.3140881,0.0,-5.429666999999999e-09,5.429666999999999e-09,-9.012286e-05,9.012286e-05,-1.011313e-09,1.0113120000000001e-09,-2.848621e-12,2.849079e-12,5.432517e-09,7.596933000000001e-05,-7.597476e-05,7.597476e-05,-2.681869e-09,2.681869e-09,-5.301656999999999e-13,5.310675999999999e-13,1.011843e-09,1.4149779999999998e-05,-1.415079e-05,1.415079e-05,2.848673e-12,-2.8492970000000003e-12,0.0,5.312637e-13,0.0,0.0,9.012555e-05,-5.314991e-13,0.0,0.0,0.0,0.0
5.002256352412002e-003,-0.07204207,-0.07035153,-0.1406213,-0.141022,-0.00040073949999999995,-0.07255298,-0.06846904,-0.01383957,-0.01307891,-0.0705111,-0.0705111,-0.01343044,-0.01343044,-0.1405111,-0.08343044,-0.1405111,-0.08343044,-0.05640881,0.0,-0.07,0.0,-0.36,0.0,-0.1060486,0.0,-0.06092152,0.0,-0.36,0.0,-0.5640881,0.0,-5.404726e-09,5.404726e-09,-0.0001614849,0.0001614849,-1.006667e-09,1.006667e-09,-5.104691000000001e-12,5.105149e-12,5.40983e-09,0.00013613120000000002,-0.0001361366,0.0001361366,-8.01479e-09,8.014791e-09,-9.503741e-13,9.51276e-13,1.007618e-09,2.535534e-05,-2.535634e-05,2.535634e-05,5.104632e-12,-5.105809e-12,0.0,9.511558000000002e-13,0.0,0.0,0.00016149290000000001,-9.510628e-13,0.0,0.0,0.0,0.0
5.003256352412002e-003,-0.07294078,-0.07051906,-0.2027273,-0.203522,-0.0007947755,-0.10470170000000001,-0.09882033,-0.02014813,-0.01905269,-0.10176110000000001,-0.10176110000000001,-0.01957174,-0.01957174,-0.1717611,-0.08957174,-0.1717611,-0.08957174,-0.08140881,0.0,-0.07,0.0,-0.36,0.0,-0.1530486,0.0,-0.08792152,0.0,-0.36,0.0,-0.8140881,0.0,-5.3798869999999996e-09,5.379888000000001e-09,-0.00023255099999999998,0.00023255099999999998,-1.00204e-09,1.002041e-09,-7.351485e-12,7.351943e-12,5.3872379999999995e-09,0.0001960457,-0.00019605110000000002,0.00019605110000000002,-1.5895509999999998e-08,1.5895509999999998e-08,-1.368855e-12,1.3697569999999999e-12,1.00341e-09,3.651482e-05,-3.651582e-05,3.651582e-05,7.351034e-12,-7.352329e-12,0.0,1.370007e-12,0.0,0.0,0.00023256689999999998,-1.369774e-12,0.0,0.0,0.0,0.0
5.004256352412002e-003,-0.07383537,-0.07068581,-0.2646914,-0.266022,-0.001330614,-0.1368463,-0.1291757,-0.02657131,-0.02514262,-0.13301110000000002,-0.13301110000000002,-0.02582844,-0.02582844,-0.2030111,-0.09582844,-0.2030111,-0.09582844,-0.1064088,0.0,-0.07,0.0,-0.36,0.0,-0.20004860000000002,0.0,-0.1149215,0.0,-0.36,0.0,-1.064088,0.0,-5.3551630000000005e-09,5.355164000000001e-09,-0.0003032877,0.0003032877,-9.974352e-10,9.974358e-10,-9.587954e-12,9.588412e-12,5.364751e-09,0.00025568490000000004,-0.0002556902,0.0002556902,-2.661228e-08,2.661228e-08,-1.785412e-12,1.786314e-12,9.992216e-10,4.7623019999999996e-05,-4.762402e-05,4.762402e-05,9.587653999999999e-12,-9.587958e-12,0.0,1.785868e-12,0.0,0.0,0.0003033143,-1.786439e-12,0.0,0.0,0.0,0.0
5.005256352412002e-003,-0.07472585,-0.07085181,-0.32651440000000004,-0.328522,-0.0020075979999999998,-0.1689868,-0.1595353,-0.03310859,-0.03134818,-0.16426110000000002,-0.16426110000000002,-0.03219999,-0.03219999,-0.2342611,-0.1022,-0.2342611,-0.1022,-0.1314088,0.0,-0.07,0.0,-0.36,0.0,-0.24704859999999998,0.0,-0.14192149999999998,0.0,-0.36,0.0,-1.314088,0.0,-5.330555e-09,5.330555e-09,-0.0003736964,0.0003736964,-9.928519e-10,9.92852e-10,-1.181415e-11,1.18146e-11,5.34237e-09,0.00031505,-0.0003150553,0.0003150553,-4.0151959999999995e-08,4.0151959999999995e-08,-2.2000549999999998e-12,2.200958e-12,9.950516e-10,5.868017e-05,-5.8681169999999994e-05,5.8681169999999994e-05,1.181322e-11,-1.181364e-11,0.0,2.199002e-12,0.0,0.0,0.0003737365,-2.199732e-12,0.0,0.0,0.0,0.0
5.006256352412002e-003,-0.07561222,-0.07101703,-0.3881969,-0.391022,-0.002825073,-0.2011231,-0.1898989,-0.03975942,-0.03766882,-0.19551110000000002,-0.19551110000000002,-0.03868585,-0.03868585,-0.2655111,-0.10868589999999999,-0.2655111,-0.10868589999999999,-0.1564088,0.0,-0.07,0.0,-0.36,0.0,-0.2940486,0.0,-0.1689215,0.0,-0.36,0.0,-1.564088,0.0,-5.306060000000001e-09,5.306060000000001e-09,-0.0004437786,0.0004437786,-9.882897e-10,9.882897e-10,-1.4030110000000001e-11,1.4030570000000002e-11,5.320094e-09,0.00037414230000000004,-0.0003741476,0.0003741476,-5.6501460000000005e-08,5.6501460000000005e-08,-2.612793e-12,2.6136959999999998e-12,9.909015e-10,6.968651999999999e-05,-6.968751000000001e-05,6.968751000000001e-05,1.402884e-11,-1.403026e-11,0.0,2.611407e-12,0.0,0.0,0.00044383510000000004,-2.61172e-12,0.0,0.0,0.0,0.0
5.007256352412002e-003,-0.07649453,-0.0711815,-0.44973959999999996,-0.45352200000000004,-0.003782388,-0.23325549999999998,-0.2202666,-0.04652329,-0.04410402,-0.2267611,-0.2267611,-0.04528552,-0.04528552,-0.2967611,-0.1152855,-0.2967611,-0.1152855,-0.1814088,0.0,-0.07,0.0,-0.36,0.0,-0.3410486,0.0,-0.1959215,0.0,-0.36,0.0,-1.8140880000000001,0.0,-5.281679e-09,5.281679e-09,-0.000513536,0.000513536,-9.837484e-10,9.837486e-10,-1.623588e-11,1.623634e-11,5.297918e-09,0.0004329631,-0.00043296839999999997,0.00043296839999999997,-7.564775e-08,7.564775e-08,-3.023634e-12,3.024537e-12,9.867714e-10,8.064228e-05,-8.064327e-05,8.064327e-05,1.6234229999999998e-11,-1.623577e-11,0.0,3.022739e-12,0.0,0.0,0.0005136117,-3.023211e-12,0.0,0.0,0.0,0.0
5.008256352412002e-003,-0.07737279,-0.07134521,-0.5111431,-0.516022,-0.004878893,-0.2653837,-0.2506383,-0.05339967,-0.05065324,-0.2580111,-0.2580111,-0.05199845,-0.05199845,-0.3280111,-0.1219985,-0.3280111,-0.1219985,-0.20640879999999998,0.0,-0.07,0.0,-0.36,0.0,-0.38804859999999997,0.0,-0.22292150000000002,0.0,-0.36,0.0,-2.064088,0.0,-5.257411e-09,5.257411e-09,-0.00058297,0.00058297,-9.792281e-10,9.792286e-10,-1.843153e-11,1.843199e-11,5.2758409999999985e-09,0.0004915136,-0.0004915188,0.0004915188,-9.757786999999998e-08,9.757786999999998e-08,-3.4325879999999997e-12,3.43349e-12,9.826612e-10,9.154771e-05,-9.154869e-05,9.154869e-05,1.842752e-11,-1.843095e-11,0.0,3.433126e-12,0.0,0.0,0.0005830675,-3.433157e-12,0.0,0.0,0.0,0.0
5.009256352412003e-003,-0.07824701,-0.07150817,-0.5724081,-0.578522,-0.0061139459999999994,-0.2975079,-0.2810141,-0.06038804,-0.05731595,-0.2892611,-0.2892611,-0.05882412,-0.05882412,-0.3592611,-0.1288241,-0.3592611,-0.1288241,-0.23140879999999997,0.0,-0.07,0.0,-0.36,0.0,-0.4350486,0.0,-0.24992150000000002,0.0,-0.36,0.0,-2.314088,0.0,-5.233255e-09,5.2332539999999995e-09,-0.000652082,0.000652082,-9.74729e-10,9.747294e-10,-2.061708e-11,2.061754e-11,5.253869000000001e-09,0.000549795,-0.0005498003,0.0005498003,-1.222789e-07,1.222789e-07,-3.839662e-12,3.8405650000000004e-12,9.785697e-10,0.00010240299999999999,-0.00010240399999999999,0.00010240399999999999,2.061143e-11,-2.061675e-11,0.0,3.841075e-12,0.0,0.0,0.0006522043,-3.840746e-12,0.0,0.0,0.0,0.0
5.010256352412003e-003,-0.07911724,-0.07167038,-0.6335351,-0.641022,-0.007486901,-0.32962820000000004,-0.31139390000000006,-0.06748788,-0.06409162,-0.3205111,-0.3205111,-0.06576201,-0.06576201,-0.3905111,-0.135762,-0.3905111,-0.135762,-0.2564088,0.0,-0.07,0.0,-0.36,0.0,-0.4820486,0.0,-0.2769215,0.0,-0.36,0.0,-2.564088,0.0,-5.209212000000001e-09,5.209210999999999e-09,-0.0007208736,0.0007208736,-9.702507e-10,9.702511e-10,-2.27926e-11,2.2793060000000002e-11,5.232002e-09,0.0006078087000000001,-0.0006078139,0.0006078139,-1.4973800000000001e-07,1.4973800000000001e-07,-4.244867e-12,4.24577e-12,9.744969e-10,0.0001132085,-0.00011320940000000001,0.00011320940000000001,2.278795e-11,-2.2791610000000002e-11,0.0,4.245825e-12,0.0,0.0,0.0007210233999999999,-4.246156e-12,0.0,0.0,0.0,0.0
5.011256352412003e-003,-0.07998341,-0.07183185,-0.6945249,-0.703522,-0.008997122,-0.36174429999999996,-0.3417777,-0.07469867,-0.07097974,-0.3517611,-0.3517611,-0.0728116,-0.0728116,-0.4217611,-0.1428116,-0.4217611,-0.1428116,-0.28140879999999996,0.0,-0.07,0.0,-0.36,0.0,-0.5290486,0.0,-0.3039215,0.0,-0.36,0.0,-2.814088,0.0,-5.185279e-09,5.185278e-09,-0.0007893464,0.0007893464,-9.657932e-10,9.657936e-10,-2.495812e-11,2.4958579999999998e-11,5.210236e-09,0.0006655559,-0.0006655611,0.0006655611,-1.7994239999999998e-07,1.7994239999999998e-07,-4.648209e-12,4.649112e-12,9.704425e-10,0.0001239643,-0.0001239652,0.0001239652,2.4954770000000002e-11,-2.495766e-11,0.0,4.6488199999999996e-12,0.0,0.0,0.0007895264,-4.649081e-12,0.0,0.0,0.0,0.0
5.012256352412003e-003,-0.08084565,-0.07199258,-0.755378,-0.766022,-0.01064397,-0.3938566,-0.37216540000000004,-0.0820199,-0.07797979,-0.3830111,-0.3830111,-0.07997236,-0.07997236,-0.4530111,-0.1499724,-0.4530111,-0.1499724,-0.3064088,0.0,-0.07,0.0,-0.36,0.0,-0.5760486,0.0,-0.33092150000000004,0.0,-0.36,0.0,-3.064088,0.0,-5.161458e-09,5.161457000000001e-09,-0.0008575017,0.0008575017,-9.613564e-10,9.613565e-10,-2.711369e-11,2.711415e-11,5.188571e-09,0.0007230378,-0.000723043,0.000723043,-2.1287939999999998e-07,2.1287939999999998e-07,-5.049699e-12,5.050601e-12,9.664061e-10,0.0001346707,-0.00013467159999999999,0.00013467159999999999,2.711063e-11,-2.7117190000000002e-11,0.0,5.048956e-12,0.0,0.0,0.0008577146000000001,-5.048596e-12,0.0,0.0,0.0,0.0
5.013256352412003e-003,-0.08170393,-0.07215255,-0.8160951999999999,-0.828522,-0.01242681,-0.42596490000000004,-0.4025572,-0.08945106,-0.08509123,-0.4142611,-0.4142611,-0.08724379,-0.08724379,-0.4842611,-0.1572438,-0.4842611,-0.1572438,-0.33140879999999995,0.0,-0.07,0.0,-0.36,0.0,-0.6230485,0.0,-0.3579215,0.0,-0.36,0.0,-3.314088,0.0,-5.137747000000001e-09,5.1377459999999995e-09,-0.0009253410000000001,0.0009253410000000001,-9.569402e-10,9.569402e-10,-2.9259359999999997e-11,2.925981e-11,5.167004e-09,0.0007802555,-0.0007802607000000001,0.0007802607000000001,-2.485363e-07,2.485363e-07,-5.4493440000000006e-12,5.450247e-12,9.623892e-10,0.0001453279,-0.0001453288,0.0001453288,2.92562e-11,-2.926466e-11,0.0,5.447595e-12,0.0,0.0,0.0009255896000000001,-5.44702e-12,0.0,0.0,0.0,0.0
5.014256352412003e-003,-0.08255824,-0.0723118,-0.876677,-0.891022,-0.01434502,-0.4580692,-0.43295290000000003,-0.09699164,-0.09231356,-0.4455111,-0.4455111,-0.09462537,-0.09462537,-0.5155111,-0.16462539999999998,-0.5155111,-0.16462539999999998,-0.35640879999999997,0.0,-0.07,0.0,-0.36,0.0,-0.6700484999999999,0.0,-0.3849215,0.0,-0.36,0.0,-3.564088,0.0,-5.114146e-09,5.114145e-09,-0.0009928659,0.0009928659,-9.525443e-10,9.525445e-10,-3.139517e-11,3.139562e-11,5.145536e-09,0.0008372105000000001,-0.0008372157000000001,0.0008372157000000001,-2.8690040000000003e-07,2.8690040000000003e-07,-5.847153e-12,5.848056e-12,9.583917e-10,0.0001559361,-0.0001559371,0.0001559371,3.1391379999999996e-11,-3.13964e-11,0.0,5.847369e-12,0.0,0.0,0.0009931527,-5.846231e-12,0.0,0.0,0.0,0.0
5.015256352412003e-003,-0.08340865,-0.07247034,-0.9371241,-0.953522,-0.01639796,-0.4901696,-0.46335240000000005,-0.1046411,-0.09964626,-0.4767611,-0.4767611,-0.1021166,-0.1021166,-0.5467611,-0.1721166,-0.5467611,-0.1721166,-0.3814088,0.0,-0.07,0.0,-0.36,0.0,-0.7170486,0.0,-0.4119215,0.0,-0.36,0.0,-3.814088,0.0,-5.090654999999999e-09,5.090654e-09,-0.001060078,0.001060078,-9.481687e-10,9.481691e-10,-3.352117e-11,3.352162e-11,5.124173e-09,0.0008939039,-0.0008939089999999999,0.0008939089999999999,-3.2795920000000004e-07,3.2795920000000004e-07,-6.243134e-12,6.244038e-12,9.544122e-10,0.00016649560000000003,-0.0001664966,0.0001664966,3.351888e-11,-3.352223e-11,0.0,6.244325e-12,0.0,0.0,0.001060406,-6.243971e-12,0.0,0.0,0.0,0.0
