time,"V(N012,N005)","V(N013,N007)"
0.0,-0.07,-0.07
0.001006310719994777,-0.07000009,-0.07000009
0.002030310719994708,-0.07000009,-0.07000009
0.0030543107199948443,-0.07000009,-0.07000009
0.0040783107199949785,-0.07000009,-0.07000009
0.005,-0.07000009,-0.07000009
0.005000001399712213,-0.07000131,-0.07000131
0.00500000419913664,-0.07000384,-0.07000384
0.0050001,-0.070091,-0.070091
0.005001772920080102,-0.07160132,-0.07160132
0.005003445840160205,-0.07309291,-0.07309291
0.005005118760240307,-0.07456578,-0.07456578
0.005006791680320409,-0.07601993,-0.07601993
0.00500846460040051,-0.07745535,-0.07745535
0.005010137520480613,-0.07887205,-0.07887205
0.005011810440560715,-0.08027002,-0.08027002
0.005012810440560715,-0.08109725,-0.08109725
0.005013810440560715,-0.08191809,-0.08191809
0.005014810440560715,-0.08273259,-0.08273259
0.0050158104405607145,-0.0835408,-0.0835408
0.0050168104405607155,-0.08434272,-0.08434272
0.005017810440560716,-0.08513844,-0.08513844
0.005019810440560716,-0.08671159,-0.08671159
0.005021810440560715,-0.08826041,-0.08826041
0.005023810440560717,-0.0897854,-0.0897854
0.005025810440560718,-0.09128696,-0.09128696
0.005028810440560717,-0.09349597,-0.09349597
0.005031810440560718,-0.09565419,-0.09565419
0.005034810440560718,-0.0977627,-0.0977627
0.005035551806194901,-0.09827606,-0.09827606
0.0050362931718290855,-0.09878663,-0.09878663
0.005037034537463268,-0.09929442,-0.09929442
0.0050377759030974505,-0.09979942,-0.09979942
0.005038517268731634,-0.1003016,-0.1003016
0.005039258634365817,-0.1008011,-0.1008011
0.00504,-0.1012977,-0.1012977
0.0050401000000000005,-0.1012737,-0.1012737
0.0050403,-0.10122510000000001,-0.10122510000000001
0.005046328571428572,-0.09980536,-0.09980536
0.005052357142857145,-0.09844399,-0.09844399
0.005058385714285717,-0.09714105,-0.09714105
0.005064414285714289,-0.09589652,-0.09589652
0.005070442857142861,-0.09471041,-0.09471041
0.005076471428571434,-0.09358272,-0.09358272
0.0050825000000000045,-0.09251344,-0.09251344
0.005083500000000006,-0.09233975,-0.09233975
0.005085871428571433,-0.09193381,-0.09193381
0.005088242857142862,-0.09153494,-0.09153494
0.005090614285714289,-0.09114314,-0.09114314
0.005092985714285717,-0.09075842,-0.09075842
0.005095357142857145,-0.09038077,-0.09038077
0.005097728571428573,-0.0900102,-0.0900102
0.005100100000000001,-0.0896467,-0.0896467
0.005111728571428572,-0.08798573,-0.08798573
0.0051233571428571465,-0.08644258,-0.08644258
0.005134985714285719,-0.08501727,-0.08501727
0.005146614285714292,-0.08370978,-0.08370978
0.005158242857142865,-0.08252012,-0.08252012
0.005169871428571438,-0.08144829,-0.08144829
0.005181500000000011,-0.08049428,-0.08049428
0.0051932142857142975,-0.07960844,-0.07960844
0.005204928571428585,-0.07878579,-0.07878579
0.005216642857142873,-0.07802635,-0.07802635
0.0052283571428571604,-0.07733012,-0.07733012
0.005240071428571447,-0.07669709,-0.07669709
0.005251785714285734,-0.07612727,-0.07612727
0.005263500000000022,-0.07562065,-0.07562065
0.005275214285714309,-0.07515367,-0.07515367
0.005286928571428596,-0.07472001,-0.07472001
0.0052986428571428846,-0.07431965,-0.07431965
0.005310357142857171,-0.07395261,-0.07395261
0.005322071428571458,-0.07361887,-0.07361887
0.005333785714285746,-0.07331845,-0.07331845
0.0053455000000000325,-0.07305133,-0.07305133
0.00535721428571432,-0.07280512,-0.07280512
0.005368928571428607,-0.07257647,-0.07257647
0.0053806428571428954,-0.0723654,-0.0723654
0.005392357142857181,-0.07217191,-0.07217191
0.005404071428571469,-0.07199599,-0.07199599
0.005415785714285757,-0.07183765,-0.07183765
0.005427500000000043,-0.07169688,-0.07169688
0.005439214285714331,-0.0715671,-0.0715671
0.005450928571428618,-0.07144657,-0.07144657
0.005462642857142906,-0.07133528,-0.07133528
0.005474357142857192,-0.07123324,-0.07123324
0.00548607142857148,-0.07114044,-0.07114044
0.0054977857142857675,-0.07105688,-0.07105688
0.005509500000000054,-0.07098258,-0.07098258
0.005521214285714342,-0.0709142,-0.0709142
0.005532928571428629,-0.07085069,-0.07085069
0.0055446428571429155,-0.07079204,-0.07079204
0.005556357142857203,-0.07073826,-0.07073826
0.005568071428571491,-0.07068934,-0.07068934
0.005579785714285778,-0.0706453,-0.0706453
0.005591500000000065,-0.07060611,-0.07060611
0.005603214285714353,-0.07057008,-0.07057008
0.00561492857142864,-0.07053661,-0.07053661
0.005626642857142927,-0.07050569,-0.07050569
0.005638357142857214,-0.07047734,-0.07047734
0.0056500714285715025,-0.07045154,-0.07045154
0.005661785714285788,-0.07042831,-0.07042831
0.005673500000000076,-0.07040763,-0.07040763
0.005685214285714364,-0.07038864,-0.07038864
0.0056969285714286505,-0.070371,-0.070371
0.005708642857142938,-0.07035471,-0.07035471
0.005720357142857225,-0.07033977,-0.07033977
0.005732071428571513,-0.07032619,-0.07032619
0.005743785714285799,-0.07031396,-0.07031396
0.005755500000000087,-0.07030308,-0.07030308
0.005767357142857231,-0.07029295,-0.07029295
0.005779214285714376,-0.07028354,-0.07028354
0.00579107142857152,-0.07027485,-0.07027485
0.0058029285714286645,-0.07026688,-0.07026688
0.00581478571428581,-0.07025963,-0.07025963
0.005826642857142954,-0.0702531,-0.0702531
0.005838500000000098,-0.07024729,-0.07024729
0.0058505000000001,-0.07024194,-0.07024194
0.005862500000000101,-0.07023697,-0.07023697
0.005874500000000103,-0.07023239,-0.07023239
0.005886500000000104,-0.0702282,-0.0702282
0.005898500000000106,-0.0702244,-0.0702244
0.0059105000000001075,-0.07022099,-0.07022099
0.005922500000000109,-0.07021797,-0.07021797
0.005934785714285825,-0.07021511,-0.07021511
0.005947071428571541,-0.07021247,-0.07021247
0.005959357142857257,-0.07021004,-0.07021004
0.005971642857142973,-0.07020783,-0.07020783
0.005983928571428689,-0.07020583,-0.07020583
0.005996214285714405,-0.07020404,-0.07020404
0.006008500000000121,-0.07020247,-0.07020247
0.006021214285714407,-0.07020096,-0.07020096
0.006033928571428695,-0.07019957,-0.07019957
0.006046642857142983,-0.0701983,-0.0701983
0.006059357142857271,-0.07019714,-0.07019714
0.006072071428571558,-0.0701961,-0.0701961
0.006084785714285845,-0.07019517,-0.07019517
0.006097500000000132,-0.07019436,-0.07019436
0.006104500000000132,-0.07019389,-0.07019389
0.006118357142857278,-0.07019314,-0.07019314
0.006132214285714423,-0.07019245,-0.07019245
0.006146071428571568,-0.07019181,-0.07019181
0.006159928571428712,-0.07019121,-0.07019121
0.006173785714285856,-0.07019066,-0.07019066
0.0061876428571430026,-0.07019016,-0.07019016
0.006201500000000146,-0.07018971,-0.07018971
0.006217357142857291,-0.07018929,-0.07018929
0.0062332142857144356,-0.07018891,-0.07018891
0.006249071428571581,-0.07018856,-0.07018856
0.006264928571428726,-0.07018825,-0.07018825
0.0062807857142858714,-0.07018799,-0.07018799
0.006296642857143015,-0.07018776,-0.07018776
0.006312500000000161,-0.07018757,-0.07018757
0.006332500000000164,-0.07018737,-0.07018737
0.006352500000000165,-0.0701872,-0.0701872
0.006372500000000169,-0.07018704,-0.07018704
0.0063925000000001715,-0.07018691,-0.07018691
0.006412500000000174,-0.07018679,-0.07018679
0.006432500000000178,-0.07018669,-0.07018669
0.006452500000000179,-0.07018661,-0.07018661
0.006481785714285897,-0.07018655,-0.07018655
0.006511071428571616,-0.07018648,-0.07018648
0.006540357142857335,-0.07018641,-0.07018641
0.006569642857143052,-0.07018634,-0.07018634
0.00659892857142877,-0.07018627,-0.07018627
0.006628214285714489,-0.07018621,-0.07018621
0.006657500000000207,-0.07018614,-0.07018614
0.006717071428571643,-0.07018609,-0.07018609
0.00677664285714308,-0.07018606,-0.07018606
0.006836214285714517,-0.07018603,-0.07018603
0.006895785714285953,-0.07018601,-0.07018601
0.006955357142857389,-0.070186,-0.070186
0.007014928571428825,-0.07018601,-0.07018601
0.007074500000000263,-0.07018602,-0.07018602
0.007128500000000269,-0.0701859,-0.0701859
0.00815250000000011,-0.07018578,-0.07018578
0.009176499999999357,-0.07018566,-0.07018566
0.01020049999999861,-0.07018554,-0.07018554
0.01122449999999785,-0.07018554,-0.07018554
0.0122484999999971,-0.07018554,-0.07018554
0.01327249999999635,-0.07018554,-0.07018554
0.0142964999999956,-0.07018542,-0.07018542
0.01532049999999484,-0.07018542,-0.07018542
0.016344499999995342,-0.07018542,-0.07018542
0.01736849999999636,-0.07018542,-0.07018542
0.01839249999999739,-0.07018542,-0.07018542
0.01941649999999841,-0.07018542,-0.07018542
0.020440499999999442,-0.07018542,-0.07018542
0.02146450000000046,-0.07018542,-0.07018542
0.02248850000000148,-0.07018542,-0.07018542
0.02351250000000251,-0.07018542,-0.07018542
0.02453650000000353,-0.07018542,-0.07018542
0.025,-0.07018542,-0.07018542
0.02500002,-0.07014906,-0.07014906
0.02500006,-0.07007647,-0.07007647
0.0250002,-0.06982183,-0.06982183
0.02500177257142857,-0.06698346,-0.06698346
0.02500334514285714,-0.06417819,-0.06417819
0.02500491771428572,-0.06140603,-0.06140603
0.025006490285714292,-0.05866698,-0.05866698
0.025008062857142858,-0.05596105,-0.05596105
0.02500963542857143,-0.05328822,-0.05328822
0.025011208,-0.05064851,-0.05064851
0.02501420800000001,-0.04570031,-0.04570031
0.02501789257142858,-0.03979027,-0.03979027
0.02502157714285715,-0.03403546,-0.03403546
0.025025261714285717,-0.02843588,-0.02843588
0.025028946285714292,-0.02299155,-0.02299155
0.02503263085714286,-0.01770244,-0.01770244
0.025036315428571432,-0.01256857,-0.01256857
0.02504,-0.007589935999999999,-0.007589935999999999
0.02504007476872315,-0.0076260569999999995,-0.0076260569999999995
0.02504022430616944,-0.007698655,-0.007698655
0.02504720962398056,-0.01097356,-0.01097356
0.02505419494179168,-0.01409539,-0.01409539
0.0250611802596028,-0.01706416,-0.01706416
0.02506816557741392,-0.01987987,-0.01987987
0.02507515089522504,-0.02254251,-0.02254251
0.02508213621303616,-0.02505209,-0.02505209
0.025089121530847282,-0.0274086,-0.0274086
0.02509197867370442,-0.02834289,-0.02834289
0.025094835816561568,-0.02925764,-0.02925764
0.02509769295941871,-0.03015287,-0.03015287
0.02510055010227586,-0.03102856,-0.03102856
0.025103407245133,-0.03188473,-0.03188473
0.02510626438799015,-0.03272136,-0.03272136
0.0251091215308473,-0.03353846,-0.03353846
0.0251101215308473,-0.03382063,-0.03382063
0.0251121215308473,-0.03437817,-0.03437817
0.0251151215308473,-0.03519845,-0.03519845
0.02512126438799017,-0.03681099,-0.03681099
0.025127407245133033,-0.03835606,-0.03835606
0.02513355010227589,-0.03983364,-0.03983364
0.02513969295941875,-0.04124375,-0.04124375
0.02514583581656162,-0.04258638,-0.04258638
0.02515197867370448,-0.04386154,-0.04386154
0.02515812153084734,-0.04506922,-0.04506922
0.02516411845501201,-0.0461954,-0.0461954
0.02517011537917667,-0.04727546,-0.04727546
0.025176112303341342,-0.04830938,-0.04830938
0.025182109227506008,-0.04929719,-0.04929719
0.025188106151670667,-0.05023886,-0.05023886
0.02519410307583533,-0.05113441,-0.05113441
0.0252001,-0.05198383,-0.05198383
0.02521172857142858,-0.05350553,-0.05350553
0.02522335714285717,-0.05491929,-0.05491929
0.02523498571428575,-0.05622512,-0.05622512
0.02524661428571433,-0.05742302,-0.05742302
0.02525824285714291,-0.05851299,-0.05851299
0.0252698714285715,-0.05949503,-0.05949503
0.02528150000000008,-0.06036913,-0.06036913
0.02529321428571438,-0.06118066,-0.06118066
0.02530492857142867,-0.0619343,-0.0619343
0.025316642857142968,-0.06263005,-0.06263005
0.02532835714285727,-0.0632679,-0.0632679
0.02534007142857157,-0.06384787,-0.06384787
0.025351785714285858,-0.06436994,-0.06436994
0.02536350000000016,-0.06483412,-0.06483412
0.02537521428571446,-0.06526199,-0.06526199
0.025386928571428758,-0.06565933,-0.06565933
0.02539864285714305,-0.06602615,-0.06602615
0.02541035714285735,-0.06636244,-0.06636244
0.02542207142857165,-0.0666682,-0.0666682
0.02543378571428594,-0.06694344,-0.06694344
0.025445500000000242,-0.06718814,-0.06718814
0.02545721428571454,-0.06741364,-0.06741364
0.02546892857142884,-0.06762307,-0.06762307
0.02548064285714314,-0.06781644,-0.06781644
0.02549235714285743,-0.06799374,-0.06799374
0.02550407142857173,-0.06815497,-0.06815497
0.025515785714286032,-0.06830013,-0.06830013
0.025527500000000317,-0.06842923,-0.06842923
0.025545500000000342,-0.06861055,-0.06861055
0.02555721428571464,-0.06871386,-0.06871386
0.02556892857142894,-0.06880981,-0.06880981
0.02558064285714324,-0.0688984,-0.0688984
0.02559235714285753,-0.06897961,-0.06897961
0.02560407142857183,-0.06905346,-0.06905346
0.025615785714286132,-0.06911994,-0.06911994
0.025627500000000417,-0.06917906,-0.06917906
0.02563921428571472,-0.0692336,-0.0692336
0.02565092857142902,-0.06928423,-0.06928423
0.025662642857143318,-0.06933096,-0.06933096
0.02567435714285761,-0.06937379,-0.06937379
0.02568607142857191,-0.06941272,-0.06941272
0.02569778571428621,-0.06944775,-0.06944775
0.02570950000000051,-0.06947887,-0.06947887
0.02572121428571481,-0.06950758,-0.06950758
0.0257329285714291,-0.06953425,-0.06953425
0.0257446428571434,-0.06955888,-0.06955888
0.0257563571428577,-0.06958146,-0.06958146
0.02576807142857199,-0.069602,-0.069602
0.02577978571428629,-0.06962049,-0.06962049
0.02579150000000059,-0.06963694,-0.06963694
0.02580321428571489,-0.06965209,-0.06965209
0.025814928571429183,-0.06966615,-0.06966615
0.02582664285714348,-0.06967913,-0.06967913
0.02583835714285778,-0.06969104,-0.06969104
0.025850071428572083,-0.06970186,-0.06970186
0.025861785714286368,-0.0697116,-0.0697116
0.02587350000000067,-0.06972027,-0.06972027
0.025885357142857817,-0.06972834,-0.06972834
0.02589721428571498,-0.06973584,-0.06973584
0.025909071428572142,-0.06974277,-0.06974277
0.025920928571429292,-0.06974912,-0.06974912
0.025932785714286442,-0.0697549,-0.0697549
0.0259446428571436,-0.0697601,-0.0697601
0.02595650000000075,-0.06976473,-0.06976473
0.02596850000000077,-0.06976901,-0.06976901
0.02598050000000078,-0.06977297,-0.06977297
0.02599250000000079,-0.06977662,-0.06977662
0.0260045000000008,-0.06977995,-0.06977995
0.02601650000000081,-0.06978298,-0.06978298
0.026028500000000832,-0.06978569,-0.06978569
0.02604050000000084,-0.0697881,-0.0697881
0.026052928571429417,-0.06979038,-0.06979038
0.026065357142858,-0.0697925,-0.0697925
0.02607778571428659,-0.06979446,-0.06979446
0.026090214285715167,-0.06979624,-0.06979624
0.02610264285714376,-0.06979787,-0.06979787
0.02611507142857234,-0.06979932,-0.06979932
0.026127500000000917,-0.06980062,-0.06980062
0.02614050000000094,-0.06980183,-0.06980183
0.02615350000000095,-0.06980294,-0.06980294
0.02616650000000096,-0.06980396,-0.06980396
0.02617950000000098,-0.06980488,-0.06980488
0.02619250000000099,-0.0698057,-0.0698057
0.026205500000001,-0.06980642,-0.06980642
0.02621850000000102,-0.06980705,-0.06980705
0.02623278571428674,-0.0698078,-0.0698078
0.02624707142857247,-0.06980846,-0.06980846
0.0262613571428582,-0.06980905,-0.06980905
0.02627564285714393,-0.06980956,-0.06980956
0.026289928571429658,-0.06981,-0.06981
0.02630421428571539,-0.06981035,-0.06981035
0.02631850000000112,-0.06981063,-0.06981063
0.02633521428571542,-0.06981097,-0.06981097
0.02635192857142972,-0.06981129,-0.06981129
0.02636864285714402,-0.06981157,-0.06981157
0.026385357142858317,-0.06981183,-0.06981183
0.02640207142857263,-0.06981205,-0.06981205
0.026418785714286932,-0.06981225,-0.06981225
0.026435500000001232,-0.06981242,-0.06981242
0.02645450000000125,-0.06981257,-0.06981257
0.02647350000000127,-0.0698127,-0.0698127
0.02649250000000129,-0.06981283,-0.06981283
0.02651150000000131,-0.06981295,-0.06981295
0.02653050000000133,-0.06981306,-0.06981306
0.02654950000000135,-0.06981316,-0.06981316
0.02656850000000137,-0.06981325,-0.06981325
0.02656950000000137,-0.06981325,-0.06981325
0.02660135714285854,-0.06981338,-0.06981338
0.026633214285715717,-0.06981349,-0.06981349
0.02666507142857289,-0.06981357,-0.06981357
0.026696928571430068,-0.06981364,-0.06981364
0.026728785714287242,-0.06981369,-0.06981369
0.02676064285714442,-0.06981372,-0.06981372
0.02679250000000159,-0.06981373,-0.06981373
0.0268653571428588,-0.06981376,-0.06981376
0.02693821428571602,-0.0698138,-0.0698138
0.02701107142857324,-0.06981383,-0.06981383
0.02708392857143045,-0.06981386,-0.06981386
0.02715678571428767,-0.0698139,-0.0698139
0.02722964285714489,-0.06981393,-0.06981393
0.0273025000000021,-0.06981397,-0.06981397
0.02759350000000239,-0.06981409,-0.06981409
0.028617500000003418,-0.06981444,-0.06981444
0.02964150000000444,-0.06981468,-0.06981468
0.030665500000005463,-0.0698148,-0.0698148
0.03168950000000648,-0.06981492,-0.06981492
0.032713500000007514,-0.06981492,-0.06981492
0.03373750000000853,-0.06981504,-0.06981504
0.03476150000000956,-0.06981504,-0.06981504
0.03578550000001058,-0.06981504,-0.06981504
0.0368095000000116,-0.06981516,-0.06981516
0.03783350000001263,-0.06981516,-0.06981516
0.03885750000001365,-0.06981516,-0.06981516
0.03988150000001468,-0.06981516,-0.06981516
0.0409055000000157,-0.06981516,-0.06981516
0.04192950000001672,-0.06981516,-0.06981516
0.04295350000001775,-0.06981516,-0.06981516
0.043977500000018765,-0.06981516,-0.06981516
0.045,-0.06981516,-0.06981516
0.04500001,-0.0698241,-0.0698241
0.04500003,-0.06984234,-0.06984234
0.0450001,-0.069906,-0.069906
0.04500024514285715,-0.0700379,-0.0700379
0.04500039028571429,-0.07016962,-0.07016962
0.045000535428571437,-0.07030116,-0.07030116
0.045000680571428586,-0.07043251,-0.07043251
0.045000825714285736,-0.07056368,-0.07056368
0.04500097085714288,-0.07069466,-0.07069466
0.04500111600000003,-0.07082546,-0.07082546
0.04500311600000003,-0.0726155,-0.0726155
0.045006116000000033,-0.07525009,-0.07525009
0.04500840171428575,-0.07721504,-0.07721504
0.045010687428571464,-0.07914691,-0.07914691
0.04501297314285718,-0.08104569,-0.08104569
0.0450152588571429,-0.08291139,-0.08291139
0.04501754457142862,-0.084744,-0.084744
0.04501983028571433,-0.08654353,-0.08654353
0.04502211600000005,-0.08830997,-0.08830997
0.0450246708571429,-0.09024723,-0.09024724
0.04502722571428575,-0.0921484,-0.09214841
0.0450297805714286,-0.09401348,-0.09401349
0.04503233542857145,-0.09584246,-0.09584248
0.0450348902857143,-0.09763536,-0.09763537
0.04503744514285715,-0.09939216,-0.09939216
0.04504,-0.10111289999999999,-0.10111289999999999
0.0450401,-0.10108869999999999,-0.10108869999999999
0.0450403,-0.1010402,-0.1010402
0.04504882857142857,-0.09905985,-0.09905985
0.045057357142857135,-0.09718898,-0.09718898
0.045065885714285714,-0.0954276,-0.0954276
0.045074414285714286,-0.09377571,-0.09377571
0.045082942857142864,-0.09223331,-0.09223331
0.04509147142857143,-0.09080039,-0.0908004
0.0451,-0.08947697,-0.08947698
0.04511164285714287,-0.08781281,-0.08781282
0.04512328571428574,-0.08626681,-0.08626682
0.04513492857142861,-0.08483898,-0.08483899
0.045146571428571466,-0.08352931,-0.08352932
0.045158214285714336,-0.08233781,-0.08233781
0.04516985714285721,-0.08126447,-0.08126447
0.04518150000000008,-0.08030929,-0.0803093
0.04519321428571438,-0.07942344,-0.07942345
0.04520492857142868,-0.0786008,-0.07860081
0.04521664285714298,-0.07784137,-0.07784138
0.04522835714285727,-0.07714516,-0.07714516
0.04524007142857157,-0.07651215,-0.07651215
0.04525178571428587,-0.07594235,-0.07594235
0.04526350000000017,-0.07543576,-0.07543577
0.04527521428571446,-0.07496874,-0.07496874
0.04528692857142876,-0.07453504,-0.07453505
0.045298642857143065,-0.07413466,-0.07413467
0.04531035714285735,-0.07376762,-0.07376762
0.04532207142857165,-0.07343389,-0.0734339
0.04533378571428595,-0.07313349,-0.0731335
0.04534550000000025,-0.07286641,-0.07286642
0.045357214285714535,-0.0726202,-0.0726202
0.04536892857142885,-0.07239155,-0.07239156
0.04538064285714314,-0.07218047,-0.07218048
0.045392357142857435,-0.07198696,-0.07198696
0.04540407142857173,-0.07181102,-0.07181102
0.04541578571428603,-0.07165265,-0.07165265
0.04542750000000033,-0.07151184,-0.07151184
0.04543921428571462,-0.07138203,-0.07138204
0.045450928571428934,-0.07126149,-0.07126149
0.04546264285714322,-0.0711502,-0.07115021
0.04547435714285752,-0.07104818,-0.07104819
0.04548607142857181,-0.07095542,-0.07095543
0.045497785714286115,-0.07087192,-0.07087193
0.04550950000000041,-0.07079769,-0.0707977
0.04552121428571471,-0.07072925,-0.07072926
0.045532928571429016,-0.0706657,-0.0706657
