time	V(N008,N005)	V(N009,N004)	V(n001)	V(n002)	V(n003)	V(n004)	V(n005)	V(n006)	V(n007)	V(n008)	V(n009)	V(nc_01)	V(nc_02)	V(nc_03)	V(nc_04)	V(nc_05)	V(nc_06)	I(C1)	I(C2)	I(C3)	I(C4)	I(R1)	I(R2)	I(R3)	I(R4)	I(R5)	I(R6)	I(R7)	I(R8)	I(V1)	I(V2)	I(V3)	I(V4)	I(V5)	I(V6)
0.000000000000000e+000	-7.000000e-002	-7.000000e-002	0.000000e+000	-2.100000e-020	-2.100000e-020	-2.121000e-020	-2.121000e-020	-2.120998e-020	-2.120998e-020	-7.000000e-002	-7.000000e-002	0.000000e+000	0.000000e+000	0.000000e+000	0.000000e+000	-7.000000e-002	0.000000e+000	4.200000e-025	4.200000e-025	1.050000e-038	1.050000e-038	-4.206447e-035	-4.206447e-035	0.000000e+000	0.000000e+000	4.200000e-025	4.200000e-025	4.200000e-025	4.200000e-025	-1.275182e-043	-1.275182e-043	-4.200000e-025	0.000000e+000	0.000000e+000	0.000000e+000
1.006310719994777e-003	-7.000009e-002	-7.000009e-002	0.000000e+000	-1.382160e-012	-1.382160e-012	-1.496674e-012	-1.496674e-012	-9.161283e-008	-9.161283e-008	-7.000009e-002	-7.000009e-002	0.000000e+000	0.000000e+000	0.000000e+000	0.000000e+000	-7.000000e-002	0.000000e+000	0.000000e+000	0.000000e+000	2.013852e-016	2.013852e-016	2.290283e-016	2.290283e-016	0.000000e+000	-9.929129e-029	2.290284e-016	2.290284e-016	2.764320e-017	2.764320e-017	6.481738e-016	6.481738e-016	-2.290284e-016	0.000000e+000	0.000000e+000	0.000000e+000
2.030310719994708e-003	-7.000009e-002	-7.000009e-002	0.000000e+000	-1.786264e-012	-1.786264e-012	-1.900778e-012	-1.900778e-012	-9.161322e-008	-9.161322e-008	-7.000009e-002	-7.000009e-002	0.000000e+000	0.000000e+000	0.000000e+000	0.000000e+000	-7.000000e-002	0.000000e+000	0.000000e+000	0.000000e+000	1.933031e-016	1.933031e-016	2.290283e-016	2.290283e-016	0.000000e+000	-9.424258e-029	2.290283e-016	2.290283e-016	3.572529e-017	3.572529e-017	-2.280934e-017	-2.280934e-017	-2.290283e-016	0.000000e+000	0.000000e+000	0.000000e+000
3.054310719994844e-003	-7.000009e-002	-7.000009e-002	0.000000e+000	-2.174151e-012	-2.174151e-012	-2.288665e-012	-2.288665e-012	-9.161361e-008	-9.161361e-008	-7.000009e-002	-7.000009e-002	0.000000e+000	0.000000e+000	0.000000e+000	0.000000e+000	-7.000000e-002	0.000000e+000	0.000000e+000	0.000000e+000	1.855453e-016	1.855453e-016	2.290283e-016	2.290283e-016	0.000000e+000	-9.424258e-029	2.290283e-016	2.290283e-016	4.348302e-017	4.348302e-017	1.945806e-016	1.945806e-016	-2.290283e-016	0.000000e+000	0.000000e+000	0.000000e+000
4.078310719994979e-003	-7.000009e-002	-7.000009e-002	0.000000e+000	-2.546470e-012	-2.546470e-012	-2.660984e-012	-2.660984e-012	-9.161398e-008	-9.161398e-008	-7.000009e-002	-7.000009e-002	0.000000e+000	0.000000e+000	0.000000e+000	0.000000e+000	-7.000000e-002	0.000000e+000	0.000000e+000	0.000000e+000	1.780989e-016	1.780989e-016	2.290283e-016	2.290283e-016	0.000000e+000	-9.424258e-029	2.290283e-016	2.290283e-016	5.092941e-017	5.092941e-017	-3.193181e-017	-3.193181e-017	-2.290283e-016	0.000000e+000	0.000000e+000	0.000000e+000
5.000000000000000e-003	-7.000009e-002	-7.000009e-002	0.000000e+000	-2.868820e-012	-2.868820e-012	-3.005173e-012	-3.005173e-012	-9.161633e-008	-9.161633e-008	-7.000009e-002	-7.000009e-002	0.000000e+000	0.000000e+000	0.000000e+000	0.000000e+000	-7.000000e-002	0.000000e+000	4.367238e-017	4.367238e-017	2.153293e-016	2.153293e-016	2.290333e-016	2.290333e-016	0.000000e+000	-9.424258e-029	2.727057e-016	2.727057e-016	5.737640e-017	5.737640e-017	-5.231847e-017	-5.231847e-017	-2.727057e-016	0.000000e+000	0.000000e+000	0.000000e+000
5.000002304318532e-003	-7.000213e-002	-6.999804e-002	-1.440199e-004	-1.440191e-004	-8.627785e-010	-7.405529e-005	-6.996462e-005	-7.210160e-005	-7.210155e-005	-7.007210e-002	-7.007210e-002	-5.760796e-005	0.000000e+000	-5.760796e-002	0.000000e+000	-7.000000e-002	0.000000e+000	-3.571769e-009	3.571769e-009	-1.399275e-007	1.399275e-007	-4.884263e-015	5.342329e-015	3.571774e-009	1.363557e-007	-1.399275e-007	1.399275e-007	-1.714082e-014	1.725557e-014	4.944977e-015	-5.618531e-015	1.399275e-007	0.000000e+000	0.000000e+000	0.000000e+000
5.000011470138907e-003	-7.001046e-002	-6.998974e-002	-7.168837e-004	-7.168746e-004	-9.067413e-009	-3.688021e-004	-3.480816e-004	-3.585335e-004	-3.585334e-004	-7.035854e-002	-7.035854e-002	-2.867535e-004	0.000000e+000	-2.867535e-001	0.000000e+000	-7.000000e-002	0.000000e+000	-5.462236e-009	5.462236e-009	-6.961449e-007	6.961449e-007	-2.567150e-014	2.612957e-014	5.462261e-009	6.906828e-007	-6.961451e-007	6.961451e-007	-1.812335e-013	1.813482e-013	2.616348e-014	-2.598885e-014	6.961451e-007	0.000000e+000	0.000000e+000	0.000000e+000
5.000100000000000e-003	-7.009101e-002	-6.990917e-002	-6.250000e-003	-6.249393e-003	-6.070697e-007	-3.215920e-003	-3.034080e-003	-3.125092e-003	-3.125092e-003	-7.312509e-002	-7.312509e-002	-2.500000e-003	0.000000e+000	-2.500000e+000	0.000000e+000	-7.000000e-002	0.000000e+000	-5.603106e-009	5.603105e-009	-6.066934e-006	6.066934e-006	-2.270712e-013	2.275293e-013	5.603332e-009	6.061342e-006	-6.066945e-006	6.066945e-006	-1.214128e-011	1.214139e-011	2.259017e-013	-2.269378e-013	6.066945e-006	0.000000e+000	0.000000e+000	0.000000e+000
5.002639027374472e-003	-7.238884e-002	-6.761133e-002	-1.649392e-001	-1.644862e-001	-4.530037e-004	-8.485837e-002	-8.008085e-002	-8.246970e-002	-8.246970e-002	-1.524697e-001	-1.524697e-001	-6.597568e-002	0.000000e+000	-2.500000e+000	0.000000e+000	-7.000000e-002	0.000000e+000	-5.483424e-009	5.483423e-009	-1.592466e-004	1.592466e-004	-5.971653e-012	5.972112e-012	5.489393e-009	1.592502e-004	-1.592557e-004	1.592557e-004	-9.060072e-009	9.060072e-009	5.968069e-012	-5.969990e-012	1.592557e-004	0.000000e+000	0.000000e+000	0.000000e+000
5.005178054748944e-003	-7.466476e-002	-6.533540e-002	-3.236284e-001	-3.219707e-001	-1.657742e-003	-1.664789e-001	-1.571495e-001	-1.618143e-001	-1.618143e-001	-2.318143e-001	-2.318143e-001	-1.294514e-001	0.000000e+000	-2.500000e+000	0.000000e+000	-7.000000e-002	0.000000e+000	-5.379446e-009	5.379445e-009	-3.109504e-004	3.109504e-004	-1.166145e-011	1.166191e-011	5.391104e-009	3.109782e-004	-3.109836e-004	3.109836e-004	-3.315483e-008	3.315483e-008	1.165646e-011	-1.165926e-011	3.109836e-004	0.000000e+000	0.000000e+000	0.000000e+000
5.007717082123416e-003	-7.691877e-002	-6.308139e-002	-4.823177e-001	-4.787028e-001	-3.614822e-003	-2.480775e-001	-2.342401e-001	-2.411589e-001	-2.411589e-001	-3.111589e-001	-3.111589e-001	-1.929271e-001	0.000000e+000	-2.500000e+000	0.000000e+000	-7.000000e-002	0.000000e+000	-5.291171e-009	5.291171e-009	-4.611783e-004	4.611783e-004	-1.729647e-011	1.729693e-011	5.308465e-009	4.612453e-004	-4.612506e-004	4.612506e-004	-7.229643e-008	7.229643e-008	1.729106e-011	-1.729475e-011	4.612506e-004	0.000000e+000	0.000000e+000	0.000000e+000
5.010256109497887e-003	-7.915087e-002	-6.084930e-002	-6.410069e-001	-6.346826e-001	-6.324243e-003	-3.296542e-001	-3.113526e-001	-3.205035e-001	-3.205035e-001	-3.905035e-001	-3.905035e-001	-2.564027e-001	0.000000e+000	-2.500000e+000	0.000000e+000	-7.000000e-002	0.000000e+000	-5.218600e-009	5.218600e-009	-6.099303e-004	6.099303e-004	-2.287671e-011	2.287716e-011	5.241475e-009	6.100515e-004	-6.100568e-004	6.100568e-004	-1.264849e-007	1.264849e-007	2.287189e-011	-2.287646e-011	6.100568e-004	0.000000e+000	0.000000e+000	0.000000e+000
5.012795136872359e-003	-8.136106e-002	-5.863912e-002	-7.996961e-001	-7.899100e-001	-9.786006e-003	-4.112090e-001	-3.884871e-001	-3.998481e-001	-3.998481e-001	-4.698481e-001	-4.698481e-001	-3.198784e-001	0.000000e+000	-2.500000e+000	0.000000e+000	-7.000000e-002	0.000000e+000	-5.161733e-009	5.161732e-009	-7.572064e-004	7.572064e-004	-2.840216e-011	2.840261e-011	5.190135e-009	7.573969e-004	-7.574021e-004	7.574021e-004	-1.957201e-007	1.957201e-007	2.839894e-011	-2.840439e-011	7.574021e-004	0.000000e+000	0.000000e+000	0.000000e+000
5.015334164246830e-003	-8.354934e-002	-5.645086e-002	-9.583853e-001	-9.443851e-001	-1.400011e-002	-4.927419e-001	-4.656434e-001	-4.791927e-001	-4.791927e-001	-5.491927e-001	-5.491927e-001	-3.833541e-001	0.000000e+000	-2.500000e+000	0.000000e+000	-7.000000e-002	0.000000e+000	-5.120570e-009	5.120568e-009	-9.030066e-004	9.030066e-004	-3.387283e-011	3.387328e-011	5.154445e-009	9.032814e-004	-9.032866e-004	9.032866e-004	-2.800022e-007	2.800022e-007	3.387221e-011	-3.387854e-011	9.032866e-004	0.000000e+000	0.000000e+000	0.000000e+000
5.017873191621302e-003	-8.571571e-002	-5.428451e-002	-1.117074e+000	-1.098108e+000	-1.896656e-002	-5.742528e-001	-5.428216e-001	-5.585373e-001	-5.585373e-001	-6.285374e-001	-6.285374e-001	-4.468298e-001	0.000000e+000	-2.500000e+000	0.000000e+000	-7.000000e-002	0.000000e+000	-5.095110e-009	5.095108e-009	-1.047331e-003	1.047331e-003	-3.928871e-011	3.928917e-011	5.134404e-009	1.047705e-003	-1.047710e-003	1.047710e-003	-3.793311e-007	3.793311e-007	3.929169e-011	-3.929891e-011	1.047710e-003	0.000000e+000	0.000000e+000	0.000000e+000
5.019873191621302e-003	-8.740747e-002	-5.259275e-002	-1.242074e+000	-1.218693e+000	-2.338150e-002	-6.384446e-001	-6.036299e-001	-6.210373e-001	-6.210373e-001	-6.910374e-001	-6.910374e-001	-4.968298e-001	0.000000e+000	-2.500000e+000	0.000000e+000	-7.000000e-002	0.000000e+000	-5.055721e-009	5.055719e-009	-1.160029e-003	1.160029e-003	-4.351821e-011	4.351866e-011	5.099232e-009	1.160492e-003	-1.160497e-003	1.160497e-003	-4.676299e-007	4.676299e-007	4.350759e-011	-4.352036e-011	1.160497e-003	0.000000e+000	0.000000e+000	0.000000e+000
5.021873191621303e-003	-8.908623e-002	-5.091405e-002	-1.367074e+000	-1.338829e+000	-2.824547e-002	-7.026233e-001	-6.644511e-001	-6.835373e-001	-6.835373e-001	-7.535374e-001	-7.535374e-001	-5.468298e-001	0.000000e+000	-2.500000e+000	0.000000e+000	-7.000000e-002	0.000000e+000	-5.016639e-009	5.016636e-009	-1.271846e-003	1.271846e-003	-4.771501e-011	4.771546e-011	5.064354e-009	1.272406e-003	-1.272411e-003	1.272411e-003	-5.649094e-007	5.649094e-007	4.771405e-011	-4.771640e-011	1.272411e-003	0.000000e+000	0.000000e+000	0.000000e+000
5.023873191621303e-003	-9.075195e-002	-4.924828e-002	-1.492074e+000	-1.458519e+000	-3.355496e-002	-7.667891e-001	-7.252854e-001	-7.460373e-001	-7.460373e-001	-8.160374e-001	-8.160374e-001	-5.968298e-001	0.000000e+000	-2.500000e+000	0.000000e+000	-7.000000e-002	0.000000e+000	-4.977863e-009	4.977860e-009	-1.382790e-003	1.382790e-003	-5.187937e-011	5.187982e-011	5.029743e-009	1.383456e-003	-1.383461e-003	1.383461e-003	-6.710992e-007	6.710992e-007	5.188521e-011	-5.189134e-011	1.383461e-003	0.000000e+000	0.000000e+000	0.000000e+000
5.025873191621303e-003	-9.240478e-002	-4.759532e-002	-1.617074e+000	-1.577768e+000	-3.930648e-002	-8.309420e-001	-7.861325e-001	-8.085373e-001	-8.085373e-001	-8.785373e-001	-8.785373e-001	-6.468298e-001	0.000000e+000	-2.500000e+000	0.000000e+000	-7.000000e-002	0.000000e+000	-4.939390e-009	4.939386e-009	-1.492866e-003	1.492866e-003	-5.601154e-011	5.601199e-011	4.995399e-009	1.493647e-003	-1.493652e-003	1.493652e-003	-7.861297e-007	7.861297e-007	5.601185e-011	-5.601467e-011	1.493652e-003	0.000000e+000	0.000000e+000	0.000000e+000
5.028873191621304e-003	-9.486014e-002	-4.513997e-002	-1.804574e+000	-1.755819e+000	-4.875505e-002	-9.271473e-001	-8.774272e-001	-9.022873e-001	-9.022873e-001	-9.722873e-001	-9.722873e-001	-7.218298e-001	0.000000e+000	-2.500000e+000	0.000000e+000	-7.000000e-002	0.000000e+000	-4.882243e-009	4.882240e-009	-1.656369e-003	1.656369e-003	-6.215001e-011	6.215044e-011	4.944406e-009	1.657339e-003	-1.657344e-003	1.657344e-003	-9.751009e-007	9.751009e-007	6.216339e-011	-6.216832e-011	1.657344e-003	0.000000e+000	0.000000e+000	0.000000e+000
5.031873191621304e-003	-9.728712e-002	-4.271305e-002	-1.992074e+000	-1.932896e+000	-5.917887e-002	-1.023324e+000	-9.687502e-001	-9.960373e-001	-9.960373e-001	-1.066037e+000	-1.066037e+000	-7.968298e-001	0.000000e+000	-2.500000e+000	0.000000e+000	-7.000000e-002	0.000000e+000	-4.825766e-009	4.825761e-009	-1.817959e-003	1.817959e-003	-6.821745e-011	6.821788e-011	4.893985e-009	1.819138e-003	-1.819143e-003	1.819143e-003	-1.183578e-006	1.183578e-006	6.821409e-011	-6.822470e-011	1.819143e-003	0.000000e+000	0.000000e+000	0.000000e+000
5.034873191621304e-003	-9.968603e-002	-4.031408e-002	-2.179574e+000	-2.109008e+000	-7.056656e-002	-1.119473e+000	-1.060101e+000	-1.089787e+000	-1.089787e+000	-1.159787e+000	-1.159787e+000	-8.718298e-001	0.000000e+000	-2.500000e+000	0.000000e+000	-7.000000e-002	0.000000e+000	-4.769948e-009	4.769944e-009	-1.977658e-003	1.977658e-003	-7.421470e-011	7.421513e-011	4.844158e-009	1.979065e-003	-1.979069e-003	1.979069e-003	-1.411331e-006	1.411331e-006	7.421116e-011	-7.422035e-011	1.979069e-003	0.000000e+000	0.000000e+000	0.000000e+000
5.037873191621305e-003	-1.020572e-001	-3.794301e-002	-2.367074e+000	-2.284168e+000	-8.290683e-002	-1.215594e+000	-1.151480e+000	-1.183537e+000	-1.183537e+000	-1.253537e+000	-1.253537e+000	-9.468298e-001	0.000000e+000	-2.500000e+000	0.000000e+000	-7.000000e-002	0.000000e+000	-4.714785e-009	4.714779e-009	-2.135488e-003	2.135488e-003	-8.014261e-011	8.014303e-011	4.794925e-009	2.137142e-003	-2.137147e-003	2.137147e-003	-1.658137e-006	1.658137e-006	8.014543e-011	-8.014609e-011	2.137147e-003	0.000000e+000	0.000000e+000	0.000000e+000
5.040000000000000e-003	-1.037223e-001	-3.627777e-002	-2.500000e+000	-2.407800e+000	-9.220029e-002	-1.283722e+000	-1.216278e+000	-1.250000e+000	-1.250000e+000	-1.320000e+000	-1.320000e+000	-1.000000e+000	0.000000e+000	-2.500000e+000	0.000000e+000	-7.000000e-002	0.000000e+000	-4.681609e-009	4.681616e-009	-2.246311e-003	2.246311e-003	-8.430542e-011	8.430584e-011	4.765921e-009	2.248150e-003	-2.248155e-003	2.248155e-003	-1.844006e-006	1.844006e-006	8.433112e-011	-8.430982e-011	2.248155e-003	0.000000e+000	0.000000e+000	0.000000e+000
5.040100000000001e-003	-1.037093e-001	-3.629076e-002	-2.500000e+000	-2.407351e+000	-9.264932e-002	-1.283709e+000	-1.216291e+000	-1.250000e+000	-1.250000e+000	-1.320000e+000	-1.320000e+000	-1.002500e+000	0.000000e+000	-2.500000e+000	0.000000e+000	-7.000000e-002	0.000000e+000	-1.039028e-009	1.039024e-009	-2.245430e-003	2.245430e-003	-8.427286e-011	8.427328e-011	1.123294e-009	2.247282e-003	-2.247283e-003	2.247283e-003	-1.852986e-006	1.852986e-006	8.427229e-011	-8.427140e-011	2.247283e-003	0.000000e+000	0.000000e+000	0.000000e+000
5.040300000000000e-003	-1.036831e-001	-3.631699e-002	-2.500000e+000	-2.406453e+000	-9.354685e-002	-1.283683e+000	-1.216317e+000	-1.250000e+000	-1.250000e+000	-1.320000e+000	-1.320000e+000	-1.007500e+000	0.000000e+000	-2.500000e+000	0.000000e+000	-7.000000e-002	0.000000e+000	7.841909e-010	-7.841955e-010	-2.243669e-003	2.243669e-003	-8.420757e-011	8.420799e-011	-6.999845e-010	2.245541e-003	-2.245540e-003	2.245540e-003	-1.870937e-006	1.870937e-006	8.420414e-011	-8.421510e-011	2.245540e-003	0.000000e+000	0.000000e+000	0.000000e+000
5.046185714285716e-003	-1.029237e-001	-3.707644e-002	-2.500000e+000	-2.380379e+000	-1.196209e-001	-1.282924e+000	-1.217076e+000	-1.250000e+000	-1.250000e+000	-1.320000e+000	-1.320000e+000	-1.154643e+000	0.000000e+000	-2.500000e+000	0.000000e+000	-7.000000e-002	0.000000e+000	7.663137e-010	-7.663187e-010	-2.192518e-003	2.192518e-003	-8.230898e-011	8.230938e-011	-6.840047e-010	2.194911e-003	-2.194911e-003	2.194911e-003	-2.392418e-006	2.392418e-006	8.230514e-011	-8.231721e-011	2.194911e-003	0.000000e+000	0.000000e+000	0.000000e+000
5.052071428571430e-003	-1.021806e-001	-3.781950e-002	-2.500000e+000	-2.354868e+000	-1.451325e-001	-1.282181e+000	-1.217819e+000	-1.250000e+000	-1.250000e+000	-1.320000e+000	-1.320000e+000	-1.301786e+000	0.000000e+000	-2.500000e+000	0.000000e+000	-7.000000e-002	0.000000e+000	7.488220e-010	-7.488274e-010	-2.142471e-003	2.142471e-003	-8.045135e-011	8.045174e-011	-6.683705e-010	2.145374e-003	-2.145374e-003	2.145374e-003	-2.902649e-006	2.902649e-006	8.044673e-011	-8.045960e-011	2.145374e-003	0.000000e+000	0.000000e+000	0.000000e+000
5.057957142857146e-003	-1.014539e-001	-3.854617e-002	-2.500000e+000	-2.329918e+000	-1.700815e-001	-1.281454e+000	-1.218546e+000	-1.250000e+000	-1.250000e+000	-1.320000e+000	-1.320000e+000	-1.448929e+000	0.000000e+000	-2.500000e+000	0.000000e+000	-7.000000e-002	0.000000e+000	7.317157e-010	-7.317215e-010	-2.093527e-003	2.093527e-003	-7.863468e-011	7.863505e-011	-6.530820e-010	2.096930e-003	-2.096929e-003	2.096929e-003	-3.401631e-006	3.401631e-006	7.862893e-011	-7.864225e-011	2.096929e-003	0.000000e+000	0.000000e+000	0.000000e+000
5.063842857142860e-003	-1.007437e-001	-3.925645e-002	-2.500000e+000	-2.305532e+000	-1.944681e-001	-1.280744e+000	-1.219256e+000	-1.250000e+000	-1.250000e+000	-1.320000e+000	-1.320000e+000	-1.596071e+000	0.000000e+000	-2.500000e+000	0.000000e+000	-7.000000e-002	0.000000e+000	7.149950e-010	-7.150010e-010	-2.045687e-003	2.045687e-003	-7.685896e-011	7.685932e-011	-6.381392e-010	2.049577e-003	-2.049576e-003	2.049576e-003	-3.889363e-006	3.889363e-006	7.685173e-011	-7.686517e-011	2.049576e-003	0.000000e+000	0.000000e+000	0.000000e+000
5.069728571428575e-003	-1.000498e-001	-3.995034e-002	-2.500000e+000	-2.281708e+000	-2.182922e-001	-1.280050e+000	-1.219950e+000	-1.250000e+000	-1.250000e+000	-1.320000e+000	-1.320000e+000	-1.743214e+000	0.000000e+000	-2.500000e+000	0.000000e+000	-7.000000e-002	0.000000e+000	6.986598e-010	-6.986659e-010	-1.998950e-003	1.998950e-003	-7.512420e-011	7.512455e-011	-6.235421e-010	2.003317e-003	-2.003316e-003	2.003316e-003	-4.365845e-006	4.365845e-006	7.511513e-011	-7.512836e-011	2.003316e-003	0.000000e+000	0.000000e+000	0.000000e+000
5.075614285714290e-003	-9.937225e-002	-4.062785e-002	-2.500000e+000	-2.258446e+000	-2.415538e-001	-1.279372e+000	-1.220628e+000	-1.250000e+000	-1.250000e+000	-1.320000e+000	-1.320000e+000	-1.890357e+000	0.000000e+000	-2.500000e+000	0.000000e+000	-7.000000e-002	0.000000e+000	6.827102e-010	-6.827163e-010	-1.953317e-003	1.953317e-003	-7.343040e-011	7.343073e-011	-6.092906e-010	1.958149e-003	-1.958148e-003	1.958148e-003	-4.831077e-006	4.831077e-006	7.341912e-011	-7.343182e-011	1.958148e-003	0.000000e+000	0.000000e+000	0.000000e+000
5.081500000000005e-003	-9.871113e-002	-4.128897e-002	-2.500000e+000	-2.235747e+000	-2.642530e-001	-1.278711e+000	-1.221289e+000	-1.250000e+000	-1.250000e+000	-1.320000e+000	-1.320000e+000	-2.037500e+000	0.000000e+000	-2.500000e+000	0.000000e+000	-7.000000e-002	0.000000e+000	6.671460e-010	-6.671520e-010	-1.908787e-003	1.908787e-003	-7.177756e-011	7.177788e-011	-5.953849e-010	1.914073e-003	-1.914072e-003	1.914072e-003	-5.285059e-006	5.285059e-006	7.176372e-011	-7.177554e-011	1.914072e-003	0.000000e+000	0.000000e+000	0.000000e+000
5.082500000000005e-003	-9.860015e-002	-4.139996e-002	-2.500000e+000	-2.231937e+000	-2.680631e-001	-1.278600e+000	-1.221400e+000	-1.250000e+000	-1.250000e+000	-1.320000e+000	-1.320000e+000	-2.062500e+000	0.000000e+000	-2.500000e+000	0.000000e+000	-7.000000e-002	0.000000e+000	6.645335e-010	-6.645397e-010	-1.901312e-003	1.901312e-003	-7.150013e-011	7.150044e-011	-5.930478e-010	1.906674e-003	-1.906674e-003	1.906674e-003	-5.361261e-006	5.361261e-006	7.148009e-011	-7.149902e-011	1.906674e-003	0.000000e+000	0.000000e+000	0.000000e+000
5.100100000000001e-003	-9.671652e-002	-4.328358e-002	-2.500000e+000	-2.167266e+000	-3.327343e-001	-1.276716e+000	-1.223284e+000	-1.250000e+000	-1.250000e+000	-1.320000e+000	-1.320000e+000	-2.500000e+000	0.000000e+000	-2.500000e+000	0.000000e+000	-7.000000e-002	0.000000e+000	6.186359e-010	-6.186425e-010	-1.774444e-003	1.774444e-003	-6.679108e-011	6.679135e-011	-5.518326e-010	1.781099e-003	-1.781099e-003	1.781099e-003	-6.654685e-006	6.654685e-006	6.680381e-011	-6.680869e-011	1.781099e-003	0.000000e+000	0.000000e+000	0.000000e+000
5.121014285714289e-003	-9.466958e-002	-4.533055e-002	-2.500000e+000	-2.096986e+000	-4.030137e-001	-1.274670e+000	-1.225330e+000	-1.250000e+000	-1.250000e+000	-1.320000e+000	-1.320000e+000	-2.500000e+000	0.000000e+000	-2.500000e+000	0.000000e+000	-7.000000e-002	0.000000e+000	5.711465e-010	-5.711528e-010	-1.636573e-003	1.636573e-003	-6.167366e-011	6.167389e-011	-5.094679e-010	1.644634e-003	-1.644633e-003	1.644633e-003	-8.060275e-006	8.060275e-006	6.167452e-011	-6.168408e-011	1.644633e-003	0.000000e+000	0.000000e+000	0.000000e+000
