time	V(N008,N005)	V(N009,N004)	V(n001)	V(n002)	V(n003)	V(n004)	V(n005)	V(n006)	V(n007)	V(n008)	V(n009)	V(nc_01)	V(nc_02)	V(nc_03)	V(nc_04)	V(nc_05)	V(nc_06)	V(nc_07)	V(nc_08)	I(C1)	I(C2)	I(C3)	I(C4)	I(R1)	I(R2)	I(R3)	I(R4)	I(R5)	I(R6)	I(R7)	I(R8)	I(V1)	I(V2)	I(V3)	I(V4)	I(V5)	I(V6)	I(V7)
0.000000000000000e+000	-7.000000e-002	-7.000000e-002	0.000000e+000	-2.100000e-020	-2.100000e-020	-2.121000e-020	-2.121000e-020	-2.120998e-020	-2.120998e-020	-7.000000e-002	-7.000000e-002	0.000000e+000	0.000000e+000	0.000000e+000	0.000000e+000	-7.000000e-002	0.000000e+000	0.000000e+000	0.000000e+000	4.200000e-025	4.200000e-025	1.050000e-038	1.050000e-038	-4.206447e-035	-4.206447e-035	0.000000e+000	0.000000e+000	4.200000e-025	4.200000e-025	4.200000e-025	4.200000e-025	-1.275182e-043	-1.275182e-043	-4.200000e-025	0.000000e+000	0.000000e+000	0.000000e+000	0.000000e+000
1.006310719994777e-003	-7.000009e-002	-7.000009e-002	0.000000e+000	-1.382160e-012	-1.382160e-012	-1.496674e-012	-1.496674e-012	-9.161283e-008	-9.161283e-008	-7.000009e-002	-7.000009e-002	0.000000e+000	0.000000e+000	0.000000e+000	0.000000e+000	-7.000000e-002	0.000000e+000	0.000000e+000	0.000000e+000	0.000000e+000	0.000000e+000	2.013852e-016	2.013852e-016	2.290283e-016	2.290283e-016	0.000000e+000	1.009742e-028	2.290284e-016	2.290284e-016	2.764320e-017	2.764320e-017	6.481738e-016	6.481738e-016	-2.290284e-016	0.000000e+000	0.000000e+000	0.000000e+000	0.000000e+000
2.030310719994708e-003	-7.000009e-002	-7.000009e-002	0.000000e+000	-1.786264e-012	-1.786264e-012	-1.900778e-012	-1.900778e-012	-9.161322e-008	-9.161322e-008	-7.000009e-002	-7.000009e-002	0.000000e+000	0.000000e+000	0.000000e+000	0.000000e+000	-7.000000e-002	0.000000e+000	0.000000e+000	0.000000e+000	0.000000e+000	0.000000e+000	1.933031e-016	1.933031e-016	2.290283e-016	2.290283e-016	0.000000e+000	9.424258e-029	2.290283e-016	2.290283e-016	3.572529e-017	3.572529e-017	-2.280934e-017	-2.280934e-017	-2.290283e-016	0.000000e+000	0.000000e+000	0.000000e+000	0.000000e+000
3.054310719994844e-003	-7.000009e-002	-7.000009e-002	0.000000e+000	-2.174151e-012	-2.174151e-012	-2.288665e-012	-2.288665e-012	-9.161361e-008	-9.161361e-008	-7.000009e-002	-7.000009e-002	0.000000e+000	0.000000e+000	0.000000e+000	0.000000e+000	-7.000000e-002	0.000000e+000	0.000000e+000	0.000000e+000	0.000000e+000	0.000000e+000	1.855453e-016	1.855453e-016	2.290283e-016	2.290283e-016	0.000000e+000	9.760839e-029	2.290283e-016	2.290283e-016	4.348302e-017	4.348302e-017	1.945806e-016	1.945806e-016	-2.290283e-016	0.000000e+000	0.000000e+000	0.000000e+000	0.000000e+000
4.078310719994979e-003	-7.000009e-002	-7.000009e-002	0.000000e+000	-2.546470e-012	-2.546470e-012	-2.660984e-012	-2.660984e-012	-9.161398e-008	-9.161398e-008	-7.000009e-002	-7.000009e-002	0.000000e+000	0.000000e+000	0.000000e+000	0.000000e+000	-7.000000e-002	0.000000e+000	0.000000e+000	0.000000e+000	0.000000e+000	0.000000e+000	1.780989e-016	1.780989e-016	2.290283e-016	2.290283e-016	0.000000e+000	9.760839e-029	2.290283e-016	2.290283e-016	5.092941e-017	5.092941e-017	-3.193181e-017	-3.193181e-017	-2.290283e-016	0.000000e+000	0.000000e+000	0.000000e+000	0.000000e+000
5.000000000000000e-003	-7.000009e-002	-7.000009e-002	0.000000e+000	-2.868820e-012	-2.868820e-012	-3.005173e-012	-3.005173e-012	-9.161633e-008	-9.161633e-008	-7.000009e-002	-7.000009e-002	0.000000e+000	0.000000e+000	0.000000e+000	0.000000e+000	-7.000000e-002	0.000000e+000	0.000000e+000	0.000000e+000	4.367238e-017	4.367238e-017	2.153293e-016	2.153293e-016	2.290333e-016	2.290333e-016	0.000000e+000	1.211690e-028	2.727057e-016	2.727057e-016	5.737640e-017	5.737640e-017	-5.231847e-017	-5.231847e-017	-2.727057e-016	0.000000e+000	0.000000e+000	0.000000e+000	0.000000e+000
5.000001000000000e-003	-7.343788e-002	-6.656229e-002	-2.500000e-001	-2.499993e-001	-6.484505e-007	-1.284379e-001	-1.215621e-001	-1.250002e-001	-1.250000e-001	-1.950000e-001	-1.950002e-001	-2.500000e-005	0.000000e+000	-2.500000e-002	0.000000e+000	-7.000000e-002	0.000000e+000	-6.250000e-005	0.000000e+000	-1.393067e-005	1.393067e-005	-2.431229e-004	2.431229e-004	-8.594307e-012	8.594765e-012	1.393068e-005	2.291923e-004	-2.431229e-004	2.431229e-004	-1.296889e-011	1.296901e-011	8.595173e-012	-8.595119e-012	2.431229e-004	0.000000e+000	0.000000e+000	0.000000e+000	0.000000e+000
5.000003000000000e-003	-8.060372e-002	-5.939645e-002	-7.500000e-001	-7.499972e-001	-2.800720e-006	-3.856038e-001	-3.643962e-001	-3.750002e-001	-3.750000e-001	-4.450000e-001	-4.450002e-001	-7.500000e-005	0.000000e+000	-7.500000e-002	0.000000e+000	-7.000000e-002	0.000000e+000	-1.875000e-004	0.000000e+000	-2.186946e-005	2.186946e-005	-7.287868e-004	7.287868e-004	-2.650890e-011	2.650936e-011	2.186949e-005	7.069174e-004	-7.287869e-004	7.287869e-004	-5.601428e-011	5.601439e-011	2.649983e-011	-2.650408e-011	7.287869e-004	0.000000e+000	0.000000e+000	0.000000e+000	0.000000e+000
5.000009070830180e-003	-1.027074e-001	-3.729272e-002	-2.267708e+000	-2.267687e+000	-2.056658e-005	-1.166561e+000	-1.101146e+000	-1.133854e+000	-1.133854e+000	-1.203854e+000	-1.203854e+000	-2.267708e-004	0.000000e+000	-2.267708e-001	0.000000e+000	-7.000000e-002	0.000000e+000	-5.669269e-004	0.000000e+000	-2.175553e-005	2.175553e-005	-2.202251e-003	2.202251e-003	-8.176810e-011	8.176856e-011	2.175562e-005	2.180496e-003	-2.202252e-003	2.202252e-003	-4.113315e-010	4.113316e-010	8.176343e-011	-8.176444e-011	2.202252e-003	0.000000e+000	0.000000e+000	0.000000e+000	0.000000e+000
5.000010000000000e-003	-1.060807e-001	-3.391945e-002	-2.500000e+000	-2.499975e+000	-2.452684e-005	-1.286081e+000	-1.213919e+000	-1.250000e+000	-1.250000e+000	-1.320000e+000	-1.320000e+000	-2.500000e-004	0.000000e+000	-2.500000e-001	0.000000e+000	-7.000000e-002	0.000000e+000	-6.250000e-004	0.000000e+000	-2.240893e-005	2.240893e-005	-2.427789e-003	2.427789e-003	-9.020126e-011	9.020172e-011	2.240902e-005	2.405381e-003	-2.427790e-003	2.427790e-003	-4.905367e-010	4.905368e-010	9.019858e-011	-9.020168e-011	2.427790e-003	0.000000e+000	0.000000e+000	0.000000e+000	0.000000e+000
5.000010054571155e-003	-1.061901e-001	-3.381014e-002	-2.500000e+000	-2.499975e+000	-2.479178e-005	-1.286190e+000	-1.213810e+000	-1.250000e+000	-1.250000e+000	-1.320000e+000	-1.320000e+000	-2.513643e-004	0.000000e+000	-2.513643e-001	0.000000e+000	-7.000000e-002	0.000000e+000	-6.284107e-004	0.000000e+000	-1.489908e-005	1.489908e-005	-2.427570e-003	2.427570e-003	-9.047475e-011	9.047521e-011	1.489917e-005	2.412671e-003	-2.427570e-003	2.427570e-003	-4.958355e-010	4.958357e-010	9.047364e-011	-9.047447e-011	2.427570e-003	0.000000e+000	0.000000e+000	0.000000e+000	0.000000e+000
5.000010163713466e-003	-1.063178e-001	-3.368235e-002	-2.500000e+000	-2.499975e+000	-2.532163e-005	-1.286318e+000	-1.213682e+000	-1.250000e+000	-1.250000e+000	-1.320000e+000	-1.320000e+000	-2.540928e-004	0.000000e+000	-2.540928e-001	0.000000e+000	-7.000000e-002	0.000000e+000	-6.352321e-004	0.000000e+000	-6.134575e-006	6.134575e-006	-2.427313e-003	2.427313e-003	-9.079392e-011	9.079438e-011	6.134666e-006	2.421179e-003	-2.427314e-003	2.427314e-003	-5.064326e-010	5.064327e-010	9.077614e-011	-9.078850e-011	2.427314e-003	0.000000e+000	0.000000e+000	0.000000e+000	0.000000e+000
5.000010381998086e-003	-1.063938e-001	-3.360629e-002	-2.500000e+000	-2.499974e+000	-2.638127e-005	-1.286394e+000	-1.213606e+000	-1.250000e+000	-1.250000e+000	-1.320000e+000	-1.320000e+000	-2.595499e-004	0.000000e+000	-2.595499e-001	0.000000e+000	-7.000000e-002	0.000000e+000	-6.488749e-004	0.000000e+000	-9.115346e-007	9.115346e-007	-2.427159e-003	2.427159e-003	-9.098407e-011	9.098453e-011	9.116255e-007	2.426248e-003	-2.427160e-003	2.427160e-003	-5.276253e-010	5.276255e-010	9.095751e-011	-9.097422e-011	2.427160e-003	0.000000e+000	0.000000e+000	0.000000e+000	0.000000e+000
5.000010818567327e-003	-1.064074e-001	-3.359270e-002	-2.500000e+000	-2.499971e+000	-2.850050e-005	-1.286407e+000	-1.213593e+000	-1.250000e+000	-1.250000e+000	-1.320000e+000	-1.320000e+000	-2.704642e-004	0.000000e+000	-2.704642e-001	0.000000e+000	-7.000000e-002	0.000000e+000	-6.761604e-004	0.000000e+000	3.327090e-008	-3.327090e-008	-2.427128e-003	2.427128e-003	-9.101832e-011	9.101878e-011	-3.317988e-008	2.427161e-003	-2.427128e-003	2.427128e-003	-5.700098e-010	5.700100e-010	9.100663e-011	-9.101760e-011	2.427128e-003	0.000000e+000	0.000000e+000	0.000000e+000	0.000000e+000
5.000011287064708e-003	-1.064066e-001	-3.359354e-002	-2.500000e+000	-2.499969e+000	-3.077470e-005	-1.286407e+000	-1.213593e+000	-1.250000e+000	-1.250000e+000	-1.320000e+000	-1.320000e+000	-2.821766e-004	0.000000e+000	-2.821766e-001	0.000000e+000	-7.000000e-002	0.000000e+000	-7.054415e-004	0.000000e+000	-2.290333e-008	2.290332e-008	-2.427125e-003	2.427125e-003	-9.101611e-011	9.101657e-011	2.299434e-008	2.427102e-003	-2.427125e-003	2.427125e-003	-6.154939e-010	6.154940e-010	9.100810e-011	-9.102148e-011	2.427125e-003	0.000000e+000	0.000000e+000	0.000000e+000	0.000000e+000
5.000012224059470e-003	-1.064068e-001	-3.359330e-002	-2.500000e+000	-2.499965e+000	-3.532309e-005	-1.286407e+000	-1.213593e+000	-1.250000e+000	-1.250000e+000	-1.320000e+000	-1.320000e+000	-3.056015e-004	0.000000e+000	-3.056015e-001	0.000000e+000	-7.000000e-002	0.000000e+000	-7.640037e-004	0.000000e+000	6.732338e-009	-6.732355e-009	-2.427115e-003	2.427115e-003	-9.101686e-011	9.101732e-011	-6.641340e-009	2.427122e-003	-2.427116e-003	2.427116e-003	-7.064617e-010	7.064618e-010	9.099790e-011	-9.100743e-011	2.427116e-003	0.000000e+000	0.000000e+000	0.000000e+000	0.000000e+000
5.000014098048993e-003	-1.064066e-001	-3.359354e-002	-2.500000e+000	-2.499956e+000	-4.441981e-005	-1.286407e+000	-1.213593e+000	-1.250000e+000	-1.250000e+000	-1.320000e+000	-1.320000e+000	-3.524512e-004	0.000000e+000	-3.524512e-001	0.000000e+000	-7.000000e-002	0.000000e+000	-8.811281e-004	0.000000e+000	-1.258413e-009	1.258399e-009	-2.427097e-003	2.427097e-003	-9.101590e-011	9.101636e-011	1.349406e-009	2.427097e-003	-2.427098e-003	2.427098e-003	-8.883961e-010	8.883962e-010	9.097709e-011	-9.099166e-011	2.427098e-003	0.000000e+000	0.000000e+000	0.000000e+000	0.000000e+000
5.000017846028041e-003	-1.064061e-001	-3.359401e-002	-2.500000e+000	-2.499937e+000	-6.261300e-005	-1.286406e+000	-1.213594e+000	-1.250000e+000	-1.250000e+000	-1.320000e+000	-1.320000e+000	-4.461507e-004	0.000000e+000	-4.461507e-001	0.000000e+000	-7.000000e-002	0.000000e+000	-1.115377e-003	0.000000e+000	1.741794e-009	-1.741807e-009	-2.427062e-003	2.427062e-003	-9.101469e-011	9.101515e-011	-1.650802e-009	2.427065e-003	-2.427063e-003	2.427063e-003	-1.252260e-009	1.252260e-009	9.097526e-011	-9.099978e-011	2.427063e-003	0.000000e+000	0.000000e+000	0.000000e+000	0.000000e+000
5.000025341986136e-003	-1.064050e-001	-3.359509e-002	-2.500000e+000	-2.499901e+000	-9.899837e-005	-1.286405e+000	-1.213595e+000	-1.250000e+000	-1.250000e+000	-1.320000e+000	-1.320000e+000	-6.335496e-004	0.000000e+000	-6.335496e-001	0.000000e+000	-7.000000e-002	0.000000e+000	-1.583874e-003	0.000000e+000	4.366439e-010	-4.366415e-010	-2.426990e-003	2.426990e-003	-9.101199e-011	9.101245e-011	-3.456465e-010	2.426993e-003	-2.426992e-003	2.426992e-003	-1.979967e-009	1.979967e-009	9.099537e-011	-9.100760e-011	2.426992e-003	0.000000e+000	0.000000e+000	0.000000e+000	0.000000e+000
5.000070317734707e-003	-1.063986e-001	-3.360152e-002	-2.500000e+000	-2.499683e+000	-3.172868e-004	-1.286399e+000	-1.213601e+000	-1.250000e+000	-1.250000e+000	-1.320000e+000	-1.320000e+000	-1.757943e-003	0.000000e+000	-1.757943e+000	0.000000e+000	-7.000000e-002	0.000000e+000	-4.394859e-003	0.000000e+000	8.489415e-010	-8.489353e-010	-2.426562e-003	2.426562e-003	-9.099611e-011	9.099657e-011	-7.579521e-010	2.426569e-003	-2.426568e-003	2.426568e-003	-6.345736e-009	6.345736e-009	9.099019e-011	-9.098687e-011	2.426568e-003	0.000000e+000	0.000000e+000	0.000000e+000	0.000000e+000
5.000100000000000e-003	-1.063939e-001	-3.360617e-002	-2.500000e+000	-2.499539e+000	-4.613344e-004	-1.286394e+000	-1.213606e+000	-1.250000e+000	-1.250000e+000	-1.320000e+000	-1.320000e+000	-2.500000e-003	0.000000e+000	-2.500000e+000	0.000000e+000	-7.000000e-002	0.000000e+000	-6.250000e-003	0.000000e+000	-3.167872e-008	3.167872e-008	-2.426280e-003	2.426280e-003	-9.098444e-011	9.098490e-011	3.176972e-008	2.426258e-003	-2.426289e-003	2.426289e-003	-9.226687e-009	9.226687e-009	9.098559e-011	-9.099625e-011	2.426289e-003	0.000000e+000	0.000000e+000	0.000000e+000	0.000000e+000
5.000105996766476e-003	-1.063935e-001	-3.360665e-002	-2.500000e+000	-2.499510e+000	-4.904331e-004	-1.286393e+000	-1.213607e+000	-1.250000e+000	-1.250000e+000	-1.320000e+000	-1.320000e+000	-2.649919e-003	0.000000e+000	-2.500000e+000	0.000000e+000	-7.000000e-002	0.000000e+000	-6.624798e-003	0.000000e+000	-1.015224e-008	1.015226e-008	-2.426223e-003	2.426223e-003	-9.098310e-011	9.098356e-011	1.024324e-008	2.426222e-003	-2.426232e-003	2.426232e-003	-9.808662e-009	9.808662e-009	9.099795e-011	-9.098300e-011	2.426232e-003	0.000000e+000	0.000000e+000	0.000000e+000	0.000000e+000
5.000117990299429e-003	-1.063919e-001	-3.360820e-002	-2.500000e+000	-2.499451e+000	-5.486286e-004	-1.286392e+000	-1.213608e+000	-1.250000e+000	-1.250000e+000	-1.320000e+000	-1.320000e+000	-2.949758e-003	0.000000e+000	-2.500000e+000	0.000000e+000	-7.000000e-002	0.000000e+000	-7.374394e-003	0.000000e+000	8.445890e-010	-8.445698e-010	-2.426108e-003	2.426108e-003	-9.097927e-011	9.097972e-011	-7.536009e-010	2.426120e-003	-2.426119e-003	2.426119e-003	-1.097257e-008	1.097257e-008	9.099121e-011	-9.097691e-011	2.426119e-003	0.000000e+000	0.000000e+000	0.000000e+000	0.000000e+000
5.005815420256653e-003	-1.055966e-001	-3.440348e-002	-2.500000e+000	-2.472148e+000	-2.785217e-002	-1.285597e+000	-1.214403e+000	-1.250000e+000	-1.250000e+000	-1.320000e+000	-1.320000e+000	-1.453855e-001	0.000000e+000	-2.500000e+000	0.000000e+000	-7.000000e-002	0.000000e+000	-3.634637e-001	0.000000e+000	8.983937e-010	-8.983845e-010	-2.372546e-003	2.372546e-003	-8.899115e-011	8.899160e-011	-8.094006e-010	2.373103e-003	-2.373102e-003	2.373102e-003	-5.570435e-007	5.570435e-007	8.899222e-011	-8.898910e-011	2.373102e-003	0.000000e+000	0.000000e+000	0.000000e+000	0.000000e+000
5.011512850213878e-003	-1.048180e-001	-3.518213e-002	-2.500000e+000	-2.445415e+000	-5.458481e-002	-1.284818e+000	-1.215182e+000	-1.250000e+000	-1.250000e+000	-1.320000e+000	-1.320000e+000	-2.878212e-001	0.000000e+000	-2.500000e+000	0.000000e+000	-7.000000e-002	0.000000e+000	-7.195531e-001	0.000000e+000	9.078702e-010	-9.078691e-010	-2.320103e-003	2.320103e-003	-8.704461e-011	8.704504e-011	-8.208283e-010	2.321195e-003	-2.321194e-003	2.321194e-003	-1.091696e-006	1.091696e-006	8.703832e-011	-8.704470e-011	2.321194e-003	0.000000e+000	0.000000e+000	0.000000e+000	0.000000e+000
5.017210280171102e-003	-1.040560e-001	-3.594414e-002	-2.500000e+000	-2.419253e+000	-8.074653e-002	-1.284056e+000	-1.215944e+000	-1.250000e+000	-1.250000e+000	-1.320000e+000	-1.320000e+000	-4.302570e-001	0.000000e+000	-2.500000e+000	0.000000e+000	-7.000000e-002	0.000000e+000	-1.075642e+000	0.000000e+000	8.730182e-010	-8.730237e-010	-2.268780e-003	2.268780e-003	-8.513963e-011	8.514006e-011	-7.878839e-010	2.270396e-003	-2.270395e-003	2.270395e-003	-1.614931e-006	1.614931e-006	8.512953e-011	-8.514370e-011	2.270395e-003	0.000000e+000	0.000000e+000	0.000000e+000	0.000000e+000
5.022907710128327e-003	-1.033106e-001	-3.668950e-002	-2.500000e+000	-2.393663e+000	-1.063373e-001	-1.283311e+000	-1.216689e+000	-1.250000e+000	-1.250000e+000	-1.320000e+000	-1.320000e+000	-5.726927e-001	0.000000e+000	-2.500000e+000	0.000000e+000	-7.000000e-002	0.000000e+000	-1.431732e+000	0.000000e+000	7.938380e-010	-7.938482e-010	-2.218577e-003	2.218577e-003	-8.327623e-011	8.327664e-011	-7.105674e-010	2.220705e-003	-2.220704e-003	2.220704e-003	-2.126747e-006	2.126747e-006	8.326583e-011	-8.328610e-011	2.220704e-003	0.000000e+000	0.000000e+000	0.000000e+000	0.000000e+000
5.028605140085551e-003	-1.025819e-001	-3.741822e-002	-2.500000e+000	-2.368643e+000	-1.313573e-001	-1.282582e+000	-1.217418e+000	-1.250000e+000	-1.250000e+000	-1.320000e+000	-1.320000e+000	-7.151285e-001	0.000000e+000	-2.500000e+000	0.000000e+000	-7.000000e-002	0.000000e+000	-1.787821e+000	0.000000e+000	6.703294e-010	-6.703427e-010	-2.169495e-003	2.169495e-003	-8.145439e-011	8.145479e-011	-5.888789e-010	2.172122e-003	-2.172122e-003	2.172122e-003	-2.627145e-006	2.627145e-006	8.144724e-011	-8.147191e-011	2.172122e-003	0.000000e+000	0.000000e+000	0.000000e+000	0.000000e+000
5.034302570042776e-003	-1.018698e-001	-3.813031e-002	-2.500000e+000	-2.344194e+000	-1.558062e-001	-1.281870e+000	-1.218130e+000	-1.250000e+000	-1.250000e+000	-1.320000e+000	-1.320000e+000	-8.575642e-001	0.000000e+000	-2.500000e+000	0.000000e+000	-7.000000e-002	0.000000e+000	-2.143911e+000	0.000000e+000	5.024925e-010	-5.025072e-010	-2.121532e-003	2.121532e-003	-7.967413e-011	7.967451e-011	-4.228183e-010	2.124648e-003	-2.124648e-003	2.124648e-003	-3.116125e-006	3.116125e-006	7.967376e-011	-7.970112e-011	2.124648e-003	0.000000e+000	0.000000e+000	0.000000e+000	0.000000e+000
5.040000000000000e-003	-1.011744e-001	-3.882575e-002	-2.500000e+000	-2.320316e+000	-1.796843e-001	-1.281174e+000	-1.218826e+000	-1.250000e+000	-1.250000e+000	-1.320000e+000	-1.320000e+000	-1.000000e+000	0.000000e+000	-2.500000e+000	0.000000e+000	-7.000000e-002	0.000000e+000	-2.500000e+000	0.000000e+000	2.903273e-010	-2.903416e-010	-2.074689e-003	2.074689e-003	-7.793544e-011	7.793580e-011	-2.123857e-010	2.078283e-003	-2.078283e-003	2.078283e-003	-3.593687e-006	3.593687e-006	7.794537e-011	-7.797373e-011	2.078283e-003	0.000000e+000	0.000000e+000	0.000000e+000	0.000000e+000
5.044785714285715e-003	-1.006019e-001	-3.939823e-002	-2.500000e+000	-2.300661e+000	-1.993385e-001	-1.280602e+000	-1.219398e+000	-1.250000e+000	-1.250000e+000	-1.320000e+000	-1.320000e+000	-1.119643e+000	0.000000e+000	-2.500000e+000	0.000000e+000	-7.000000e-002	0.000000e+000	-2.500000e+000	0.000000e+000	4.728719e-010	-4.728824e-010	-2.036133e-003	2.036133e-003	-7.650432e-011	7.650467e-011	-3.963637e-010	2.040120e-003	-2.040119e-003	2.040119e-003	-3.986770e-006	3.986770e-006	7.650798e-011	-7.653069e-011	2.040119e-003	0.000000e+000	0.000000e+000	0.000000e+000	0.000000e+000
5.049571428571430e-003	-1.000396e-001	-3.996055e-002	-2.500000e+000	-2.281356e+000	-2.186438e-001	-1.280040e+000	-1.219960e+000	-1.250000e+000	-1.250000e+000	-1.320000e+000	-1.320000e+000	-1.239286e+000	0.000000e+000	-2.500000e+000	0.000000e+000	-7.000000e-002	0.000000e+000	-2.500000e+000	0.000000e+000	6.110204e-010	-6.110280e-010	-1.998260e-003	1.998260e-003	-7.509860e-011	7.509894e-011	-5.359199e-010	2.002634e-003	-2.002633e-003	2.002633e-003	-4.372877e-006	4.372877e-006	7.509742e-011	-7.511489e-011	2.002633e-003	0.000000e+000	0.000000e+000	0.000000e+000	0.000000e+000
5.054357142857145e-003	-9.948741e-002	-4.051270e-002	-2.500000e+000	-2.262400e+000	-2.376003e-001	-1.279487e+000	-1.220513e+000	-1.250000e+000	-1.250000e+000	-1.320000e+000	-1.320000e+000	-1.358929e+000	0.000000e+000	-2.500000e+000	0.000000e+000	-7.000000e-002	0.000000e+000	-2.500000e+000	0.000000e+000	7.047729e-010	-7.047784e-010	-1.961073e-003	1.961073e-003	-7.371828e-011	7.371862e-011	-6.310543e-010	1.965825e-003	-1.965825e-003	1.965825e-003	-4.752005e-006	4.752005e-006	7.371369e-011	-7.372635e-011	1.965825e-003	0.000000e+000	0.000000e+000	0.000000e+000	0.000000e+000
5.059142857142859e-003	-9.894543e-002	-4.105467e-002	-2.500000e+000	-2.243792e+000	-2.562078e-001	-1.278945e+000	-1.221055e+000	-1.250000e+000	-1.250000e+000	-1.320000e+000	-1.320000e+000	-1.478571e+000	0.000000e+000	-2.500000e+000	0.000000e+000	-7.000000e-002	0.000000e+000	-2.500000e+000	0.000000e+000	7.541293e-010	-7.541337e-010	-1.924569e-003	1.924569e-003	-7.236337e-011	7.236369e-011	-6.817669e-010	1.929694e-003	-1.929694e-003	1.929694e-003	-5.124157e-006	5.124157e-006	7.235680e-011	-7.236506e-011	1.929694e-003	0.000000e+000	0.000000e+000	0.000000e+000	0.000000e+000
