time	V(N012,N005)	V(N013,N007)
0.000000000000000e+000	-7.000000e-002	-7.000000e-002
1.006310719994777e-003	-7.000007e-002	-7.000010e-002
2.030310719994708e-003	-7.000014e-002	-7.000013e-002
3.054310719994844e-003	-7.000018e-002	-7.000016e-002
4.078310719994979e-003	-7.000018e-002	-7.000016e-002
5.000000000000000e-003	-7.000018e-002	-7.000016e-002
5.000100000000000e-003	-7.001712e-002	-7.000639e-002
5.005578680369668e-003	-7.094602e-002	-7.034826e-002
5.011057360739335e-003	-7.186935e-002	-7.068806e-002
5.016536041109003e-003	-7.278708e-002	-7.102579e-002
5.022014721478670e-003	-7.369923e-002	-7.136144e-002
5.027493401848338e-003	-7.460580e-002	-7.169503e-002
5.032972082218005e-003	-7.550679e-002	-7.202654e-002
5.038450762587673e-003	-7.640219e-002	-7.235599e-002
5.040100000000001e-003	-7.664824e-002	-7.244623e-002
5.046442857142858e-003	-7.660659e-002	-7.243084e-002
5.052785714285716e-003	-7.656524e-002	-7.241559e-002
5.059128571428574e-003	-7.652417e-002	-7.240046e-002
5.065471428571432e-003	-7.648341e-002	-7.238545e-002
5.071814285714290e-003	-7.644293e-002	-7.237058e-002
5.078157142857148e-003	-7.640274e-002	-7.235583e-002
5.084500000000006e-003	-7.636285e-002	-7.234120e-002
5.085500000000006e-003	-7.635665e-002	-7.233882e-002
5.100100000000001e-003	-7.626581e-002	-7.230544e-002
5.153728571428579e-003	-7.594543e-002	-7.218753e-002
5.207357142857158e-003	-7.564021e-002	-7.207520e-002
5.260985714285736e-003	-7.535015e-002	-7.196845e-002
5.314614285714315e-003	-7.507526e-002	-7.186730e-002
5.368242857142893e-003	-7.481552e-002	-7.177172e-002
5.421871428571472e-003	-7.457095e-002	-7.168174e-002
5.475500000000050e-003	-7.434154e-002	-7.159734e-002
5.564500000000062e-003	-7.399033e-002	-7.146812e-002
5.653500000000073e-003	-7.366423e-002	-7.134813e-002
5.742500000000085e-003	-7.336324e-002	-7.123738e-002
5.831500000000097e-003	-7.308736e-002	-7.113587e-002
5.920500000000109e-003	-7.283658e-002	-7.104359e-002
6.009500000000121e-003	-7.261091e-002	-7.096054e-002
6.098500000000133e-003	-7.241035e-002	-7.088673e-002
6.106500000000134e-003	-7.239282e-002	-7.088017e-002
6.195500000000145e-003	-7.220939e-002	-7.081271e-002
6.284500000000157e-003	-7.203909e-002	-7.075006e-002
6.373500000000169e-003	-7.188190e-002	-7.069223e-002
6.462500000000181e-003	-7.173782e-002	-7.063922e-002
6.551500000000193e-003	-7.160687e-002	-7.059102e-002
6.640500000000204e-003	-7.148903e-002	-7.054764e-002
6.729500000000216e-003	-7.138431e-002	-7.050908e-002
6.786642857143081e-003	-7.132072e-002	-7.048564e-002
6.843785714285945e-003	-7.126029e-002	-7.046337e-002
6.900928571428810e-003	-7.120302e-002	-7.044229e-002
6.958071428571675e-003	-7.114892e-002	-7.042238e-002
7.015214285714540e-003	-7.109798e-002	-7.040365e-002
7.072357142857404e-003	-7.105020e-002	-7.038610e-002
7.129500000000269e-003	-7.100558e-002	-7.036972e-002
7.130500000000269e-003	-7.100487e-002	-7.036936e-002
7.219642857143139e-003	-7.094086e-002	-7.034580e-002
7.308785714286007e-003	-7.088144e-002	-7.032392e-002
7.397928571428876e-003	-7.082660e-002	-7.030373e-002
7.487071428571746e-003	-7.077635e-002	-7.028522e-002
7.576214285714615e-003	-7.073067e-002	-7.026839e-002
7.665357142857484e-003	-7.068959e-002	-7.025324e-002
7.754500000000352e-003	-7.065308e-002	-7.023978e-002
7.811500000000317e-003	-7.063095e-002	-7.023165e-002
7.868500000000283e-003	-7.060993e-002	-7.022393e-002
7.925500000000248e-003	-7.059002e-002	-7.021659e-002
7.982500000000213e-003	-7.057122e-002	-7.020966e-002
8.039500000000178e-003	-7.055353e-002	-7.020313e-002
8.096500000000144e-003	-7.053695e-002	-7.019700e-002
8.153500000000109e-003	-7.052147e-002	-7.019126e-002
8.154500000000108e-003	-7.052124e-002	-7.019126e-002
8.244214285714327e-003	-7.049878e-002	-7.018299e-002
8.333928571428548e-003	-7.047794e-002	-7.017532e-002
8.423642857142767e-003	-7.045872e-002	-7.016824e-002
8.513357142856988e-003	-7.044111e-002	-7.016175e-002
8.603071428571207e-003	-7.042511e-002	-7.015585e-002
8.692785714285427e-003	-7.041074e-002	-7.015055e-002
8.782499999999647e-003	-7.039797e-002	-7.014585e-002
8.838928571428177e-003	-7.039039e-002	-7.014311e-002
8.895357142856707e-003	-7.038318e-002	-7.014049e-002
8.951785714285237e-003	-7.037634e-002	-7.013799e-002
9.008214285713766e-003	-7.036987e-002	-7.013561e-002
9.064642857142296e-003	-7.036377e-002	-7.013334e-002
9.121071428570826e-003	-7.035804e-002	-7.013119e-002
9.177499999999356e-003	-7.035267e-002	-7.012916e-002
9.178499999999356e-003	-7.035255e-002	-7.012916e-002
9.269499999999289e-003	-7.034459e-002	-7.012623e-002
9.360499999999222e-003	-7.033722e-002	-7.012352e-002
9.451499999999155e-003	-7.033045e-002	-7.012103e-002
9.542499999999088e-003	-7.032427e-002	-7.011874e-002
9.633499999999021e-003	-7.031868e-002	-7.011668e-002
9.724499999998955e-003	-7.031368e-002	-7.011482e-002
9.815499999998888e-003	-7.030928e-002	-7.011318e-002
9.870642857141704e-003	-7.030666e-002	-7.011224e-002
9.925785714284522e-003	-7.030417e-002	-7.011134e-002
9.980928571427338e-003	-7.030182e-002	-7.011049e-002
1.003607142857015e-002	-7.029961e-002	-7.010969e-002
1.009121428571297e-002	-7.029753e-002	-7.010894e-002
1.014635714285579e-002	-7.029559e-002	-7.010823e-002
1.020149999999860e-002	-7.029378e-002	-7.010758e-002
1.020249999999860e-002	-7.029390e-002	-7.010746e-002
1.029749999999853e-002	-7.029101e-002	-7.010641e-002
1.039249999999846e-002	-7.028834e-002	-7.010544e-002
1.048749999999839e-002	-7.028587e-002	-7.010454e-002
1.058249999999832e-002	-7.028363e-002	-7.010372e-002
1.067749999999825e-002	-7.028159e-002	-7.010298e-002
1.077249999999819e-002	-7.027977e-002	-7.010232e-002
1.086749999999812e-002	-7.027817e-002	-7.010174e-002
1.091864285714093e-002	-7.027737e-002	-7.010145e-002
1.096978571428376e-002	-7.027661e-002	-7.010118e-002
1.102092857142657e-002	-7.027589e-002	-7.010091e-002
1.107207142856939e-002	-7.027521e-002	-7.010066e-002
1.112321428571221e-002	-7.027457e-002	-7.010041e-002
1.117435714285503e-002	-7.027396e-002	-7.010018e-002
1.122549999999785e-002	-7.027340e-002	-7.009995e-002
1.122649999999785e-002	-7.027340e-002	-7.009983e-002
1.133164285714063e-002	-7.027226e-002	-7.009945e-002
1.143678571428341e-002	-7.027121e-002	-7.009911e-002
1.154192857142619e-002	-7.027026e-002	-7.009879e-002
1.164707142856897e-002	-7.026941e-002	-7.009850e-002
1.175221428571175e-002	-7.026866e-002	-7.009824e-002
1.185735714285453e-002	-7.026800e-002	-7.009801e-002
1.196249999999731e-002	-7.026744e-002	-7.009780e-002
1.200349999999728e-002	-7.026727e-002	-7.009768e-002
1.204449999999725e-002	-7.026710e-002	-7.009757e-002
1.208549999999722e-002	-7.026693e-002	-7.009748e-002
1.212649999999719e-002	-7.026676e-002	-7.009741e-002
1.216749999999716e-002	-7.026659e-002	-7.009737e-002
1.220849999999713e-002	-7.026642e-002	-7.009734e-002
1.224949999999710e-002	-7.026625e-002	-7.009733e-002
1.225049999999710e-002	-7.026625e-002	-7.009733e-002
1.237964285713986e-002	-7.026574e-002	-7.009713e-002
1.250878571428262e-002	-7.026529e-002	-7.009696e-002
1.263792857142539e-002	-7.026488e-002	-7.009680e-002
1.276707142856815e-002	-7.026452e-002	-7.009667e-002
1.289621428571091e-002	-7.026422e-002	-7.009655e-002
1.302535714285367e-002	-7.026396e-002	-7.009645e-002
1.315449999999644e-002	-7.026374e-002	-7.009637e-002
1.327449999999635e-002	-7.026374e-002	-7.009637e-002
1.342064285713910e-002	-7.026349e-002	-7.009629e-002
1.356678571428185e-002	-7.026328e-002	-7.009622e-002
1.371292857142460e-002	-7.026310e-002	-7.009616e-002
1.385907142856735e-002	-7.026296e-002	-7.009611e-002
1.400521428571010e-002	-7.026287e-002	-7.009607e-002
1.415135714285285e-002	-7.026281e-002	-7.009604e-002
1.429749999999560e-002	-7.026279e-002	-7.009602e-002
1.429849999999559e-002	-7.026279e-002	-7.009590e-002
1.444464285713834e-002	-7.026277e-002	-7.009596e-002
1.459078571428110e-002	-7.026274e-002	-7.009599e-002
1.473692857142384e-002	-7.026269e-002	-7.009601e-002
1.488307142856659e-002	-7.026264e-002	-7.009601e-002
1.502921428570934e-002	-7.026258e-002	-7.009599e-002
1.517535714285209e-002	-7.026251e-002	-7.009596e-002
1.532149999999484e-002	-7.026243e-002	-7.009590e-002
1.532249999999484e-002	-7.026255e-002	-7.009590e-002
1.546864285713777e-002	-7.026251e-002	-7.009590e-002
1.561478571428070e-002	-7.026247e-002	-7.009590e-002
1.576092857142363e-002	-7.026244e-002	-7.009590e-002
1.590707142856656e-002	-7.026242e-002	-7.009590e-002
1.605321428570948e-002	-7.026242e-002	-7.009590e-002
1.619935714285241e-002	-7.026242e-002	-7.009590e-002
1.634549999999534e-002	-7.026243e-002	-7.009590e-002
1.634649999999534e-002	-7.026243e-002	-7.009590e-002
1.737049999999637e-002	-7.026231e-002	-7.009578e-002
1.839449999999739e-002	-7.026231e-002	-7.009590e-002
1.941849999999841e-002	-7.026231e-002	-7.009578e-002
2.044249999999944e-002	-7.026231e-002	-7.009578e-002
2.146650000000046e-002	-7.026231e-002	-7.009578e-002
2.249050000000149e-002	-7.026231e-002	-7.009578e-002
2.351450000000251e-002	-7.026231e-002	-7.009578e-002
2.453850000000353e-002	-7.026231e-002	-7.009578e-002
2.500000000000000e-002	-7.026231e-002	-7.009578e-002
2.500006000000000e-002	-7.024205e-002	-7.008827e-002
2.500020000000000e-002	-7.019448e-002	-7.007086e-002
2.500588571428572e-002	-6.826521e-002	-6.936072e-002
2.501157142857143e-002	-6.634903e-002	-6.865550e-002
2.501725714285714e-002	-6.444596e-002	-6.795520e-002
2.502294285714286e-002	-6.255598e-002	-6.725982e-002
2.502862857142857e-002	-6.067910e-002	-6.656936e-002
2.503431428571428e-002	-5.881532e-002	-6.588381e-002
2.504000000000000e-002	-5.696464e-002	-6.520319e-002
2.504030000000000e-002	-5.696869e-002	-6.520474e-002
2.506311428571428e-002	-5.726501e-002	-6.531376e-002
2.508592857142857e-002	-5.755474e-002	-6.542036e-002
2.510874285714286e-002	-5.783787e-002	-6.552454e-002
2.513155714285714e-002	-5.811440e-002	-6.562629e-002
2.515437142857143e-002	-5.838434e-002	-6.572562e-002
2.517718571428572e-002	-5.864767e-002	-6.582253e-002
2.520000000000000e-002	-5.890441e-002	-6.591702e-002
2.524950000000005e-002	-5.943969e-002	-6.611405e-002
2.529900000000010e-002	-5.995132e-002	-6.630237e-002
2.534850000000015e-002	-6.043930e-002	-6.648196e-002
2.539800000000020e-002	-6.090364e-002	-6.665284e-002
2.544750000000024e-002	-6.134433e-002	-6.681500e-002
2.549700000000029e-002	-6.176137e-002	-6.696844e-002
2.554650000000034e-002	-6.215477e-002	-6.711316e-002
2.554750000000034e-002	-6.216264e-002	-6.711602e-002
2.556892857142894e-002	-6.232761e-002	-6.717679e-002
2.559035714285753e-002	-6.248921e-002	-6.723630e-002
2.561178571428612e-002	-6.264745e-002	-6.729455e-002
2.563321428571472e-002	-6.280232e-002	-6.735155e-002
2.565464285714331e-002	-6.295382e-002	-6.740729e-002
2.567607142857190e-002	-6.310196e-002	-6.746178e-002
2.569750000000049e-002	-6.324673e-002	-6.751502e-002
2.573121428571482e-002	-6.346752e-002	-6.759627e-002
2.576492857142913e-002	-6.368138e-002	-6.767497e-002
2.579864285714345e-002	-6.388830e-002	-6.775112e-002
2.583235714285777e-002	-6.408829e-002	-6.782473e-002
2.586607142857209e-002	-6.428133e-002	-6.789578e-002
2.589978571428641e-002	-6.446743e-002	-6.796428e-002
2.593350000000073e-002	-6.464660e-002	-6.803024e-002
2.600735714285795e-002	-6.501491e-002	-6.816580e-002
2.608121428571517e-002	-6.536050e-002	-6.829299e-002
2.615507142857238e-002	-6.568339e-002	-6.841182e-002
2.622892857142960e-002	-6.598356e-002	-6.852228e-002
2.630278571428681e-002	-6.626101e-002	-6.862436e-002
2.637664285714403e-002	-6.651575e-002	-6.871808e-002
2.645050000000125e-002	-6.674778e-002	-6.880343e-002
2.657150000000137e-002	-6.709802e-002	-6.893241e-002
2.666050000000146e-002	-6.732527e-002	-6.901603e-002
2.674950000000155e-002	-6.753628e-002	-6.909368e-002
2.683850000000164e-002	-6.773104e-002	-6.916536e-002
2.692750000000172e-002	-6.790957e-002	-6.923108e-002
2.701650000000181e-002	-6.807185e-002	-6.929083e-002
2.710550000000190e-002	-6.821789e-002	-6.934462e-002
2.719450000000199e-002	-6.834769e-002	-6.939244e-002
2.725164285714491e-002	-6.842652e-002	-6.942141e-002
2.730878571428782e-002	-6.850141e-002	-6.944895e-002
2.736592857143073e-002	-6.857237e-002	-6.947505e-002
2.742307142857365e-002	-6.863940e-002	-6.949973e-002
2.748021428571656e-002	-6.870250e-002	-6.952298e-002
2.753735714285948e-002	-6.876166e-002	-6.954479e-002
2.759450000000239e-002	-6.881690e-002	-6.956518e-002
2.759550000000239e-002	-6.881785e-002	-6.956553e-002
2.768464285714534e-002	-6.889719e-002	-6.959475e-002
2.777378571428828e-002	-6.897085e-002	-6.962187e-002
2.786292857143123e-002	-6.903883e-002	-6.964691e-002
2.795207142857418e-002	-6.910114e-002	-6.966985e-002
2.804121428571713e-002	-6.915778e-002	-6.969069e-002
2.813035714286007e-002	-6.920875e-002	-6.970945e-002
2.821950000000302e-002	-6.925404e-002	-6.972611e-002
2.827650000000307e-002	-6.928137e-002	-6.973621e-002
2.833350000000313e-002	-6.930735e-002	-6.974581e-002
2.839050000000319e-002	-6.933199e-002	-6.975489e-002
2.844750000000324e-002	-6.935529e-002	-6.976348e-002
2.850450000000330e-002	-6.937724e-002	-6.977156e-002
2.856150000000336e-002	-6.939785e-002	-6.977913e-002
2.861850000000342e-002	-6.941712e-002	-6.978619e-002
2.861950000000342e-002	-6.941736e-002	-6.978631e-002
2.870907142857494e-002	-6.944511e-002	-6.979652e-002
2.879864285714645e-002	-6.947088e-002	-6.980600e-002
2.888821428571797e-002	-6.949466e-002	-6.981475e-002
2.897778571428949e-002	-6.951646e-002	-6.982277e-002
2.906735714286101e-002	-6.953627e-002	-6.983006e-002
2.915692857143253e-002	-6.955410e-002	-6.983663e-002
2.924650000000404e-002	-6.956995e-002	-6.984246e-002
2.930307142857553e-002	-6.957940e-002	-6.984593e-002
2.935964285714702e-002	-6.958837e-002	-6.984925e-002
2.941621428571850e-002	-6.959687e-002	-6.985239e-002
2.947278571428998e-002	-6.960489e-002	-6.985537e-002
2.952935714286147e-002	-6.961243e-002	-6.985819e-002
2.958592857143295e-002	-6.961950e-002	-6.986084e-002
2.964250000000444e-002	-6.962609e-002	-6.986332e-002
2.964350000000444e-002	-6.962633e-002	-6.986332e-002
2.973421428571882e-002	-6.963610e-002	-6.986692e-002
2.982492857143319e-002	-6.964516e-002	-6.987025e-002
2.991564285714757e-002	-6.965353e-002	-6.987333e-002
3.000635714286195e-002	-6.966119e-002	-6.987614e-002
3.009707142857632e-002	-6.966815e-002	-6.987868e-002
3.018778571429070e-002	-6.967441e-002	-6.988097e-002
3.027850000000508e-002	-6.967998e-002	-6.988299e-002
3.033392857143370e-002	-6.968316e-002	-6.988423e-002
3.038935714286233e-002	-6.968619e-002	-6.988541e-002
3.044478571429096e-002	-6.968908e-002	-6.988651e-002
3.050021428571959e-002	-6.969182e-002	-6.988755e-002
3.055564285714821e-002	-6.969441e-002	-6.988852e-002
3.061107142857684e-002	-6.969686e-002	-6.988943e-002
3.066650000000546e-002	-6.969917e-002	-6.989026e-002
3.066750000000547e-002	-6.969917e-002	-6.989014e-002
3.076135714286270e-002	-6.970265e-002	-6.989147e-002
3.085521428571994e-002	-6.970588e-002	-6.989269e-002
3.094907142857717e-002	-6.970886e-002	-6.989380e-002
3.104292857143441e-002	-6.971159e-002	-6.989480e-002
3.113678571429165e-002	-6.971406e-002	-6.989570e-002
3.123064285714888e-002	-6.971628e-002	-6.989649e-002
3.132450000000612e-002	-6.971824e-002	-6.989717e-002
3.137678571429189e-002	-6.971929e-002	-6.989763e-002
3.142907142857765e-002	-6.972029e-002	-6.989805e-002
3.148135714286342e-002	-6.972124e-002	-6.989843e-002
3.153364285714919e-002	-6.972214e-002	-6.989877e-002
3.158592857143495e-002	-6.972300e-002	-6.989907e-002
3.163821428572072e-002	-6.972380e-002	-6.989934e-002
3.169050000000648e-002	-6.972456e-002	-6.989956e-002
3.169150000000649e-002	-6.972456e-002	-6.989956e-002
3.179364285714945e-002	-6.972587e-002	-6.990004e-002
3.189578571429241e-002	-6.972709e-002	-6.990049e-002
3.199792857143537e-002	-6.972821e-002	-6.990091e-002
3.210007142857832e-002	-6.972923e-002	-6.990130e-002
3.220221428572128e-002	-6.973016e-002	-6.990166e-002
3.230435714286424e-002	-6.973098e-002	-6.990200e-002
3.240650000000720e-002	-6.973171e-002	-6.990230e-002
3.245050000000724e-002	-6.973201e-002	-6.990242e-002
3.249450000000729e-002	-6.973229e-002	-6.990252e-002
3.253850000000733e-002	-6.973254e-002	-6.990261e-002
3.258250000000738e-002	-6.973278e-002	-6.990270e-002
3.262650000000742e-002	-6.973300e-002	-6.990278e-002
3.267050000000746e-002	-6.973320e-002	-6.990284e-002
3.271450000000751e-002	-6.973338e-002	-6.990290e-002
3.271550000000751e-002	-6.973350e-002	-6.990290e-002
3.283807142857906e-002	-6.973404e-002	-6.990308e-002
3.296064285715061e-002	-6.973453e-002	-6.990325e-002
3.308321428572216e-002	-6.973497e-002	-6.990342e-002
3.320578571429372e-002	-6.973536e-002	-6.990357e-002
3.332835714286526e-002	-6.973570e-002	-6.990371e-002
3.345092857143682e-002	-6.973600e-002	-6.990385e-002
3.357350000000837e-002	-6.973624e-002	-6.990397e-002
3.373950000000853e-002	-6.973660e-002	-6.990409e-002
3.388564285715154e-002	-6.973678e-002	-6.990417e-002
3.403178571429454e-002	-6.973696e-002	-6.990424e-002
3.417792857143755e-002	-6.973712e-002	-6.990430e-002
3.432407142858054e-002	-6.973727e-002	-6.990435e-002
3.447021428572355e-002	-6.973741e-002	-6.990439e-002
3.461635714286655e-002	-6.973755e-002	-6.990442e-002
3.476250000000956e-002	-6.973767e-002	-6.990445e-002
3.476350000000956e-002	-6.973755e-002	-6.990445e-002
3.490964285715256e-002	-6.973762e-002	-6.990449e-002
3.505578571429557e-002	-6.973769e-002	-6.990453e-002
3.520192857143857e-002	-6.973776e-002	-6.990456e-002
3.534807142858157e-002	-6.973783e-002	-6.990457e-002
3.549421428572457e-002	-6.973789e-002	-6.990458e-002
3.564035714286758e-002	-6.973796e-002	-6.990458e-002
3.578650000001058e-002	-6.973803e-002	-6.990457e-002
3.578750000001058e-002	-6.973803e-002	-6.990457e-002
3.593364285715359e-002	-6.973802e-002	-6.990461e-002
3.607978571429659e-002	-6.973802e-002	-6.990465e-002
3.622592857143960e-002	-6.973802e-002	-6.990468e-002
3.637207142858259e-002	-6.973804e-002	-6.990469e-002
3.651821428572560e-002	-6.973807e-002	-6.990470e-002
3.666435714286860e-002	-6.973810e-002	-6.990470e-002
3.681050000001161e-002	-6.973815e-002	-6.990469e-002
3.681150000001161e-002	-6.973815e-002	-6.990469e-002
3.783550000001263e-002	-6.973815e-002	-6.990469e-002
3.885950000001365e-002	-6.973815e-002	-6.990469e-002
3.988350000001468e-002	-6.973815e-002	-6.990469e-002
4.090750000001570e-002	-6.973827e-002	-6.990469e-002
4.193150000001673e-002	-6.973815e-002	-6.990469e-002
4.295550000001775e-002	-6.973827e-002	-6.990480e-002
4.397950000001877e-002	-6.973827e-002	-6.990480e-002
4.500000000000000e-002	-6.973827e-002	-6.990480e-002
4.500007000000000e-002	-6.975007e-002	-6.990910e-002
4.500010000000000e-002	-6.975508e-002	-6.991088e-002
4.500580000000000e-002	-7.072226e-002	-7.026691e-002
4.501150000000000e-002	-7.168285e-002	-7.062046e-002
4.501720000000000e-002	-7.263686e-002	-7.097153e-002
4.502290000000000e-002	-7.358428e-002	-7.132012e-002
4.502860000000000e-002	-7.452512e-002	-7.166623e-002
4.503430000000000e-002	-7.545938e-002	-7.200986e-002
4.504000000000000e-002	-7.638705e-002	-7.235101e-002
4.504857142857142e-002	-7.633080e-002	-7.233031e-002
4.505714285714286e-002	-7.627508e-002	-7.230981e-002
4.506571428571429e-002	-7.621989e-002	-7.228950e-002
4.507428571428571e-002	-7.616524e-002	-7.226939e-002
4.508285714285714e-002	-7.611111e-002	-7.224948e-002
4.509142857142857e-002	-7.605751e-002	-7.222977e-002
4.510000000000000e-002	-7.600445e-002	-7.221025e-002
4.518892857142867e-002	-7.548790e-002	-7.202016e-002
4.527785714285732e-002	-7.500826e-002	-7.184365e-002
4.536678571428598e-002	-7.456552e-002	-7.168071e-002
4.545571428571464e-002	-7.415968e-002	-7.153136e-002
4.554464285714330e-002	-7.379075e-002	-7.139559e-002
4.563357142857196e-002	-7.345872e-002	-7.127340e-002
4.572250000000062e-002	-7.316360e-002	-7.116479e-002
4.576364285714352e-002	-7.303296e-002	-7.111672e-002
4.580478571428642e-002	-7.290722e-002	-7.107045e-002
4.584592857142932e-002	-7.278638e-002	-7.102598e-002
4.588707142857221e-002	-7.267044e-002	-7.098331e-002
4.592821428571511e-002	-7.255941e-002	-7.094245e-002
4.596935714285801e-002	-7.245328e-002	-7.090338e-002
