time	V(N012,N005)	V(N013,N007)
Step Information: X=500  (Run: 1/10)
0.000000000000000e+000	-7.000000e-002	-7.000000e-002
1.006310719994777e-003	-7.000009e-002	-7.000007e-002
2.030310719994708e-003	-7.000009e-002	-7.000014e-002
3.054310719994844e-003	-7.000009e-002	-7.000018e-002
4.078310719994979e-003	-7.000009e-002	-7.000018e-002
5.000000000000000e-003	-7.000009e-002	-7.000018e-002
5.000001942590955e-003	-7.000181e-002	-7.000049e-002
5.000010011955098e-003	-7.000912e-002	-7.000186e-002
5.000100000000000e-003	-7.009101e-002	-7.001711e-002
5.000677044745715e-003	-7.061512e-002	-7.010984e-002
5.001256352412001e-003	-7.113963e-002	-7.019558e-002
5.002256352412002e-003	-7.204207e-002	-7.035153e-002
5.003256352412002e-003	-7.294078e-002	-7.051906e-002
5.004256352412002e-003	-7.383537e-002	-7.068581e-002
5.005256352412002e-003	-7.472585e-002	-7.085181e-002
5.006256352412002e-003	-7.561222e-002	-7.101703e-002
5.007256352412002e-003	-7.649453e-002	-7.118150e-002
5.008256352412002e-003	-7.737279e-002	-7.134521e-002
5.009256352412003e-003	-7.824701e-002	-7.150817e-002
5.010256352412003e-003	-7.911724e-002	-7.167038e-002
5.011256352412003e-003	-7.998341e-002	-7.183185e-002
5.012256352412003e-003	-8.084565e-002	-7.199258e-002
5.013256352412003e-003	-8.170393e-002	-7.215255e-002
5.014256352412003e-003	-8.255824e-002	-7.231180e-002
5.015256352412003e-003	-8.340865e-002	-7.247034e-002
5.016256352412003e-003	-8.425513e-002	-7.262813e-002
5.017256352412004e-003	-8.509773e-002	-7.278520e-002
5.019256352412004e-003	-8.677137e-002	-7.309715e-002
5.021256352412004e-003	-8.842963e-002	-7.340628e-002
5.023256352412004e-003	-9.007269e-002	-7.371256e-002
5.025256352412005e-003	-9.170073e-002	-7.401603e-002
5.028256352412005e-003	-9.411490e-002	-7.446603e-002
5.031256352412005e-003	-9.649599e-002	-7.490987e-002
5.034256352412006e-003	-9.884441e-002	-7.534760e-002
5.037256352412006e-003	-1.011606e-001	-7.577941e-002
5.040000000000000e-003	-1.032518e-001	-7.619354e-002
5.040100000000001e-003	-1.032366e-001	-7.619080e-002
5.040300000000000e-003	-1.032060e-001	-7.618541e-002
5.050500000000001e-003	-1.016835e-001	-7.590619e-002
5.063500000000003e-003	-9.984457e-002	-7.556340e-002
5.078500000000005e-003	-9.785628e-002	-7.519275e-002
5.083500000000006e-003	-9.722376e-002	-7.507485e-002
5.100100000000001e-003	-9.522593e-002	-7.469875e-002
5.121500000000003e-003	-9.286785e-002	-7.426286e-002
5.146500000000006e-003	-9.039414e-002	-7.380176e-002
5.175500000000010e-003	-8.786261e-002	-7.332981e-002
5.205500000000014e-003	-8.557904e-002	-7.290411e-002
5.235500000000018e-003	-8.359241e-002	-7.253385e-002
5.265500000000022e-003	-8.186448e-002	-7.221168e-002
5.295500000000026e-003	-8.036137e-002	-7.193160e-002
5.325500000000030e-003	-7.905388e-002	-7.168776e-002
5.355500000000034e-003	-7.791650e-002	-7.147586e-002
5.385500000000038e-003	-7.692719e-002	-7.129133e-002
5.415500000000042e-003	-7.606649e-002	-7.113087e-002
5.445500000000046e-003	-7.531786e-002	-7.099128e-002
5.475500000000050e-003	-7.466674e-002	-7.086992e-002
5.505500000000054e-003	-7.410014e-002	-7.076430e-002
5.535500000000058e-003	-7.360733e-002	-7.067239e-002
5.565500000000062e-003	-7.317865e-002	-7.059252e-002
5.595500000000066e-003	-7.280576e-002	-7.052290e-002
5.625500000000070e-003	-7.248151e-002	-7.046258e-002
5.655500000000074e-003	-7.219934e-002	-7.040989e-002
5.685500000000078e-003	-7.195389e-002	-7.036412e-002
5.715500000000082e-003	-7.174039e-002	-7.032430e-002
5.745500000000086e-003	-7.155466e-002	-7.028973e-002
5.775500000000090e-003	-7.139313e-002	-7.025957e-002
5.805500000000094e-003	-7.125258e-002	-7.023335e-002
5.835500000000098e-003	-7.113028e-002	-7.021058e-002
5.865500000000102e-003	-7.102394e-002	-7.019079e-002
5.895500000000106e-003	-7.093143e-002	-7.017350e-002
5.925500000000110e-003	-7.085097e-002	-7.015848e-002
5.955500000000114e-003	-7.078099e-002	-7.014549e-002
5.985500000000118e-003	-7.072008e-002	-7.013404e-002
6.015500000000121e-003	-7.066715e-002	-7.012415e-002
6.045500000000125e-003	-7.062101e-002	-7.011557e-002
6.075500000000129e-003	-7.058096e-002	-7.010806e-002
6.104500000000133e-003	-7.054722e-002	-7.010186e-002
6.134500000000137e-003	-7.051671e-002	-7.009602e-002
6.164500000000141e-003	-7.049024e-002	-7.009113e-002
6.194500000000145e-003	-7.046711e-002	-7.008684e-002
6.224500000000149e-003	-7.044697e-002	-7.008302e-002
6.255500000000153e-003	-7.042909e-002	-7.007968e-002
6.286500000000157e-003	-7.041347e-002	-7.007682e-002
6.317500000000162e-003	-7.040000e-002	-7.007432e-002
6.348500000000166e-003	-7.038832e-002	-7.007205e-002
6.379500000000170e-003	-7.037818e-002	-7.007027e-002
6.410500000000174e-003	-7.036948e-002	-7.006860e-002
6.441500000000178e-003	-7.036185e-002	-7.006705e-002
6.473500000000182e-003	-7.035518e-002	-7.006586e-002
6.505500000000187e-003	-7.034934e-002	-7.006478e-002
6.537500000000191e-003	-7.034433e-002	-7.006383e-002
6.569500000000195e-003	-7.033992e-002	-7.006311e-002
6.602500000000199e-003	-7.033598e-002	-7.006228e-002
6.635500000000204e-003	-7.033277e-002	-7.006168e-002
6.669500000000208e-003	-7.032979e-002	-7.006109e-002
6.703500000000213e-003	-7.032728e-002	-7.006073e-002
6.738500000000217e-003	-7.032514e-002	-7.006025e-002
6.774500000000222e-003	-7.032323e-002	-7.005990e-002
6.811500000000227e-003	-7.032156e-002	-7.005954e-002
6.849500000000232e-003	-7.032025e-002	-7.005930e-002
6.889500000000237e-003	-7.031894e-002	-7.005894e-002
6.931500000000243e-003	-7.031786e-002	-7.005882e-002
6.975500000000249e-003	-7.031691e-002	-7.005858e-002
7.021500000000255e-003	-7.031620e-002	-7.005847e-002
7.071500000000262e-003	-7.031548e-002	-7.005835e-002
7.125500000000269e-003	-7.031476e-002	-7.005823e-002
7.128500000000269e-003	-7.031476e-002	-7.005811e-002
7.187500000000277e-003	-7.031429e-002	-7.005811e-002
7.253500000000286e-003	-7.031381e-002	-7.005811e-002
7.329500000000296e-003	-7.031357e-002	-7.005799e-002
7.419500000000308e-003	-7.031322e-002	-7.005787e-002
7.530500000000323e-003	-7.031310e-002	-7.005787e-002
7.677500000000342e-003	-7.031286e-002	-7.005787e-002
7.898500000000296e-003	-7.031262e-002	-7.005775e-002
8.152500000000109e-003	-7.031262e-002	-7.005775e-002
9.176499999999357e-003	-7.031250e-002	-7.005751e-002
1.020049999999861e-002	-7.031238e-002	-7.005751e-002
1.122449999999785e-002	-7.031238e-002	-7.005751e-002
1.224849999999710e-002	-7.031238e-002	-7.005739e-002
1.327249999999635e-002	-7.031238e-002	-7.005739e-002
1.429649999999560e-002	-7.031226e-002	-7.005739e-002
1.532049999999484e-002	-7.031226e-002	-7.005739e-002
1.634449999999534e-002	-7.031226e-002	-7.005739e-002
1.736849999999636e-002	-7.031226e-002	-7.005739e-002
1.839249999999739e-002	-7.031226e-002	-7.005739e-002
1.941649999999841e-002	-7.031226e-002	-7.005739e-002
2.044049999999944e-002	-7.031226e-002	-7.005739e-002
2.146450000000046e-002	-7.031226e-002	-7.005739e-002
2.248850000000148e-002	-7.031226e-002	-7.005739e-002
2.351250000000251e-002	-7.031226e-002	-7.005739e-002
2.453650000000353e-002	-7.031226e-002	-7.005739e-002
2.500000000000000e-002	-7.031226e-002	-7.005739e-002
2.500002000000000e-002	-7.027590e-002	-7.005060e-002
2.500006000000000e-002	-7.020330e-002	-7.003725e-002
2.500020000000000e-002	-6.994855e-002	-6.998956e-002
2.500120799999999e-002	-6.812060e-002	-6.967890e-002
2.500420800000000e-002	-6.272805e-002	-6.870210e-002
2.500920800000000e-002	-5.390280e-002	-6.705713e-002
2.501020800000000e-002	-5.216199e-002	-6.673253e-002
2.501320800000001e-002	-4.698744e-002	-6.576800e-002
2.502020800000001e-002	-3.518783e-002	-6.356847e-002
2.502920800000002e-002	-2.056497e-002	-6.084263e-002
2.503720800000003e-002	-8.065581e-003	-5.851269e-002
2.504000000000000e-002	-3.808618e-003	-5.767059e-002
2.504003760281625e-002	-3.820062e-003	-5.767268e-002
2.504011280844875e-002	-3.843069e-003	-5.767685e-002
2.505616568730371e-002	-8.575678e-003	-5.854920e-002
2.507116568730373e-002	-1.269007e-002	-5.931619e-002
2.508416568730374e-002	-1.603115e-002	-5.993900e-002
2.509516568730375e-002	-1.870489e-002	-6.043737e-002
2.510416568730376e-002	-2.079296e-002	-6.082663e-002
2.511216568730377e-002	-2.257717e-002	-6.115921e-002
2.511816568730377e-002	-2.387238e-002	-6.140067e-002
2.512216568730378e-002	-2.471614e-002	-6.155794e-002
2.512316568730378e-002	-2.492464e-002	-6.159680e-002
2.512516568730378e-002	-2.533865e-002	-6.167399e-002
2.512616568730378e-002	-2.554429e-002	-6.171231e-002
2.512816568730378e-002	-2.595258e-002	-6.178843e-002
2.513216568730379e-002	-2.675796e-002	-6.193856e-002
2.513616568730379e-002	-2.754843e-002	-6.208593e-002
2.513716568730379e-002	-2.774382e-002	-6.212234e-002
2.513916568730380e-002	-2.813184e-002	-6.219466e-002
2.514316568730380e-002	-2.889705e-002	-6.233732e-002
2.514916568730381e-002	-3.001857e-002	-6.254638e-002
2.515716568730381e-002	-3.146613e-002	-6.281622e-002
2.516316568730382e-002	-3.251708e-002	-6.301209e-002
2.516716568730382e-002	-3.320158e-002	-6.313971e-002
2.516916568730383e-002	-3.353918e-002	-6.320262e-002
2.517116568730383e-002	-3.387344e-002	-6.326495e-002
2.517516568730383e-002	-3.453290e-002	-6.338789e-002
2.518116568730384e-002	-3.549957e-002	-6.356806e-002
2.518916568730385e-002	-3.674710e-002	-6.380060e-002
2.520000000000000e-002	-3.836453e-002	-6.410682e-002
2.521250000000001e-002	-4.013181e-002	-6.443158e-002
2.522750000000002e-002	-4.212165e-002	-6.480250e-002
2.524550000000004e-002	-4.433334e-002	-6.521481e-002
2.526650000000006e-002	-4.669046e-002	-6.565422e-002
2.529050000000009e-002	-4.911721e-002	-6.610662e-002
2.531850000000012e-002	-5.162668e-002	-6.657439e-002
2.534850000000015e-002	-5.397654e-002	-6.701243e-002
2.537850000000018e-002	-5.602074e-002	-6.739354e-002
2.540850000000021e-002	-5.779898e-002	-6.772500e-002
2.543850000000024e-002	-5.934584e-002	-6.801337e-002
2.546850000000027e-002	-6.069136e-002	-6.826419e-002
2.549850000000030e-002	-6.186163e-002	-6.848234e-002
2.552850000000033e-002	-6.288004e-002	-6.867212e-002
2.554450000000034e-002	-6.336761e-002	-6.876308e-002
2.557450000000037e-002	-6.418991e-002	-6.891644e-002
2.560450000000040e-002	-6.490505e-002	-6.904972e-002
2.563450000000043e-002	-6.552720e-002	-6.916583e-002
2.566450000000046e-002	-6.606841e-002	-6.926656e-002
2.569450000000049e-002	-6.653917e-002	-6.935441e-002
2.572450000000052e-002	-6.694865e-002	-6.943083e-002
2.575450000000055e-002	-6.730497e-002	-6.949723e-002
2.578450000000058e-002	-6.761479e-002	-6.955504e-002
2.581450000000061e-002	-6.788445e-002	-6.960523e-002
2.584450000000064e-002	-6.811893e-002	-6.964898e-002
2.587450000000067e-002	-6.832290e-002	-6.968701e-002
2.590450000000070e-002	-6.850028e-002	-6.972015e-002
2.593450000000073e-002	-6.865478e-002	-6.974900e-002
2.596450000000076e-002	-6.878901e-002	-6.977403e-002
2.599450000000079e-002	-6.890571e-002	-6.979573e-002
2.602450000000082e-002	-6.900728e-002	-6.981480e-002
2.605450000000085e-002	-6.909573e-002	-6.983113e-002
2.608450000000088e-002	-6.917262e-002	-6.984556e-002
2.611450000000091e-002	-6.923950e-002	-6.985807e-002
2.614450000000094e-002	-6.929767e-002	-6.986892e-002
2.617450000000097e-002	-6.934834e-002	-6.987846e-002
2.620450000000100e-002	-6.939232e-002	-6.988668e-002
2.623450000000103e-002	-6.943059e-002	-6.989372e-002
2.626450000000106e-002	-6.946397e-002	-6.990004e-002
2.629450000000109e-002	-6.949294e-002	-6.990540e-002
2.632450000000112e-002	-6.951821e-002	-6.991017e-002
2.635450000000115e-002	-6.954014e-002	-6.991434e-002
2.638450000000118e-002	-6.955922e-002	-6.991792e-002
2.641550000000121e-002	-6.957626e-002	-6.992102e-002
2.644650000000124e-002	-6.959116e-002	-6.992388e-002
2.647750000000127e-002	-6.960404e-002	-6.992626e-002
2.650850000000131e-002	-6.961513e-002	-6.992829e-002
2.653950000000134e-002	-6.962478e-002	-6.993020e-002
2.656850000000137e-002	-6.963253e-002	-6.993163e-002
2.659950000000140e-002	-6.963980e-002	-6.993306e-002
2.663150000000143e-002	-6.964636e-002	-6.993425e-002
2.666350000000146e-002	-6.965208e-002	-6.993520e-002
2.669550000000149e-002	-6.965685e-002	-6.993628e-002
2.672850000000153e-002	-6.966114e-002	-6.993711e-002
2.676150000000156e-002	-6.966484e-002	-6.993771e-002
2.679450000000159e-002	-6.966794e-002	-6.993842e-002
2.682850000000163e-002	-6.967068e-002	-6.993890e-002
2.686350000000166e-002	-6.967330e-002	-6.993937e-002
2.689850000000170e-002	-6.967533e-002	-6.993985e-002
2.693450000000173e-002	-6.967711e-002	-6.994009e-002
2.697150000000177e-002	-6.967866e-002	-6.994045e-002
2.701050000000181e-002	-6.968009e-002	-6.994069e-002
2.705050000000185e-002	-6.968129e-002	-6.994092e-002
2.709250000000189e-002	-6.968236e-002	-6.994116e-002
2.713650000000193e-002	-6.968331e-002	-6.994128e-002
2.718350000000198e-002	-6.968403e-002	-6.994140e-002
2.723450000000203e-002	-6.968462e-002	-6.994164e-002
2.728950000000209e-002	-6.968522e-002	-6.994176e-002
2.735050000000215e-002	-6.968582e-002	-6.994188e-002
2.741850000000222e-002	-6.968617e-002	-6.994200e-002
2.749750000000229e-002	-6.968653e-002	-6.994212e-002
2.759150000000239e-002	-6.968677e-002	-6.994212e-002
2.759250000000239e-002	-6.968677e-002	-6.994224e-002
2.771050000000251e-002	-6.968713e-002	-6.994224e-002
2.787050000000267e-002	-6.968725e-002	-6.994236e-002
2.812250000000292e-002	-6.968749e-002	-6.994247e-002
2.861650000000341e-002	-6.968760e-002	-6.994259e-002
2.964050000000444e-002	-6.968784e-002	-6.994283e-002
3.066450000000546e-002	-6.968796e-002	-6.994295e-002
3.168850000000648e-002	-6.968808e-002	-6.994307e-002
3.271250000000751e-002	-6.968808e-002	-6.994307e-002
3.373650000000853e-002	-6.968820e-002	-6.994307e-002
3.476050000000956e-002	-6.968820e-002	-6.994319e-002
3.578450000001058e-002	-6.968820e-002	-6.994319e-002
3.680850000001160e-002	-6.968820e-002	-6.994319e-002
3.783250000001263e-002	-6.968820e-002	-6.994319e-002
3.885650000001365e-002	-6.968832e-002	-6.994319e-002
3.988050000001468e-002	-6.968832e-002	-6.994319e-002
4.090450000001570e-002	-6.968832e-002	-6.994319e-002
4.192850000001672e-002	-6.968832e-002	-6.994319e-002
4.295250000001775e-002	-6.968832e-002	-6.994319e-002
4.397650000001877e-002	-6.968832e-002	-6.994319e-002
4.500000000000000e-002	-6.968832e-002	-6.994319e-002
4.500001000000000e-002	-6.969726e-002	-6.994486e-002
4.500003000000000e-002	-6.971550e-002	-6.994832e-002
4.500010000000000e-002	-6.977916e-002	-6.996012e-002
4.500034800000001e-002	-7.000470e-002	-7.000124e-002
4.500111600000003e-002	-7.070076e-002	-7.011700e-002
4.500411600000003e-002	-7.339823e-002	-7.060564e-002
4.500911600000004e-002	-7.781273e-002	-7.142842e-002
4.501611600000004e-002	-8.382481e-002	-7.254899e-002
4.502011600000005e-002	-8.717424e-002	-7.317340e-002
4.502211600000005e-002	-8.882591e-002	-7.348132e-002
4.502811600000006e-002	-9.369087e-002	-7.438827e-002
4.503811600000007e-002	-1.015065e-001	-7.584506e-002
4.504000000000000e-002	-1.029401e-001	-7.613659e-002
4.504010000000000e-002	-1.029248e-001	-7.613385e-002
4.504030000000000e-002	-1.028943e-001	-7.612848e-002
4.506950000000003e-002	-9.872083e-002	-7.535511e-002
4.509850000000006e-002	-9.510011e-002	-7.468015e-002
4.510000000000000e-002	-9.492564e-002	-7.464385e-002
4.512850000000003e-002	-9.183417e-002	-7.407135e-002
4.515650000000006e-002	-8.917053e-002	-7.357481e-002
4.518450000000009e-002	-8.683187e-002	-7.313886e-002
4.521250000000011e-002	-8.477852e-002	-7.275611e-002
4.523950000000014e-002	-8.303611e-002	-7.243133e-002
4.526650000000017e-002	-8.149915e-002	-7.214478e-002
4.529250000000019e-002	-8.019066e-002	-7.190087e-002
4.531850000000022e-002	-7.903108e-002	-7.168469e-002
4.534350000000025e-002	-7.804073e-002	-7.150009e-002
4.536850000000027e-002	-7.715900e-002	-7.133572e-002
4.539250000000029e-002	-7.640366e-002	-7.119489e-002
4.541550000000032e-002	-7.575469e-002	-7.107392e-002
4.543750000000034e-002	-7.519560e-002	-7.096969e-002
4.545850000000036e-002	-7.471267e-002	-7.087968e-002
4.547850000000038e-002	-7.429454e-002	-7.080172e-002
4.549750000000040e-002	-7.393175e-002	-7.073409e-002
4.551550000000042e-002	-7.361636e-002	-7.067529e-002
4.553250000000043e-002	-7.334178e-002	-7.062409e-002
4.554750000000045e-002	-7.311686e-002	-7.058217e-002
4.556150000000046e-002	-7.292064e-002	-7.054558e-002
4.557350000000048e-002	-7.276230e-002	-7.051607e-002
4.558350000000049e-002	-7.263694e-002	-7.049269e-002
4.559150000000049e-002	-7.254076e-002	-7.047477e-002
4.559850000000050e-002	-7.245948e-002	-7.045961e-002
4.560750000000051e-002	-7.235880e-002	-7.044084e-002
4.561850000000052e-002	-7.224132e-002	-7.041894e-002
4.563250000000053e-002	-7.210023e-002	-7.039263e-002
4.564850000000055e-002	-7.194983e-002	-7.036459e-002
4.566750000000057e-002	-7.178517e-002	-7.033389e-002
4.568950000000059e-002	-7.161181e-002	-7.030156e-002
4.571550000000062e-002	-7.142852e-002	-7.026739e-002
4.574550000000065e-002	-7.124279e-002	-7.023275e-002
4.577550000000068e-002	-7.108123e-002	-7.020263e-002
4.580550000000071e-002	-7.094069e-002	-7.017642e-002
4.583550000000074e-002	-7.081844e-002	-7.015362e-002
4.586550000000077e-002	-7.071210e-002	-7.013379e-002
4.589550000000080e-002	-7.061958e-002	-7.011653e-002
4.592550000000083e-002	-7.053911e-002	-7.010152e-002
4.595550000000086e-002	-7.046911e-002	-7.008846e-002
4.598550000000089e-002	-7.040821e-002	-7.007710e-002
4.600850000000091e-002	-7.036695e-002	-7.006940e-002
4.603850000000094e-002	-7.031934e-002	-7.006052e-002
4.606850000000097e-002	-7.027793e-002	-7.005279e-002
4.609850000000100e-002	-7.024191e-002	-7.004606e-002
4.612850000000103e-002	-7.021057e-002	-7.004022e-002
4.615850000000106e-002	-7.018331e-002	-7.003513e-002
4.618850000000109e-002	-7.015960e-002	-7.003069e-002
4.621850000000112e-002	-7.013896e-002	-7.002684e-002
4.624950000000115e-002	-7.012046e-002	-7.002338e-002
4.628050000000118e-002	-7.010443e-002	-7.002039e-002
4.631150000000121e-002	-7.009056e-002	-7.001779e-002
4.634250000000124e-002	-7.007855e-002	-7.001554e-002
4.637350000000128e-002	-7.006814e-002	-7.001359e-002
4.640450000000131e-002	-7.005914e-002	-7.001190e-002
4.643550000000134e-002	-7.005134e-002	-7.001044e-002
4.646750000000137e-002	-7.004437e-002	-7.000914e-002
4.649950000000140e-002	-7.003838e-002	-7.000801e-002
4.653150000000143e-002	-7.003320e-002	-7.000704e-002
4.656350000000147e-002	-7.002875e-002	-7.000620e-002
4.659650000000150e-002	-7.002480e-002	-7.000545e-002
4.662950000000153e-002	-7.002140e-002	-7.000481e-002
4.666350000000157e-002	-7.001841e-002	-7.000425e-002
4.669750000000160e-002	-7.001585e-002	-7.000376e-002
4.673250000000163e-002	-7.001360e-002	-7.000333e-002
4.676850000000167e-002	-7.001165e-002	-7.000296e-002
4.680550000000171e-002	-7.000995e-002	-7.000263e-002
4.684350000000175e-002	-7.000848e-002	-7.000235e-002
4.688250000000178e-002	-7.000722e-002	-7.000211e-002
4.692350000000183e-002	-7.000611e-002	-7.000190e-002
4.696650000000187e-002	-7.000516e-002	-7.000171e-002
4.701250000000191e-002	-7.000432e-002	-7.000154e-002
4.703250000000193e-002	-7.000402e-002	-7.000148e-002
4.708250000000198e-002	-7.000335e-002	-7.000135e-002
4.713750000000204e-002	-7.000278e-002	-7.000122e-002
4.719750000000210e-002	-7.000229e-002	-7.000112e-002
4.726550000000217e-002	-7.000188e-002	-7.000103e-002
4.734350000000225e-002	-7.000154e-002	-7.000095e-002
4.743650000000234e-002	-7.000126e-002	-7.000088e-002
4.755250000000245e-002	-7.000104e-002	-7.000082e-002
4.770850000000261e-002	-7.000086e-002	-7.000076e-002
4.795150000000285e-002	-7.000072e-002	-7.000070e-002
4.805650000000296e-002	-7.000069e-002	-7.000068e-002
4.908050000000398e-002	-7.000052e-002	-7.000054e-002
4.999950000000490e-002	-7.000044e-002	-7.000045e-002
5.000000000000000e-002	-7.000044e-002	-7.000045e-002
Step Information: X=1K  (Run: 2/10)
0.000000000000000e+000	-7.000000e-002	-7.000000e-002
1.005310719994778e-003	-7.000010e-002	-7.000009e-002
2.029310719994708e-003	-7.000013e-002	-7.000013e-002
3.053310719994844e-003	-7.000016e-002	-7.000016e-002
4.077310719994979e-003	-7.000016e-002	-7.000016e-002
5.000000000000000e-003	-7.000016e-002	-7.000016e-002
5.000002730473426e-003	-7.000180e-002	-7.000058e-002
