time	V(N008,N005)	V(N009,N004)	V(n001)	V(n002)	V(n003)	V(n004)	V(n005)	V(n006)	V(n007)	V(n008)	V(n009)	I(C1)	I(C2)	I(C3)	I(C4)	I(R1)	I(R2)	I(R3)	I(R4)	I(R5)	I(R6)	I(R7)	I(R8)	I(R9)	I(V1)	I(V2)	I(V3)
0.000000000000000e+000	-7.000000e-002	-7.000000e-002	0.000000e+000	-2.100000e-020	-2.100000e-020	-2.102100e-020	-2.102100e-020	-2.102100e-020	-2.102100e-020	-7.000000e-002	-7.000000e-002	4.200000e-025	4.200000e-025	2.100000e-038	2.100000e-038	-4.579484e-038	-4.579483e-038	0.000000e+000	3.009266e-037	4.200000e-025	4.200000e-025	4.298951e-038	4.200000e-025	4.200000e-025	-1.261169e-043	-1.261169e-043	-4.200000e-025
1.000000000000000e-003	-7.000000e-002	-7.000000e-002	0.000000e+000	6.899421e-018	6.899496e-018	-4.643933e-018	-8.165611e-019	8.219321e-013	8.219278e-013	-7.000000e-002	-7.000000e-002	6.155812e-019	-2.265813e-019	2.307922e-019	1.542485e-019	-2.054842e-021	-2.054822e-021	0.000000e+000	3.827372e-019	2.308671e-019	1.543211e-019	1.074702e-024	-1.379884e-022	-1.379899e-022	2.054842e-021	2.054822e-021	-2.306542e-019
1.000000100000000e-003	-8.528608e-002	-5.471393e-002	-5.000000e-001	-4.999985e-001	-1.567271e-006	-2.696213e-001	-2.303787e-001	-2.543353e-001	-2.456648e-001	-3.156648e-001	-3.243352e-001	-6.832792e-004	6.832792e-004	-1.175035e-002	1.175035e-002	-4.051230e-011	4.051230e-011	6.832792e-004	3.924263e-003	-4.607542e-003	4.607542e-003	7.142812e-003	-3.134543e-011	3.134543e-011	4.051229e-011	-4.051231e-011	1.175035e-002
1.000000300000000e-003	-1.246508e-001	-1.534915e-002	-1.500000e+000	-1.499993e+000	-6.657484e-006	-8.121435e-001	-6.878565e-001	-7.574927e-001	-7.425073e-001	-8.125073e-001	-8.274927e-001	-1.328301e-003	1.328301e-003	-3.518538e-002	3.518538e-002	-1.387549e-010	1.387549e-010	1.328301e-003	1.242870e-002	-1.375700e-002	1.375700e-002	2.142838e-002	-1.331497e-010	1.331497e-010	1.387549e-010	-1.387550e-010	3.518538e-002
1.000000433997659e-003	-1.555575e-001	1.555753e-002	-2.169988e+000	-2.169976e+000	-1.206788e-005	-1.177317e+000	-9.926714e-001	-1.091759e+000	-1.078229e+000	-1.148229e+000	-1.161759e+000	-1.388625e-003	1.388625e-003	-5.085267e-002	5.085267e-002	-2.134492e-010	2.134492e-010	1.388625e-003	1.846456e-002	-1.985319e-002	1.985319e-002	3.099949e-002	-2.413575e-010	2.413575e-010	2.134492e-010	-2.134492e-010	5.085267e-002
1.000000543636281e-003	-1.805495e-001	4.054940e-002	-2.718181e+000	-2.718163e+000	-1.826369e-005	-1.476457e+000	-1.241724e+000	-1.365908e+000	-1.352274e+000	-1.422274e+000	-1.435908e+000	-1.360863e-003	1.360863e-003	-6.366476e-002	6.366476e-002	-2.764050e-010	2.764050e-010	1.360864e-003	2.347326e-002	-2.483412e-002	2.483412e-002	3.883064e-002	-3.652739e-010	3.652739e-010	2.764049e-010	-2.764050e-010	6.366476e-002
1.000000868859863e-003	-2.544481e-001	1.144481e-001	-4.344299e+000	-4.344254e+000	-4.563375e-005	-2.363416e+000	-1.980884e+000	-2.178967e+000	-2.165332e+000	-2.235332e+000	-2.248968e+000	-1.363584e-003	1.363584e-003	-1.016769e-001	1.016769e-001	-4.611199e-010	4.611199e-010	1.363585e-003	3.825318e-002	-3.961676e-002	3.961676e-002	6.206012e-002	-9.126750e-010	9.126750e-010	4.611199e-010	-4.611199e-010	1.016769e-001
1.000001000000000e-003	-2.842515e-001	1.442513e-001	-5.000000e+000	-4.999941e+000	-5.914188e-005	-2.721069e+000	-2.278931e+000	-2.506818e+000	-2.493182e+000	-2.563182e+000	-2.576818e+000	-1.363576e-003	1.363576e-003	-1.170043e-001	1.170043e-001	-5.356285e-010	5.356285e-010	1.363577e-003	4.421385e-002	-4.557743e-002	4.557743e-002	7.142688e-002	-1.182838e-009	1.182838e-009	5.356284e-010	-5.356285e-010	1.170043e-001
1.000001012316217e-003	-2.864902e-001	1.464903e-001	-5.000000e+000	-4.999939e+000	-6.058259e-005	-2.722101e+000	-2.277899e+000	-2.505611e+000	-2.494389e+000	-2.564389e+000	-2.575611e+000	-1.136470e-003	1.136470e-003	-1.169836e-001	1.169836e-001	-5.410477e-010	5.410477e-010	1.136471e-003	4.442029e-002	-4.555676e-002	4.555676e-002	7.142684e-002	-1.211652e-009	1.211652e-009	5.410478e-010	-5.410479e-010	1.169836e-001
1.000001036948650e-003	-2.900751e-001	1.500752e-001	-5.000000e+000	-4.999937e+000	-6.346346e-005	-2.723700e+000	-2.276300e+000	-2.503625e+000	-2.496375e+000	-2.566375e+000	-2.573625e+000	-7.847089e-004	7.847089e-004	-1.169515e-001	1.169515e-001	-5.494414e-010	5.494414e-010	7.847095e-004	4.474002e-002	-4.552473e-002	4.552473e-002	7.142676e-002	-1.269269e-009	1.269269e-009	5.494415e-010	-5.494416e-010	1.169515e-001
1.000001086213516e-003	-2.941077e-001	1.541078e-001	-5.000000e+000	-4.999931e+000	-6.922366e-005	-2.725552e+000	-2.274448e+000	-2.501444e+000	-2.498556e+000	-2.568556e+000	-2.571444e+000	-3.771516e-004	3.771516e-004	-1.169142e-001	1.169142e-001	-5.591659e-010	5.591659e-010	3.771522e-004	4.511042e-002	-4.548757e-002	4.548757e-002	7.142659e-002	-1.384473e-009	1.384473e-009	5.591660e-010	-5.591659e-010	1.169142e-001
1.000001164134997e-003	-2.965143e-001	1.565142e-001	-5.000000e+000	-4.999922e+000	-7.833251e-005	-2.726789e+000	-2.273211e+000	-2.500275e+000	-2.499725e+000	-2.569726e+000	-2.570275e+000	-1.049297e-004	1.049297e-004	-1.168890e-001	1.168890e-001	-5.656600e-010	5.656600e-010	1.049302e-004	4.535773e-002	-4.546266e-002	4.546266e-002	7.142633e-002	-1.566650e-009	1.566650e-009	5.656601e-010	-5.656599e-010	1.168890e-001
1.000001249682504e-003	-2.971334e-001	1.571333e-001	-5.000000e+000	-4.999912e+000	-8.833167e-005	-2.727173e+000	-2.272827e+000	-2.500040e+000	-2.499960e+000	-2.569961e+000	-2.570040e+000	-2.021377e-005	2.021377e-005	-1.168808e-001	1.168808e-001	-5.676793e-010	5.676793e-010	2.021434e-005	4.543456e-002	-4.545477e-002	4.545477e-002	7.142605e-002	-1.766633e-009	1.766633e-009	5.676794e-010	-5.676792e-010	1.168808e-001
1.000001375610781e-003	-2.972560e-001	1.572559e-001	-5.000000e+000	-4.999897e+000	-1.030501e-004	-2.727254e+000	-2.272746e+000	-2.499998e+000	-2.500002e+000	-2.570002e+000	-2.569998e+000	-2.157076e-006	2.157076e-006	-1.168785e-001	1.168785e-001	-5.681069e-010	5.681069e-010	2.157644e-006	4.545071e-002	-4.545287e-002	4.545287e-002	7.142562e-002	-2.061001e-009	2.061001e-009	5.681068e-010	-5.681068e-010	1.168785e-001
1.000001564607373e-003	-2.972620e-001	1.572618e-001	-5.000000e+000	-4.999875e+000	-1.251395e-004	-2.727262e+000	-2.272738e+000	-2.500000e+000	-2.500000e+000	-2.570000e+000	-2.570000e+000	1.514650e-007	-1.514650e-007	-1.168773e-001	1.168773e-001	-5.681570e-010	5.681570e-010	-1.508969e-007	4.545241e-002	-4.545226e-002	4.545226e-002	7.142500e-002	-2.502790e-009	2.502790e-009	5.681569e-010	-5.681570e-010	1.168773e-001
1.000001942600557e-003	-2.972581e-001	1.572580e-001	-5.000000e+000	-4.999831e+000	-1.693176e-004	-2.727257e+000	-2.272743e+000	-2.500000e+000	-2.500000e+000	-2.570001e+000	-2.569999e+000	5.157790e-008	-5.157790e-008	-1.168752e-001	1.168752e-001	-5.681445e-010	5.681445e-010	-5.100976e-008	4.545151e-002	-4.545146e-002	4.545146e-002	7.142373e-002	-3.386353e-009	3.386353e-009	5.681445e-010	-5.681446e-010	1.168752e-001
1.000002698586926e-003	-2.972498e-001	1.572497e-001	-5.000000e+000	-4.999743e+000	-2.576710e-004	-2.727250e+000	-2.272750e+000	-2.500000e+000	-2.500000e+000	-2.570000e+000	-2.570000e+000	6.723264e-008	-6.723264e-008	-1.168711e-001	1.168711e-001	-5.681248e-010	5.681248e-010	-6.666451e-008	4.544992e-002	-4.544985e-002	4.544985e-002	7.142121e-002	-5.153419e-009	5.153419e-009	5.681249e-010	-5.681249e-010	1.168711e-001
1.000004210559663e-003	-2.972338e-001	1.572340e-001	-5.000000e+000	-4.999566e+000	-4.343659e-004	-2.727233e+000	-2.272767e+000	-2.500000e+000	-2.500000e+000	-2.570000e+000	-2.569999e+000	6.241286e-008	-6.241286e-008	-1.168628e-001	1.168628e-001	-5.680846e-010	5.680846e-010	-6.184477e-008	4.544671e-002	-4.544664e-002	4.544664e-002	7.141616e-002	-8.687318e-009	8.687318e-009	5.680846e-010	-5.680846e-010	1.168628e-001
1.000007234505138e-003	-2.972016e-001	1.572015e-001	-5.000000e+000	-4.999212e+000	-7.877089e-004	-2.727201e+000	-2.272799e+000	-2.500000e+000	-2.500000e+000	-2.570000e+000	-2.570000e+000	6.431674e-008	-6.431674e-008	-1.168463e-001	1.168463e-001	-5.680043e-010	5.680043e-010	-6.374874e-008	4.544028e-002	-4.544022e-002	4.544022e-002	7.140607e-002	-1.575418e-008	1.575418e-008	5.680044e-010	-5.680043e-010	1.168463e-001
1.000227550532568e-003	-2.948802e-001	1.548802e-001	-5.000000e+000	-4.973676e+000	-2.632417e-002	-2.724880e+000	-2.275120e+000	-2.500000e+000	-2.500000e+000	-2.570000e+000	-2.570000e+000	6.329410e-008	-6.329410e-008	-1.156518e-001	1.156518e-001	-5.622006e-010	5.622006e-010	-6.273191e-008	4.497598e-002	-4.497592e-002	4.497592e-002	7.067645e-002	-5.264835e-007	5.264835e-007	5.622006e-010	-5.622005e-010	1.156524e-001
1.000447866559998e-003	-2.925842e-001	1.525842e-001	-5.000000e+000	-4.948419e+000	-5.158119e-002	-2.722584e+000	-2.277416e+000	-2.500000e+000	-2.500000e+000	-2.570000e+000	-2.570000e+000	6.237463e-008	-6.237463e-008	-1.144705e-001	1.144705e-001	-5.564603e-010	5.564603e-010	-6.181817e-008	4.451676e-002	-4.451670e-002	4.451670e-002	6.995482e-002	-1.031624e-006	1.031624e-006	5.564603e-010	-5.564603e-010	1.144715e-001
1.000668182587428e-003	-2.903135e-001	1.503136e-001	-5.000000e+000	-4.923441e+000	-7.655878e-002	-2.720313e+000	-2.279687e+000	-2.500000e+000	-2.500000e+000	-2.570000e+000	-2.569999e+000	6.155831e-008	-6.155831e-008	-1.133022e-001	1.133022e-001	-5.507836e-010	5.507836e-010	-6.100752e-008	4.406262e-002	-4.406256e-002	4.406256e-002	6.924117e-002	-1.531176e-006	1.531176e-006	5.507835e-010	-5.507835e-010	1.133037e-001
1.000888498614858e-003	-2.880682e-001	1.480683e-001	-5.000000e+000	-4.898743e+000	-1.012569e-001	-2.718068e+000	-2.281932e+000	-2.500000e+000	-2.500000e+000	-2.570000e+000	-2.569999e+000	6.084514e-008	-6.084514e-008	-1.121470e-001	1.121470e-001	-5.451703e-010	5.451703e-010	-6.029997e-008	4.361356e-002	-4.361350e-002	4.361350e-002	6.853551e-002	-2.025139e-006	2.025139e-006	5.451703e-010	-5.451703e-010	1.121490e-001
1.001108814642288e-003	-2.858483e-001	1.458484e-001	-5.000000e+000	-4.874325e+000	-1.256757e-001	-2.715848e+000	-2.284152e+000	-2.500000e+000	-2.500000e+000	-2.570000e+000	-2.570000e+000	6.023513e-008	-6.023513e-008	-1.110048e-001	1.110048e-001	-5.396206e-010	5.396206e-010	-5.969551e-008	4.316959e-002	-4.316953e-002	4.316953e-002	6.783784e-002	-2.513513e-006	2.513513e-006	5.396206e-010	-5.396206e-010	1.110074e-001
1.001329130669718e-003	-2.836538e-001	1.436538e-001	-5.000000e+000	-4.850185e+000	-1.498149e-001	-2.713653e+000	-2.286347e+000	-2.500000e+000	-2.500000e+000	-2.570000e+000	-2.570000e+000	5.972827e-008	-5.972827e-008	-1.098758e-001	1.098758e-001	-5.341344e-010	5.341344e-010	-5.919414e-008	4.273069e-002	-4.273063e-002	4.273063e-002	6.714814e-002	-2.996299e-006	2.996299e-006	5.341344e-010	-5.341344e-010	1.098788e-001
1.001549446697148e-003	-2.814846e-001	1.414845e-001	-5.000000e+000	-4.826325e+000	-1.736748e-001	-2.711484e+000	-2.288516e+000	-2.500000e+000	-2.500000e+000	-2.570000e+000	-2.570000e+000	5.932457e-008	-5.932457e-008	-1.087598e-001	1.087598e-001	-5.287117e-010	5.287117e-010	-5.879586e-008	4.229688e-002	-4.229682e-002	4.229682e-002	6.646644e-002	-3.473496e-006	3.473496e-006	5.287117e-010	-5.287117e-010	1.087632e-001
1.002549446697148e-003	-2.718489e-001	1.318488e-001	-5.000000e+000	-4.720330e+000	-2.796699e-001	-2.701849e+000	-2.298151e+000	-2.500000e+000	-2.500000e+000	-2.570000e+000	-2.570000e+000	5.661944e-008	-5.661944e-008	-1.038020e-001	1.038020e-001	-5.046218e-010	5.046218e-010	-5.611482e-008	4.036969e-002	-4.036963e-002	4.036963e-002	6.343800e-002	-5.593399e-006	5.593399e-006	5.046218e-010	-5.046218e-010	1.038076e-001
1.003549446697147e-003	-2.626276e-001	1.226275e-001	-5.000000e+000	-4.618900e+000	-3.810999e-001	-2.692627e+000	-2.307373e+000	-2.500000e+000	-2.500000e+000	-2.570000e+000	-2.570000e+000	5.403169e-008	-5.403169e-008	-9.905784e-002	9.905784e-002	-4.815695e-010	4.815695e-010	-5.355012e-008	3.852551e-002	-3.852545e-002	3.852545e-002	6.054001e-002	-7.621998e-006	7.621998e-006	4.815695e-010	-4.815695e-010	9.906545e-002
1.004549446697147e-003	-2.538285e-001	1.138284e-001	-5.000000e+000	-4.522106e+000	-4.778940e-001	-2.683828e+000	-2.316172e+000	-2.500000e+000	-2.500000e+000	-2.570000e+000	-2.570000e+000	5.156220e-008	-5.156220e-008	-9.453046e-002	9.453046e-002	-4.595708e-010	4.595708e-010	-5.110263e-008	3.676561e-002	-3.676556e-002	3.676556e-002	5.777446e-002	-9.557881e-006	9.557881e-006	4.595707e-010	-4.595707e-010	9.454001e-002
1.005549446697147e-003	-2.454309e-001	1.054308e-001	-5.000000e+000	-4.429736e+000	-5.702643e-001	-2.675431e+000	-2.324569e+000	-2.500000e+000	-2.500000e+000	-2.570000e+000	-2.570000e+000	4.920559e-008	-4.920559e-008	-9.021001e-002	9.021001e-002	-4.385775e-010	4.385775e-010	-4.876701e-008	3.508615e-002	-3.508610e-002	3.508610e-002	5.513531e-002	-1.140529e-005	1.140529e-005	4.385775e-010	-4.385775e-010	9.022141e-002
1.006549446697147e-003	-2.374175e-001	9.741735e-002	-5.000000e+000	-4.341587e+000	-6.584128e-001	-2.667417e+000	-2.332583e+000	-2.500000e+000	-2.500000e+000	-2.570000e+000	-2.570000e+000	4.695667e-008	-4.695667e-008	-8.608701e-002	8.608701e-002	-4.185437e-010	4.185437e-010	-4.653813e-008	3.348345e-002	-3.348340e-002	3.348340e-002	5.261678e-002	-1.316826e-005	1.316826e-005	4.185437e-010	-4.185437e-010	8.610018e-002
1.007549446697147e-003	-2.297702e-001	8.977008e-002	-5.000000e+000	-4.257467e+000	-7.425325e-001	-2.659770e+000	-2.340230e+000	-2.500000e+000	-2.500000e+000	-2.570000e+000	-2.570000e+000	4.481055e-008	-4.481055e-008	-8.215246e-002	8.215246e-002	-3.994255e-010	3.994255e-010	-4.441112e-008	3.195399e-002	-3.195395e-002	3.195395e-002	5.021336e-002	-1.485065e-005	1.485065e-005	3.994255e-010	-3.994255e-010	8.216731e-002
1.009549446697147e-003	-2.155082e-001	7.550812e-002	-5.000000e+000	-4.100586e+000	-8.994138e-001	-2.645508e+000	-2.354492e+000	-2.500000e+000	-2.500000e+000	-2.570000e+000	-2.570000e+000	4.080808e-008	-4.080808e-008	-7.481461e-002	7.481461e-002	-3.637706e-010	3.637706e-010	-4.044431e-008	2.910160e-002	-2.910156e-002	2.910156e-002	4.573104e-002	-1.798828e-005	1.798828e-005	3.637706e-010	-3.637706e-010	7.483260e-002
1.011549446697147e-003	-2.025199e-001	6.252003e-002	-5.000000e+000	-3.957718e+000	-1.042282e+000	-2.632520e+000	-2.367480e+000	-2.500000e+000	-2.500000e+000	-2.570000e+000	-2.570000e+000	3.716311e-008	-3.716311e-008	-6.813218e-002	6.813218e-002	-3.313003e-010	3.313003e-010	-3.683181e-008	2.650399e-002	-2.650395e-002	2.650395e-002	4.164907e-002	-2.084565e-005	2.084565e-005	3.313003e-010	-3.313003e-010	6.815302e-002
1.013549446697147e-003	-1.906919e-001	5.069208e-002	-5.000000e+000	-3.827610e+000	-1.172390e+000	-2.620692e+000	-2.379308e+000	-2.500000e+000	-2.500000e+000	-2.570000e+000	-2.570000e+000	3.384370e-008	-3.384370e-008	-6.204662e-002	6.204662e-002	-3.017303e-010	3.017303e-010	-3.354197e-008	2.413839e-002	-2.413836e-002	2.413836e-002	3.793171e-002	-2.344780e-005	2.344780e-005	3.017304e-010	-3.017303e-010	6.207007e-002
1.016549446697146e-003	-1.749012e-001	3.490138e-002	-5.000000e+000	-3.653910e+000	-1.346090e+000	-2.604901e+000	-2.395099e+000	-2.500000e+000	-2.500000e+000	-2.570000e+000	-2.570000e+000	2.941214e-008	-2.941214e-008	-5.392212e-002	5.392212e-002	-2.622530e-010	2.622530e-010	-2.914989e-008	2.098021e-002	-2.098018e-002	2.098018e-002	3.296886e-002	-2.692180e-005	2.692180e-005	2.622530e-010	-2.622530e-010	5.394904e-002
1.019549446697146e-003	-1.611779e-001	2.117801e-002	-5.000000e+000	-3.502955e+000	-1.497045e+000	-2.591178e+000	-2.408822e+000	-2.500000e+000	-2.500000e+000	-2.570000e+000	-2.570000e+000	2.556086e-008	-2.556086e-008	-4.686145e-002	4.686145e-002	-2.279449e-010	2.279449e-010	-2.533292e-008	1.823557e-002	-1.823554e-002	1.823554e-002	2.865585e-002	-2.994090e-005	2.994090e-005	2.279449e-010	-2.279449e-010	4.689140e-002
1.022549446697146e-003	-1.492517e-001	9.251833e-003	-5.000000e+000	-3.371766e+000	-1.628234e+000	-2.579252e+000	-2.420748e+000	-2.500000e+000	-2.500000e+000	-2.570000e+000	-2.570000e+000	2.221387e-008	-2.221387e-008	-4.072532e-002	4.072532e-002	-1.981292e-010	1.981292e-010	-2.201574e-008	1.585031e-002	-1.585029e-002	1.585029e-002	2.490760e-002	-3.256468e-005	3.256468e-005	1.981292e-010	-1.981292e-010	4.075789e-002
1.025549446697146e-003	-1.388867e-001	-1.113176e-003	-5.000000e+000	-3.257755e+000	-1.742245e+000	-2.568887e+000	-2.431113e+000	-2.500000e+000	-2.500000e+000	-2.570000e+000	-2.570000e+000	1.930515e-008	-1.930515e-008	-3.539267e-002	3.539267e-002	-1.722176e-010	1.722176e-010	-1.913293e-008	1.377739e-002	-1.377737e-002	1.377737e-002	2.165015e-002	-3.484490e-005	3.484490e-005	1.722176e-010	-1.722175e-010	3.542752e-002
1.028549446697145e-003	-1.298795e-001	-1.012039e-002	-5.000000e+000	-3.158673e+000	-1.841327e+000	-2.559879e+000	-2.440121e+000	-2.500000e+000	-2.500000e+000	-2.570000e+000	-2.570000e+000	1.677729e-008	-1.677729e-008	-3.075829e-002	3.075829e-002	-1.496989e-010	1.496989e-010	-1.662759e-008	1.197589e-002	-1.197588e-002	1.197588e-002	1.881924e-002	-3.682654e-005	3.682654e-005	1.496989e-010	-1.496989e-010	3.079511e-002
1.031549446697145e-003	-1.220515e-001	-1.794863e-002	-5.000000e+000	-3.072565e+000	-1.927435e+000	-2.552052e+000	-2.447948e+000	-2.500000e+000	-2.500000e+000	-2.570000e+000	-2.570000e+000	1.458044e-008	-1.458044e-008	-2.673074e-002	2.673074e-002	-1.301288e-010	1.301288e-010	-1.445031e-008	1.041029e-002	-1.041028e-002	1.041028e-002	1.635901e-002	-3.854869e-005	3.854869e-005	1.301288e-010	-1.301288e-010	2.676929e-002
1.034549446697145e-003	-1.152487e-001	-2.475119e-002	-5.000000e+000	-2.997733e+000	-2.002267e+000	-2.545249e+000	-2.454751e+000	-2.500000e+000	-2.500000e+000	-2.570000e+000	-2.570000e+000	1.267125e-008	-1.267125e-008	-2.323056e-002	2.323056e-002	-1.131213e-010	1.131213e-010	-1.255813e-008	9.049693e-003	-9.049681e-003	9.049681e-003	1.422093e-002	-4.004535e-005	4.004535e-005	1.131213e-010	-1.131213e-010	2.327061e-002
1.037549446697145e-003	-1.093361e-001	-3.066397e-002	-5.000000e+000	-2.932698e+000	-2.067302e+000	-2.539336e+000	-2.460664e+000	-2.500000e+000	-2.500000e+000	-2.570000e+000	-2.570000e+000	1.101205e-008	-1.101205e-008	-2.018871e-002	2.018871e-002	-9.834081e-011	9.834081e-011	-1.091371e-008	7.867254e-003	-7.867243e-003	7.867243e-003	1.236281e-002	-4.134603e-005	4.134603e-005	9.834085e-011	-9.834081e-011	2.023005e-002
1.040549446697144e-003	-1.041985e-001	-3.580165e-002	-5.000000e+000	-2.876180e+000	-2.123820e+000	-2.534198e+000	-2.465802e+000	-2.500000e+000	-2.500000e+000	-2.570000e+000	-2.570000e+000	9.570114e-009	-9.570114e-009	-1.754516e-002	1.754516e-002	-8.549569e-011	8.549569e-011	-9.484618e-009	6.839646e-003	-6.839636e-003	6.839636e-003	1.074800e-002	-4.247640e-005	4.247640e-005	8.549569e-011	-8.549571e-011	1.758764e-002
1.043549446697144e-003	-9.973311e-002	-4.026699e-002	-5.000000e+000	-2.827062e+000	-2.172938e+000	-2.529733e+000	-2.470267e+000	-2.500000e+000	-2.500000e+000	-2.570000e+000	-2.570000e+000	8.316984e-009	-8.316984e-009	-1.524776e-002	1.524776e-002	-7.433253e-011	7.433253e-011	-8.242653e-009	5.946594e-003	-5.946586e-003	5.946586e-003	9.344636e-003	-4.345876e-005	4.345876e-005	7.433253e-011	-7.433254e-011	1.529122e-002
1.046549446697144e-003	-9.585261e-002	-4.414749e-002	-5.000000e+000	-2.784376e+000	-2.215624e+000	-2.525852e+000	-2.474148e+000	-2.500000e+000	-2.500000e+000	-2.570000e+000	-2.570000e+000	7.227943e-009	-7.227943e-009	-1.325119e-002	1.325119e-002	-6.463110e-011	6.463110e-011	-7.163310e-009	5.170481e-003	-5.170474e-003	5.170474e-003	8.125031e-003	-4.431248e-005	4.431248e-005	6.463109e-011	-6.463106e-011	1.329551e-002
1.049549446697144e-003	-9.247994e-002	-4.752016e-002	-5.000000e+000	-2.747279e+000	-2.252721e+000	-2.522480e+000	-2.477520e+000	-2.500000e+000	-2.500000e+000	-2.570000e+000	-2.570000e+000	6.281502e-009	-6.281502e-009	-1.151606e-002	1.151606e-002	-5.619999e-011	5.619999e-011	-6.225302e-009	4.495993e-003	-4.495987e-003	4.495987e-003	7.065123e-003	-4.505441e-005	4.505441e-005	5.620002e-011	-5.619999e-011	1.156111e-002
