time	V(N008,N005)	V(N009,N004)	V(n001)	V(n002)	V(n003)	V(n004)	V(n005)	V(n006)	V(n007)	V(n008)	V(n009)	I(C1)	I(C2)	I(C3)	I(C4)	I(R1)	I(R2)	I(R3)	I(R4)	I(R5)	I(R6)	I(R7)	I(R8)	I(R9)	I(V1)	I(V2)	I(V3)
0.000000000000000e+000	-7.000000e-002	-7.000000e-002	0.000000e+000	-2.100000e-020	-2.100000e-020	-2.102100e-020	-2.102100e-020	-2.102100e-020	-2.102100e-020	-7.000000e-002	-7.000000e-002	4.200000e-025	4.200000e-025	2.100000e-038	2.100000e-038	2.536958e-037	2.536958e-037	0.000000e+000	0.000000e+000	4.200000e-025	4.200000e-025	-4.298951e-038	4.200000e-025	4.200000e-025	-1.261169e-043	-1.261169e-043	-4.200000e-025
1.000000000000000e-003	-7.000000e-002	-7.000000e-002	0.000000e+000	-8.268006e-015	-8.268006e-015	-8.234877e-015	-8.234877e-015	-1.151710e-009	-1.151710e-009	-7.000000e-002	-7.000000e-002	-3.541868e-018	-3.541868e-018	-8.281634e-019	-8.281634e-019	2.879255e-018	2.879255e-018	0.000000e+000	0.000000e+000	-6.625915e-019	-6.625915e-019	-1.803111e-031	1.653601e-019	1.653601e-019	-2.879255e-018	-2.879255e-018	6.628033e-019
1.000000100000000e-003	-7.048258e-002	-6.951740e-002	-5.000000e-001	-4.999984e-001	-1.617713e-006	-2.504970e-001	-2.495030e-001	-2.500145e-001	-2.499855e-001	-3.199855e-001	-3.200144e-001	-1.960121e-005	1.960121e-005	-1.213284e-002	1.213284e-002	-1.218102e-012	1.218108e-012	1.960121e-005	4.970426e-003	-4.990027e-003	4.990027e-003	7.142811e-003	-3.235426e-011	3.235426e-011	1.218131e-012	-1.218110e-012	1.213284e-002
1.000000300000000e-003	-7.147861e-002	-6.852138e-002	-1.500000e+000	-1.499993e+000	-6.990138e-006	-7.514941e-001	-7.485059e-001	-7.500154e-001	-7.499846e-001	-8.199846e-001	-8.200154e-001	-2.994887e-005	2.994887e-005	-3.639835e-002	3.639835e-002	-3.697569e-012	3.697575e-012	2.994888e-005	1.494003e-002	-1.496998e-002	1.496998e-002	2.142837e-002	-1.398028e-010	1.398028e-010	3.697656e-012	-3.697645e-012	3.639835e-002
1.000000906660785e-003	-7.450652e-002	-6.549358e-002	-4.533304e+000	-4.533253e+000	-5.133170e-005	-2.271173e+000	-2.262131e+000	-2.266667e+000	-2.266637e+000	-2.336637e+000	-2.336667e+000	-2.990140e-005	2.990140e-005	-1.100016e-001	1.100016e-001	-1.126554e-011	1.126555e-011	2.990142e-005	4.521169e-002	-4.524159e-002	4.524159e-002	6.476002e-002	-1.026634e-009	1.026634e-009	1.126546e-011	-1.126522e-011	1.100016e-001
1.000001000000000e-003	-7.497144e-002	-6.502843e-002	-5.000000e+000	-4.999939e+000	-6.127005e-005	-2.504987e+000	-2.495013e+000	-2.500015e+000	-2.499985e+000	-2.569985e+000	-2.570015e+000	-3.059276e-005	3.059276e-005	-1.213259e-001	1.213259e-001	-1.242887e-011	1.242887e-011	3.059277e-005	4.986845e-002	-4.989904e-002	4.989904e-002	7.142682e-002	-1.225401e-009	1.225401e-009	1.242895e-011	-1.242850e-011	1.213259e-001
1.000001060585476e-003	-7.498789e-002	-6.501222e-002	-5.000000e+000	-4.999931e+000	-6.862060e-005	-2.504989e+000	-2.495011e+000	-2.500001e+000	-2.499999e+000	-2.569999e+000	-2.570001e+000	-1.080048e-005	1.080048e-005	-1.213255e-001	1.213255e-001	-1.245851e-011	1.245852e-011	1.080050e-005	4.988805e-002	-4.989885e-002	4.989885e-002	7.142661e-002	-1.372412e-009	1.372412e-009	1.245842e-011	-1.245804e-011	1.213255e-001
1.000001181756428e-003	-7.499051e-002	-6.500936e-002	-5.000000e+000	-4.999917e+000	-8.332165e-005	-2.504990e+000	-2.495010e+000	-2.499999e+000	-2.500001e+000	-2.570001e+000	-2.569999e+000	-4.802557e-008	4.802557e-008	-1.213247e-001	1.213247e-001	-1.247456e-011	1.247456e-011	4.803807e-008	4.989849e-002	-4.989854e-002	4.989854e-002	7.142619e-002	-1.666433e-009	1.666433e-009	1.247440e-011	-1.247433e-011	1.213247e-001
1.000001424098331e-003	-7.498908e-002	-6.501079e-002	-5.000000e+000	-4.999887e+000	-1.127234e-004	-2.504990e+000	-2.495010e+000	-2.500001e+000	-2.499999e+000	-2.569999e+000	-2.570001e+000	2.373946e-008	-2.373946e-008	-1.213233e-001	1.213233e-001	-1.247452e-011	1.247453e-011	-2.372695e-008	4.989797e-002	-4.989795e-002	4.989795e-002	7.142535e-002	-2.254468e-009	2.254468e-009	1.247432e-011	-1.247435e-011	1.213233e-001
1.000001908782138e-003	-7.499027e-002	-6.500959e-002	-5.000000e+000	-4.999828e+000	-1.715256e-004	-2.504990e+000	-2.495010e+000	-2.499999e+000	-2.500001e+000	-2.570001e+000	-2.569999e+000	-9.124847e-009	9.124847e-009	-1.213204e-001	1.213204e-001	-1.247418e-011	1.247418e-011	9.137334e-009	4.989677e-002	-4.989678e-002	4.989678e-002	7.142367e-002	-3.430513e-009	3.430513e-009	1.247402e-011	-1.247401e-011	1.213204e-001
1.000002878149751e-003	-7.498884e-002	-6.501102e-002	-5.000000e+000	-4.999711e+000	-2.891249e-004	-2.504990e+000	-2.495010e+000	-2.500001e+000	-2.499999e+000	-2.569999e+000	-2.570001e+000	6.605944e-009	-6.605963e-009	-1.213147e-001	1.213147e-001	-1.247361e-011	1.247362e-011	-6.593515e-009	4.989443e-002	-4.989443e-002	4.989443e-002	7.142031e-002	-5.782498e-009	5.782498e-009	1.247355e-011	-1.247369e-011	1.213147e-001
1.000004816884978e-003	-7.498980e-002	-6.501007e-002	-5.000000e+000	-4.999475e+000	-5.243027e-004	-2.504989e+000	-2.495011e+000	-2.499999e+000	-2.500001e+000	-2.570001e+000	-2.569999e+000	-1.090579e-009	1.090522e-009	-1.213033e-001	1.213033e-001	-1.247243e-011	1.247243e-011	1.102990e-009	4.988973e-002	-4.988974e-002	4.988974e-002	7.141359e-002	-1.048605e-008	1.048605e-008	1.247253e-011	-1.247255e-011	1.213033e-001
1.000008694355433e-003	-7.498741e-002	-6.501245e-002	-5.000000e+000	-4.999005e+000	-9.945752e-004	-2.504988e+000	-2.495012e+000	-2.500001e+000	-2.499999e+000	-2.569999e+000	-2.570001e+000	2.715865e-009	-2.715903e-009	-1.212805e-001	1.212805e-001	-1.247009e-011	1.247009e-011	-2.703397e-009	4.988035e-002	-4.988035e-002	4.988035e-002	7.140015e-002	-1.989151e-008	1.989151e-008	1.247030e-011	-1.247011e-011	1.212805e-001
1.000016449296341e-003	-7.498693e-002	-6.501293e-002	-5.000000e+000	-4.998065e+000	-1.934788e-003	-2.504986e+000	-2.495014e+000	-2.499999e+000	-2.500001e+000	-2.570001e+000	-2.569999e+000	8.222780e-010	-8.222780e-010	-1.212348e-001	1.212348e-001	-1.246539e-011	1.246540e-011	-8.097913e-010	4.986158e-002	-4.986158e-002	4.986158e-002	7.137329e-002	-3.869577e-008	3.869577e-008	1.246562e-011	-1.246551e-011	1.212349e-001
1.000125018469059e-003	-7.495928e-002	-6.504059e-002	-5.000000e+000	-4.984948e+000	-1.505146e-002	-2.504960e+000	-2.495040e+000	-2.500001e+000	-2.499999e+000	-2.569999e+000	-2.570001e+000	1.522740e-009	-1.522740e-009	-1.205980e-001	1.205980e-001	-1.239994e-011	1.239995e-011	-1.510367e-009	4.959977e-002	-4.959977e-002	4.959977e-002	7.099853e-002	-3.010291e-007	3.010291e-007	1.240012e-011	-1.240030e-011	1.205983e-001
1.000249097523595e-003	-7.493091e-002	-6.506896e-002	-5.000000e+000	-4.970063e+000	-2.993672e-002	-2.504930e+000	-2.495070e+000	-2.499999e+000	-2.500001e+000	-2.570001e+000	-2.569999e+000	1.396378e-009	-1.396378e-009	-1.198753e-001	1.198753e-001	-1.232566e-011	1.232567e-011	-1.384080e-009	4.930266e-002	-4.930266e-002	4.930266e-002	7.057323e-002	-5.987344e-007	5.987344e-007	1.232583e-011	-1.232591e-011	1.198759e-001
1.000497255632665e-003	-7.487082e-002	-6.512904e-002	-5.000000e+000	-4.940625e+000	-5.937473e-002	-2.504872e+000	-2.495128e+000	-2.500001e+000	-2.499999e+000	-2.569999e+000	-2.570001e+000	1.438120e-009	-1.438120e-009	-1.184460e-001	1.184460e-001	-1.217877e-011	1.217877e-011	-1.425955e-009	4.871507e-002	-4.871507e-002	4.871507e-002	6.973215e-002	-1.187495e-006	1.187495e-006	1.217901e-011	-1.217915e-011	1.184472e-001
1.000993571850806e-003	-7.475710e-002	-6.524277e-002	-5.000000e+000	-4.883050e+000	-1.169500e-001	-2.504756e+000	-2.495244e+000	-2.499999e+000	-2.500001e+000	-2.570001e+000	-2.569999e+000	1.375251e-009	-1.375251e-009	-1.156507e-001	1.156507e-001	-1.189147e-011	1.189147e-011	-1.363333e-009	4.756587e-002	-4.756587e-002	4.756587e-002	6.808715e-002	-2.339001e-006	2.339001e-006	1.189155e-011	-1.189184e-011	1.156530e-001
1.001986204287088e-003	-7.453346e-002	-6.546640e-002	-5.000000e+000	-4.771629e+000	-2.283706e-001	-2.504534e+000	-2.495466e+000	-2.500001e+000	-2.499999e+000	-2.569999e+000	-2.570001e+000	1.320371e-009	-1.320371e-009	-1.102410e-001	1.102410e-001	-1.133548e-011	1.133548e-011	-1.309001e-009	4.534191e-002	-4.534191e-002	4.534191e-002	6.490370e-002	-4.567413e-006	4.567413e-006	1.133542e-011	-1.133551e-011	1.102456e-001
1.002986204287088e-003	-7.432008e-002	-6.567979e-002	-5.000000e+000	-4.664011e+000	-3.359893e-001	-2.504319e+000	-2.495681e+000	-2.499999e+000	-2.500001e+000	-2.570001e+000	-2.569999e+000	1.257717e-009	-1.257717e-009	-1.050160e-001	1.050160e-001	-1.079846e-011	1.079846e-011	-1.246889e-009	4.319382e-002	-4.319382e-002	4.319382e-002	6.182888e-002	-6.719786e-006	6.719786e-006	1.079834e-011	-1.079826e-011	1.050227e-001
1.003986204287088e-003	-7.411408e-002	-6.588578e-002	-5.000000e+000	-4.561483e+000	-4.385163e-001	-2.504115e+000	-2.495885e+000	-2.500001e+000	-2.499999e+000	-2.569999e+000	-2.570001e+000	1.198089e-009	-1.198089e-009	-1.000381e-001	1.000381e-001	-1.028684e-011	1.028685e-011	-1.187772e-009	4.114738e-002	-4.114738e-002	4.114738e-002	5.889953e-002	-8.770327e-006	8.770327e-006	1.028689e-011	-1.028661e-011	1.000469e-001
1.004986204287088e-003	-7.392049e-002	-6.607938e-002	-5.000000e+000	-4.463817e+000	-5.361835e-001	-2.503920e+000	-2.496080e+000	-2.499999e+000	-2.500001e+000	-2.570001e+000	-2.569999e+000	1.141302e-009	-1.141302e-009	-9.529625e-002	9.529625e-002	-9.799482e-012	9.799488e-012	-1.131497e-009	3.919793e-002	-3.919793e-002	3.919793e-002	5.610904e-002	-1.072367e-005	1.072367e-005	9.799760e-012	-9.799480e-012	9.530698e-002
1.005986204287087e-003	-7.373333e-002	-6.626654e-002	-5.000000e+000	-4.370779e+000	-6.292212e-001	-2.503734e+000	-2.496266e+000	-2.500001e+000	-2.499999e+000	-2.569999e+000	-2.570001e+000	1.087216e-009	-1.087216e-009	-9.077913e-002	9.077913e-002	-9.335222e-012	9.335228e-012	-1.077865e-009	3.734089e-002	-3.734089e-002	3.734089e-002	5.345082e-002	-1.258443e-005	1.258443e-005	9.335453e-012	-9.335284e-012	9.079172e-002
1.006986204287087e-003	-7.355785e-002	-6.644201e-002	-5.000000e+000	-4.282151e+000	-7.178488e-001	-2.503557e+000	-2.496443e+000	-2.499999e+000	-2.500001e+000	-2.570001e+000	-2.569999e+000	1.035659e-009	-1.035659e-009	-8.647612e-002	8.647612e-002	-8.892968e-012	8.892975e-012	-1.026734e-009	3.557188e-002	-3.557188e-002	3.557188e-002	5.091860e-002	-1.435698e-005	1.435698e-005	8.893166e-012	-8.892886e-012	8.649048e-002
1.008986204287087e-003	-7.322884e-002	-6.677103e-002	-5.000000e+000	-4.117300e+000	-8.827002e-001	-2.503228e+000	-2.496772e+000	-2.499999e+000	-2.500001e+000	-2.570001e+000	-2.569999e+000	9.397922e-010	-9.397922e-010	-7.847235e-002	7.847235e-002	-8.070356e-012	8.070364e-012	-9.317489e-010	3.228143e-002	-3.228143e-002	3.228143e-002	4.620856e-002	-1.765400e-005	1.765400e-005	8.070766e-012	-8.070376e-012	7.849000e-002
1.010986204287087e-003	-7.293034e-002	-6.706953e-002	-5.000000e+000	-3.967706e+000	-1.032294e+000	-2.502930e+000	-2.497070e+000	-2.499999e+000	-2.500001e+000	-2.570001e+000	-2.569999e+000	8.527650e-010	-8.527650e-010	-7.120936e-002	7.120936e-002	-7.323881e-012	7.323889e-012	-8.454890e-010	2.929554e-002	-2.929553e-002	2.929553e-002	4.193446e-002	-2.064588e-005	2.064588e-005	7.323911e-012	-7.323520e-012	7.122999e-002
1.012986204287087e-003	-7.265925e-002	-6.734061e-002	-5.000000e+000	-3.831958e+000	-1.168042e+000	-2.502659e+000	-2.497341e+000	-2.499999e+000	-2.500001e+000	-2.570001e+000	-2.569999e+000	7.738663e-010	-7.738663e-010	-6.461859e-002	6.461859e-002	-6.646495e-012	6.646504e-012	-7.672440e-010	2.658600e-002	-2.658599e-002	2.658599e-002	3.805595e-002	-2.336083e-005	2.336083e-005	6.646464e-012	-6.646295e-012	6.464195e-002
1.015986204287087e-003	-7.229757e-002	-6.770229e-002	-5.000000e+000	-3.651526e+000	-1.348474e+000	-2.502298e+000	-2.497702e+000	-2.500001e+000	-2.499999e+000	-2.569999e+000	-2.570001e+000	6.689334e-010	-6.689334e-010	-5.585834e-002	5.585834e-002	-5.746136e-012	5.746146e-012	-6.632206e-010	2.298456e-002	-2.298456e-002	2.298456e-002	3.290075e-002	-2.696947e-005	2.696947e-005	5.746340e-012	-5.746061e-012	5.588531e-002
1.018986204287086e-003	-7.198763e-002	-6.801224e-002	-5.000000e+000	-3.495555e+000	-1.504445e+000	-2.501987e+000	-2.498013e+000	-2.499999e+000	-2.500001e+000	-2.570001e+000	-2.569999e+000	5.782397e-010	-5.782397e-010	-4.828572e-002	4.828572e-002	-4.967837e-012	4.967847e-012	-5.733227e-010	1.987137e-002	-1.987137e-002	1.987137e-002	2.844444e-002	-3.008889e-005	3.008889e-005	4.968286e-012	-4.968006e-012	4.831580e-002
1.021986204287086e-003	-7.171726e-002	-6.828260e-002	-5.000000e+000	-3.360729e+000	-1.639271e+000	-2.501718e+000	-2.498282e+000	-2.500001e+000	-2.499999e+000	-2.569999e+000	-2.570001e+000	4.998526e-010	-4.998526e-010	-4.173969e-002	4.173969e-002	-4.295050e-012	4.295062e-012	-4.955609e-010	1.718022e-002	-1.718022e-002	1.718022e-002	2.459226e-002	-3.278542e-005	3.278542e-005	4.295266e-012	-4.294987e-012	4.177248e-002
1.024986204287086e-003	-7.148600e-002	-6.851387e-002	-5.000000e+000	-3.244181e+000	-1.755819e+000	-2.501485e+000	-2.498515e+000	-2.499999e+000	-2.500001e+000	-2.570001e+000	-2.569999e+000	4.320952e-010	-4.320952e-010	-3.608111e-002	3.608111e-002	-3.713473e-012	3.713485e-012	-4.284288e-010	1.485391e-002	-1.485391e-002	1.485391e-002	2.126231e-002	-3.511638e-005	3.511638e-005	3.713578e-012	-3.713410e-012	3.611623e-002
1.027986204287086e-003	-7.128358e-002	-6.871629e-002	-5.000000e+000	-3.143433e+000	-1.856567e+000	-2.501284e+000	-2.498716e+000	-2.500001e+000	-2.499999e+000	-2.569999e+000	-2.570001e+000	3.735465e-010	-3.735465e-010	-3.118965e-002	3.118965e-002	-3.210739e-012	3.210752e-012	-3.703065e-010	1.284298e-002	-1.284298e-002	1.284298e-002	1.838380e-002	-3.713134e-005	3.713134e-005	3.210811e-012	-3.210754e-012	3.122678e-002
1.030986204287085e-003	-7.111120e-002	-6.888866e-002	-5.000000e+000	-3.056344e+000	-1.943656e+000	-2.501111e+000	-2.498889e+000	-2.499999e+000	-2.500001e+000	-2.570001e+000	-2.569999e+000	3.228990e-010	-3.228990e-010	-2.696132e-002	2.696132e-002	-2.776159e-012	2.776173e-012	-3.201137e-010	1.110466e-002	-1.110466e-002	1.110466e-002	1.589553e-002	-3.887313e-005	3.887313e-005	2.776084e-012	-2.776027e-012	2.700019e-002
1.033986204287085e-003	-7.095933e-002	-6.904054e-002	-5.000000e+000	-2.981061e+000	-2.018939e+000	-2.500960e+000	-2.499040e+000	-2.500001e+000	-2.499999e+000	-2.569999e+000	-2.570001e+000	2.791296e-010	-2.791296e-010	-2.330621e-002	2.330621e-002	-2.400495e-012	2.400509e-012	-2.767422e-010	9.602007e-003	-9.602007e-003	9.602007e-003	1.374459e-002	-4.037879e-005	4.037879e-005	2.400509e-012	-2.400119e-012	2.334659e-002
1.036986204287085e-003	-7.083082e-002	-6.916904e-002	-5.000000e+000	-2.915984e+000	-2.084016e+000	-2.500830e+000	-2.499170e+000	-2.499999e+000	-2.500001e+000	-2.570001e+000	-2.569999e+000	2.413003e-010	-2.413003e-010	-2.014663e-002	2.014663e-002	-2.075759e-012	2.075774e-012	-2.391971e-010	8.303065e-003	-8.303065e-003	8.303065e-003	1.188524e-002	-4.168033e-005	4.168033e-005	2.076112e-012	-2.075722e-012	2.018831e-002
1.039986204287085e-003	-7.071733e-002	-6.928253e-002	-5.000000e+000	-2.859729e+000	-2.140271e+000	-2.500718e+000	-2.499282e+000	-2.500001e+000	-2.499999e+000	-2.569999e+000	-2.570001e+000	2.085301e-010	-2.085301e-010	-1.741538e-002	1.741538e-002	-1.795046e-012	1.795063e-012	-2.067679e-010	7.180218e-003	-7.180218e-003	7.180218e-003	1.027797e-002	-4.280542e-005	4.280542e-005	1.795144e-012	-1.795087e-012	1.745819e-002
1.042986204287084e-003	-7.062149e-002	-6.937838e-002	-5.000000e+000	-2.811100e+000	-2.188900e+000	-2.500621e+000	-2.499379e+000	-2.499999e+000	-2.500001e+000	-2.570001e+000	-2.569999e+000	1.803073e-010	-1.802505e-010	-1.505440e-002	1.505440e-002	-1.552390e-012	1.552407e-012	-1.787441e-010	6.209593e-003	-6.209593e-003	6.209593e-003	8.888589e-003	-4.377799e-005	4.377799e-005	1.552797e-012	-1.552519e-012	1.509818e-002
1.045986204287084e-003	-7.053638e-002	-6.946349e-002	-5.000000e+000	-2.769065e+000	-2.230935e+000	-2.500537e+000	-2.499463e+000	-2.500001e+000	-2.499999e+000	-2.569999e+000	-2.570001e+000	1.558647e-010	-1.558647e-010	-1.301350e-002	1.301350e-002	-1.342630e-012	1.342648e-012	-1.545004e-010	5.370555e-003	-5.370555e-003	5.370555e-003	7.687566e-003	-4.461870e-005	4.461870e-005	1.342340e-012	-1.342062e-012	1.305812e-002
1.048986204287084e-003	-7.046509e-002	-6.953478e-002	-5.000000e+000	-2.732728e+000	-2.267272e+000	-2.500464e+000	-2.499536e+000	-2.499999e+000	-2.500001e+000	-2.570001e+000	-2.569999e+000	1.347189e-010	-1.347189e-010	-1.124928e-002	1.124928e-002	-1.161307e-012	1.161326e-012	-1.335820e-010	4.645264e-003	-4.645264e-003	4.645264e-003	6.649364e-003	-4.534544e-005	4.534544e-005	1.161147e-012	-1.161091e-012	1.129463e-002
1.051986204287084e-003	-7.040119e-002	-6.959867e-002	-5.000000e+000	-2.701317e+000	-2.298683e+000	-2.500402e+000	-2.499598e+000	-2.500001e+000	-2.499999e+000	-2.569999e+000	-2.570001e+000	1.164153e-010	-1.164153e-010	-9.724234e-003	9.724234e-003	-1.004565e-012	1.004585e-012	-1.154774e-010	4.018299e-003	-4.018299e-003	4.018299e-003	5.751909e-003	-4.597366e-005	4.597366e-005	1.004534e-012	-1.004478e-012	9.770208e-003
1.054986204287083e-003	-7.034826e-002	-6.965160e-002	-5.000000e+000	-2.674164e+000	-2.325836e+000	-2.500348e+000	-2.499652e+000	-2.499999e+000	-2.500001e+000	-2.570001e+000	-2.569999e+000	1.006697e-010	-1.006697e-010	-8.405935e-003	8.405935e-003	-8.690726e-013	8.690934e-013	-9.978862e-011	3.476331e-003	-3.476331e-003	3.476331e-003	4.976120e-003	-4.651671e-005	4.651671e-005	8.689453e-013	-8.688891e-013	8.452452e-003
1.057986204287083e-003	-7.030010e-002	-6.969976e-002	-5.000000e+000	-2.650693e+000	-2.349307e+000	-2.500301e+000	-2.499699e+000	-2.500001e+000	-2.499999e+000	-2.569999e+000	-2.570001e+000	8.699885e-011	-8.699885e-011	-7.266356e-003	7.266356e-003	-7.519486e-013	7.519703e-013	-8.628831e-011	3.007837e-003	-3.007837e-003	3.007837e-003	4.305504e-003	-4.698615e-005	4.698615e-005	7.522054e-013	-7.520382e-013	7.313342e-003
1.060986204287083e-003	-7.026100e-002	-6.973886e-002	-5.000000e+000	-2.630403e+000	-2.369597e+000	-2.500260e+000	-2.499740e+000	-2.499999e+000	-2.500001e+000	-2.570001e+000	-2.569999e+000	7.526069e-011	-7.526069e-011	-6.281267e-003	6.281267e-003	-6.507029e-013	6.507254e-013	-7.457857e-011	2.602856e-003	-2.602856e-003	2.602856e-003	3.725803e-003	-4.739194e-005	4.739194e-005	6.508555e-013	-6.506884e-013	6.328659e-003
1.063986204287083e-003	-7.022452e-002	-6.977534e-002	-5.000000e+000	-2.612864e+000	-2.387136e+000	-2.500225e+000	-2.499775e+000	-2.500001e+000	-2.499999e+000	-2.569999e+000	-2.570001e+000	6.502887e-011	-6.502887e-011	-5.429726e-003	5.429726e-003	-5.631829e-013	5.632062e-013	-6.448886e-011	2.252778e-003	-2.252778e-003	2.252778e-003	3.224690e-003	-4.774272e-005	4.774272e-005	5.631521e-013	-5.632071e-013	5.477468e-003
1.066986204287082e-003	-7.019567e-002	-6.980419e-002	-5.000000e+000	-2.597703e+000	-2.402297e+000	-2.500195e+000	-2.499805e+000	-2.499999e+000	-2.500001e+000	-2.570001e+000	-2.569999e+000	5.621814e-011	-5.621814e-011	-4.693626e-003	4.693626e-003	-4.875277e-013	4.875519e-013	-5.573497e-011	1.950159e-003	-1.950159e-003	1.950159e-003	2.791513e-003	-4.804594e-005	4.804594e-005	4.877011e-013	-4.874232e-013	4.741672e-003
1.069986204287082e-003	-7.016802e-002	-6.983185e-002	-5.000000e+000	-2.584597e+000	-2.415403e+000	-2.500169e+000	-2.499831e+000	-2.500001e+000	-2.499999e+000	-2.569999e+000	-2.570001e+000	4.860112e-011	-4.860112e-011	-4.057318e-003	4.057318e-003	-4.221289e-013	4.221540e-013	-4.817480e-011	1.688566e-003	-1.688566e-003	1.688566e-003	2.417061e-003	-4.830806e-005	4.830806e-005	4.220643e-013	-4.220085e-013	4.105627e-003
1.072986204287082e-003	-7.014704e-002	-6.985283e-002	-5.000000e+000	-2.573268e+000	-2.426732e+000	-2.500146e+000	-2.499854e+000	-2.499999e+000	-2.500001e+000	-2.570001e+000	-2.569999e+000	4.203571e-011	-4.203571e-011	-3.507274e-003	3.507274e-003	-3.655961e-013	3.656220e-013	-4.160938e-011	1.462436e-003	-1.462436e-003	1.462436e-003	2.093373e-003	-4.853464e-005	4.853464e-005	3.653751e-013	-3.654305e-013	3.555809e-003
