time	V(N008,N005)	V(N009,N004)	V(n001)	V(n002)	V(n003)	V(n004)	V(n005)	V(n006)	V(n007)	V(n008)	V(n009)	I(C1)	I(C2)	I(C3)	I(C4)	I(R1)	I(R2)	I(R3)	I(R4)	I(R5)	I(R6)	I(R7)	I(R8)	I(R9)	I(V1)	I(V2)	I(V3)
0.000000000000000e+000	-7.000000e-002	-7.000000e-002	0.000000e+000	-2.100000e-020	-2.100000e-020	-2.102100e-020	-2.102100e-020	-2.102100e-020	-2.102100e-020	-7.000000e-002	-7.000000e-002	4.200000e-025	4.200000e-025	2.100000e-038	2.100000e-038	-4.361351e-036	-4.361351e-036	0.000000e+000	-3.009266e-036	4.200000e-025	4.200000e-025	0.000000e+000	4.200000e-025	4.200000e-025	-1.261169e-043	-1.261169e-043	-4.200000e-025
1.000000000000000e-003	-7.000000e-002	-7.000000e-002	0.000000e+000	-7.919646e-017	-7.919646e-017	-1.309967e-015	-1.309967e-015	-9.565618e-012	-9.565618e-012	-7.000000e-002	-7.000000e-002	2.459170e-017	2.459170e-017	2.461404e-017	2.461404e-017	2.391077e-020	2.391077e-020	0.000000e+000	1.972152e-031	2.461541e-017	2.461541e-017	-1.144553e-032	1.583929e-021	1.583929e-021	-2.391077e-020	-2.391077e-020	-2.461562e-017
1.000000100000000e-003	-7.241274e-002	-6.758723e-002	-5.000000e-001	-4.999984e-001	-1.612581e-006	-2.524271e-001	-2.475729e-001	-2.500143e-001	-2.499857e-001	-3.199857e-001	-3.200143e-001	-9.724383e-005	9.724383e-005	-1.209424e-002	1.209424e-002	-6.043417e-012	6.043417e-012	9.724384e-005	4.854182e-003	-4.951426e-003	4.951426e-003	7.142811e-003	-3.225162e-011	3.225162e-011	6.043404e-012	-6.043405e-012	1.209424e-002
1.000000300000000e-003	-7.733679e-002	-6.266320e-002	-1.500000e+000	-1.499993e+000	-6.967809e-006	-7.573521e-001	-7.426479e-001	-7.500153e-001	-7.499847e-001	-8.199847e-001	-8.200153e-001	-1.485577e-004	1.485577e-004	-3.628119e-002	3.628119e-002	-1.834319e-011	1.834319e-011	1.485577e-004	1.470426e-002	-1.485282e-002	1.485282e-002	2.142837e-002	-1.393562e-010	1.393562e-010	1.834332e-011	-1.834338e-011	3.628119e-002
1.000000906677515e-003	-9.235406e-002	-4.764581e-002	-4.533388e+000	-4.533336e+000	-5.116746e-005	-2.289063e+000	-2.244325e+000	-2.266708e+000	-2.266679e+000	-2.336679e+000	-2.336708e+000	-1.483251e-004	1.483251e-004	-1.096467e-001	1.096467e-001	-5.588436e-011	5.588436e-011	1.483251e-004	4.473716e-002	-4.488548e-002	4.488548e-002	6.476121e-002	-1.023349e-009	1.023349e-009	5.588332e-011	-5.588431e-011	1.096467e-001
1.000001000000000e-003	-9.466171e-002	-4.533839e-002	-5.000000e+000	-4.999939e+000	-6.107186e-005	-2.524677e+000	-2.475323e+000	-2.500015e+000	-2.499985e+000	-2.569985e+000	-2.570015e+000	-1.517392e-004	1.517392e-004	-1.209321e-001	1.209321e-001	-6.165395e-011	6.165395e-011	1.517393e-004	4.935350e-002	-4.950524e-002	4.950524e-002	7.142682e-002	-1.221437e-009	1.221437e-009	6.165213e-011	-6.165357e-011	1.209321e-001
1.000001009885910e-003	-9.471440e-002	-4.528546e-002	-5.000000e+000	-4.999938e+000	-6.226738e-005	-2.524719e+000	-2.475281e+000	-2.500004e+000	-2.499996e+000	-2.569996e+000	-2.570004e+000	-6.755667e-005	6.755667e-005	-1.209312e-001	1.209312e-001	-6.177915e-011	6.177915e-011	6.755674e-005	4.943683e-002	-4.950439e-002	4.950439e-002	7.142679e-002	-1.245348e-009	1.245348e-009	6.177821e-011	-6.178014e-011	1.209312e-001
1.000001029657729e-003	-9.475064e-002	-4.524922e-002	-5.000000e+000	-4.999935e+000	-6.465839e-005	-2.524749e+000	-2.475251e+000	-2.499998e+000	-2.500002e+000	-2.570002e+000	-2.569998e+000	-6.151164e-006	6.151164e-006	-1.209305e-001	1.209305e-001	-6.187044e-011	6.187044e-011	6.151226e-006	4.949758e-002	-4.950373e-002	4.950373e-002	7.142673e-002	-1.293168e-009	1.293168e-009	6.186910e-011	-6.186984e-011	1.209305e-001
1.000001069201366e-003	-9.475136e-002	-4.524875e-002	-5.000000e+000	-4.999930e+000	-6.944041e-005	-2.524753e+000	-2.475247e+000	-2.500001e+000	-2.499999e+000	-2.569999e+000	-2.570001e+000	1.572059e-006	-1.572059e-006	-1.209301e-001	1.209301e-001	-6.188181e-011	6.188181e-011	-1.571997e-006	4.950513e-002	-4.950356e-002	4.950356e-002	7.142659e-002	-1.388808e-009	1.388808e-009	6.188009e-011	-6.188065e-011	1.209302e-001
1.000001148288642e-003	-9.475255e-002	-4.524755e-002	-5.000000e+000	-4.999921e+000	-7.900442e-005	-2.524751e+000	-2.475249e+000	-2.499999e+000	-2.500001e+000	-2.570001e+000	-2.569999e+000	-5.232320e-007	5.232320e-007	-1.209297e-001	1.209297e-001	-6.187845e-011	6.187845e-011	5.232938e-007	4.950287e-002	-4.950339e-002	4.950339e-002	7.142632e-002	-1.580088e-009	1.580088e-009	6.187713e-011	-6.187883e-011	1.209297e-001
1.000001295717714e-003	-9.475064e-002	-4.524922e-002	-5.000000e+000	-4.999903e+000	-9.683286e-005	-2.524752e+000	-2.475248e+000	-2.500001e+000	-2.499999e+000	-2.569999e+000	-2.570001e+000	2.659463e-007	-2.659463e-007	-1.209288e-001	1.209288e-001	-6.187919e-011	6.187919e-011	-2.658844e-007	4.950330e-002	-4.950303e-002	4.950303e-002	7.142580e-002	-1.936657e-009	1.936657e-009	6.187856e-011	-6.187851e-011	1.209288e-001
1.000001590575857e-003	-9.475207e-002	-4.524779e-002	-5.000000e+000	-4.999867e+000	-1.324893e-004	-2.524751e+000	-2.475249e+000	-2.499999e+000	-2.500001e+000	-2.570001e+000	-2.569999e+000	-1.116479e-007	1.116479e-007	-1.209271e-001	1.209271e-001	-6.187775e-011	6.187775e-011	1.117097e-007	4.950222e-002	-4.950233e-002	4.950233e-002	7.142479e-002	-2.649785e-009	2.649785e-009	6.187759e-011	-6.187624e-011	1.209271e-001
1.000002180292143e-003	-9.474945e-002	-4.525042e-002	-5.000000e+000	-4.999796e+000	-2.038002e-004	-2.524750e+000	-2.475250e+000	-2.500001e+000	-2.499999e+000	-2.569999e+000	-2.570001e+000	6.413075e-008	-6.413075e-008	-1.209237e-001	1.209237e-001	-6.187624e-011	6.187624e-011	-6.406890e-008	4.950098e-002	-4.950091e-002	4.950091e-002	7.142275e-002	-4.076004e-009	4.076004e-009	6.187621e-011	-6.187689e-011	1.209237e-001
1.000003359724715e-003	-9.474993e-002	-4.524994e-002	-5.000000e+000	-4.999654e+000	-3.464143e-004	-2.524749e+000	-2.475251e+000	-2.499999e+000	-2.500001e+000	-2.570001e+000	-2.569999e+000	-2.069297e-008	2.069297e-008	-1.209168e-001	1.209168e-001	-6.187258e-011	6.187258e-011	2.075482e-008	4.949807e-002	-4.949809e-002	4.949809e-002	7.141867e-002	-6.928287e-009	6.928287e-009	6.187286e-011	-6.187480e-011	1.209168e-001
1.000005718589859e-003	-9.474516e-002	-4.525471e-002	-5.000000e+000	-4.999368e+000	-6.316122e-004	-2.524746e+000	-2.475254e+000	-2.500001e+000	-2.499999e+000	-2.569999e+000	-2.570001e+000	2.097340e-008	-2.097340e-008	-1.209030e-001	1.209030e-001	-6.186559e-011	6.186559e-011	-2.091156e-008	4.949246e-002	-4.949244e-002	4.949244e-002	7.141052e-002	-1.263224e-008	1.263224e-008	6.186592e-011	-6.186749e-011	1.209030e-001
1.000010436320146e-003	-9.474134e-002	-4.525852e-002	-5.000000e+000	-4.998798e+000	-1.201886e-003	-2.524740e+000	-2.475260e+000	-2.499999e+000	-2.500001e+000	-2.570001e+000	-2.569999e+000	3.218096e-010	-3.218096e-010	-1.208754e-001	1.208754e-001	-6.185144e-011	6.185144e-011	-2.599639e-010	4.948115e-002	-4.948115e-002	4.948115e-002	7.139423e-002	-2.403772e-008	2.403772e-008	6.185117e-011	-6.185264e-011	1.208754e-001
1.000019871780722e-003	-9.472823e-002	-4.527164e-002	-5.000000e+000	-4.997658e+000	-2.341945e-003	-2.524729e+000	-2.475271e+000	-2.500001e+000	-2.499999e+000	-2.569999e+000	-2.570001e+000	1.059804e-008	-1.059804e-008	-1.208202e-001	1.208202e-001	-6.182323e-011	6.182323e-011	-1.053619e-008	4.945859e-002	-4.945857e-002	4.945857e-002	7.136166e-002	-4.683890e-008	4.683890e-008	6.182173e-011	-6.182327e-011	1.208202e-001
1.000038742701873e-003	-9.470749e-002	-4.529238e-002	-5.000000e+000	-4.995380e+000	-4.620113e-003	-2.524707e+000	-2.475293e+000	-2.499999e+000	-2.500001e+000	-2.570001e+000	-2.569999e+000	5.463031e-009	-5.463031e-009	-1.207099e-001	1.207099e-001	-6.176683e-011	6.176683e-011	-5.401186e-009	4.941347e-002	-4.941346e-002	4.941346e-002	7.129657e-002	-9.240226e-008	9.240226e-008	6.176561e-011	-6.176596e-011	1.207100e-001
1.000076484544176e-003	-9.466100e-002	-4.533911e-002	-5.000000e+000	-4.990831e+000	-9.168660e-003	-2.524662e+000	-2.475338e+000	-2.500001e+000	-2.499999e+000	-2.569999e+000	-2.570001e+000	8.011436e-009	-8.011436e-009	-1.204898e-001	1.204898e-001	-6.165425e-011	6.165425e-011	-7.949590e-009	4.932340e-002	-4.932339e-002	4.932339e-002	7.116661e-002	-1.833732e-007	1.833732e-007	6.165468e-011	-6.165428e-011	1.204900e-001
1.000151968228781e-003	-9.457278e-002	-4.542708e-002	-5.000000e+000	-4.981765e+000	-1.823471e-002	-2.524572e+000	-2.475428e+000	-2.499999e+000	-2.500001e+000	-2.570001e+000	-2.569999e+000	6.705401e-009	-6.705401e-009	-1.200511e-001	1.200511e-001	-6.142985e-011	6.142985e-011	-6.643707e-009	4.914387e-002	-4.914387e-002	4.914387e-002	7.090758e-002	-3.646942e-007	3.646942e-007	6.142962e-011	-6.143058e-011	1.200514e-001
1.000302935597991e-003	-9.439278e-002	-4.560733e-002	-5.000000e+000	-4.963757e+000	-3.624346e-002	-2.524394e+000	-2.475606e+000	-2.500001e+000	-2.499999e+000	-2.569999e+000	-2.570001e+000	7.293389e-009	-7.293389e-009	-1.191796e-001	1.191796e-001	-6.098409e-011	6.098409e-011	-7.232302e-009	4.878727e-002	-4.878726e-002	4.878726e-002	7.039304e-002	-7.248692e-007	7.248692e-007	6.098249e-011	-6.098386e-011	1.191803e-001
1.000604870336410e-003	-9.404278e-002	-4.595709e-002	-5.000000e+000	-4.928226e+000	-7.177423e-002	-2.524042e+000	-2.475958e+000	-2.499999e+000	-2.500001e+000	-2.570001e+000	-2.569999e+000	6.871232e-009	-6.871232e-009	-1.174601e-001	1.174601e-001	-6.010461e-011	6.010461e-011	-6.811206e-009	4.808369e-002	-4.808368e-002	4.808368e-002	6.937788e-002	-1.435485e-006	1.435485e-006	6.010457e-011	-6.010468e-011	1.174616e-001
1.001208739813249e-003	-9.335470e-002	-4.664540e-002	-5.000000e+000	-4.858893e+000	-1.411074e-001	-2.523355e+000	-2.476645e+000	-2.500001e+000	-2.499999e+000	-2.569999e+000	-2.570001e+000	6.820617e-009	-6.820617e-009	-1.141049e-001	1.141049e-001	-5.838844e-011	5.838844e-011	-6.762355e-009	4.671075e-002	-4.671074e-002	4.671074e-002	6.739693e-002	-2.822149e-006	2.822149e-006	5.838953e-011	-5.839001e-011	1.141077e-001
1.002208739813249e-003	-9.225845e-002	-4.774141e-002	-5.000000e+000	-4.748013e+000	-2.519877e-001	-2.522258e+000	-2.477742e+000	-2.499999e+000	-2.500001e+000	-2.570001e+000	-2.569999e+000	6.459686e-009	-6.459686e-009	-1.087390e-001	1.087390e-001	-5.564388e-011	5.564388e-011	-6.404207e-009	4.451510e-002	-4.451510e-002	4.451510e-002	6.422892e-002	-5.039754e-006	5.039754e-006	5.564472e-011	-5.564511e-011	1.087440e-001
1.003208739813249e-003	-9.120560e-002	-4.879451e-002	-5.000000e+000	-4.641842e+000	-3.581577e-001	-2.521206e+000	-2.478794e+000	-2.500001e+000	-2.499999e+000	-2.569999e+000	-2.570001e+000	6.154551e-009	-6.154551e-009	-1.036011e-001	1.036011e-001	-5.301591e-011	5.301591e-011	-6.101573e-009	4.241272e-002	-4.241272e-002	4.241272e-002	6.119549e-002	-7.163154e-006	7.163154e-006	5.301688e-011	-5.301560e-011	1.036082e-001
1.004208739813249e-003	-9.020567e-002	-4.979420e-002	-5.000000e+000	-4.540689e+000	-4.593112e-001	-2.520205e+000	-2.479795e+000	-2.499999e+000	-2.500001e+000	-2.570001e+000	-2.569999e+000	5.863740e-009	-5.863740e-009	-9.870589e-002	9.870589e-002	-5.051211e-011	5.051211e-011	-5.813035e-009	4.040968e-002	-4.040968e-002	4.040968e-002	5.830539e-002	-9.186224e-006	9.186224e-006	5.051307e-011	-5.051090e-011	9.871507e-002
1.005208739813249e-003	-8.924985e-002	-5.075026e-002	-5.000000e+000	-4.444315e+000	-5.556851e-001	-2.519251e+000	-2.480749e+000	-2.500001e+000	-2.499999e+000	-2.569999e+000	-2.570001e+000	5.586571e-009	-5.586571e-009	-9.404203e-002	9.404203e-002	-4.812661e-011	4.812661e-011	-5.538368e-009	3.850129e-002	-3.850129e-002	3.850129e-002	5.555185e-002	-1.111370e-005	1.111370e-005	4.812704e-011	-4.812576e-011	9.405314e-002
1.006208739813249e-003	-8.834243e-002	-5.165744e-002	-5.000000e+000	-4.352494e+000	-6.475054e-001	-2.518342e+000	-2.481658e+000	-2.499999e+000	-2.500001e+000	-2.570001e+000	-2.569999e+000	5.322590e-009	-5.322590e-009	-8.959853e-002	8.959853e-002	-4.585383e-011	4.585383e-011	-5.276888e-009	3.668307e-002	-3.668306e-002	3.668306e-002	5.292842e-002	-1.295011e-005	1.295011e-005	4.585454e-011	-4.585414e-011	8.961148e-002
1.007208739813249e-003	-8.747458e-002	-5.252552e-002	-5.000000e+000	-4.265013e+000	-7.349871e-001	-2.517475e+000	-2.482525e+000	-2.500001e+000	-2.499999e+000	-2.569999e+000	-2.570001e+000	5.071115e-009	-5.071115e-009	-8.536499e-002	8.536499e-002	-4.368845e-011	4.368845e-011	-5.027687e-009	3.495076e-002	-3.495075e-002	3.495075e-002	5.042894e-002	-1.469974e-005	1.469974e-005	4.369001e-011	-4.368918e-011	8.537969e-002
1.009208739813249e-003	-8.586311e-002	-5.413699e-002	-5.000000e+000	-4.102254e+000	-8.977454e-001	-2.515864e+000	-2.484136e+000	-2.500001e+000	-2.499999e+000	-2.569999e+000	-2.570001e+000	4.603180e-009	-4.603180e-009	-7.748856e-002	7.748856e-002	-3.965977e-011	3.965978e-011	-4.563617e-009	3.172782e-002	-3.172781e-002	3.172781e-002	4.577870e-002	-1.795491e-005	1.795491e-005	3.966097e-011	-3.966013e-011	7.750651e-002
1.011208739813248e-003	-8.440042e-002	-5.559969e-002	-5.000000e+000	-3.954514e+000	-1.045486e+000	-2.514401e+000	-2.485599e+000	-2.500001e+000	-2.499999e+000	-2.569999e+000	-2.570001e+000	4.178446e-009	-4.178446e-009	-7.033888e-002	7.033888e-002	-3.600282e-011	3.600282e-011	-4.142748e-009	2.880226e-002	-2.880225e-002	2.880225e-002	4.155754e-002	-2.090973e-005	2.090973e-005	3.600341e-011	-3.600212e-011	7.035978e-002
1.013208739813248e-003	-8.307266e-002	-5.692744e-002	-5.000000e+000	-3.820405e+000	-1.179596e+000	-2.513073e+000	-2.486927e+000	-2.500001e+000	-2.499999e+000	-2.569999e+000	-2.570001e+000	3.793275e-009	-3.793275e-009	-6.384887e-002	6.384887e-002	-3.268328e-011	3.268328e-011	-3.760533e-009	2.614663e-002	-2.614662e-002	2.614662e-002	3.772584e-002	-2.359191e-005	2.359191e-005	3.268481e-011	-3.268353e-011	6.387246e-002
1.016208739813248e-003	-8.130860e-002	-5.869150e-002	-5.000000e+000	-3.642081e+000	-1.357919e+000	-2.511308e+000	-2.488692e+000	-2.499999e+000	-2.500001e+000	-2.570001e+000	-2.569999e+000	3.280093e-009	-3.280093e-009	-5.521918e-002	5.521918e-002	-2.826933e-011	2.826933e-011	-3.252126e-009	2.261546e-002	-2.261546e-002	2.261546e-002	3.263088e-002	-2.715838e-005	2.715838e-005	2.827079e-011	-2.827084e-011	5.524634e-002
1.019208739813248e-003	-7.978010e-002	-6.022000e-002	-5.000000e+000	-3.487859e+000	-1.512141e+000	-2.509781e+000	-2.490219e+000	-2.500001e+000	-2.499999e+000	-2.569999e+000	-2.570001e+000	2.836941e-009	-2.836941e-009	-4.775586e-002	4.775586e-002	-2.445195e-011	2.445196e-011	-2.812612e-009	1.956156e-002	-1.956156e-002	1.956156e-002	2.822454e-002	-3.024282e-005	3.024282e-005	2.445370e-011	-2.445198e-011	4.778610e-002
1.022208739813248e-003	-7.846117e-002	-6.153893e-002	-5.000000e+000	-3.354481e+000	-1.645519e+000	-2.508460e+000	-2.491540e+000	-2.499999e+000	-2.500001e+000	-2.570001e+000	-2.569999e+000	2.453817e-009	-2.453817e-009	-4.130127e-002	4.130127e-002	-2.115053e-011	2.115054e-011	-2.432216e-009	1.692042e-002	-1.692042e-002	1.692042e-002	2.441375e-002	-3.291037e-005	3.291037e-005	2.115199e-011	-2.115115e-011	4.133418e-002
1.025208739813247e-003	-7.731724e-002	-6.268287e-002	-5.000000e+000	-3.239131e+000	-1.760869e+000	-2.507318e+000	-2.492682e+000	-2.500001e+000	-2.499999e+000	-2.569999e+000	-2.570001e+000	2.122079e-009	-2.122079e-009	-3.571907e-002	3.571907e-002	-1.829532e-011	1.829533e-011	-2.103889e-009	1.463626e-002	-1.463626e-002	1.463626e-002	2.111803e-002	-3.521738e-005	3.521738e-005	1.829629e-011	-1.829589e-011	3.575429e-002
1.028208739813247e-003	-7.633138e-002	-6.366873e-002	-5.000000e+000	-3.139371e+000	-1.860629e+000	-2.506330e+000	-2.493670e+000	-2.499999e+000	-2.500001e+000	-2.570001e+000	-2.569999e+000	1.835133e-009	-1.835133e-009	-3.089134e-002	3.089134e-002	-1.582601e-011	1.582602e-011	-1.819444e-009	1.266081e-002	-1.266081e-002	1.266081e-002	1.826775e-002	-3.721258e-005	3.721258e-005	1.582672e-011	-1.582722e-011	3.092856e-002
1.031208739813247e-003	-7.547545e-002	-6.452465e-002	-5.000000e+000	-3.053095e+000	-1.946905e+000	-2.505476e+000	-2.494524e+000	-2.500001e+000	-2.499999e+000	-2.569999e+000	-2.570001e+000	1.587068e-009	-1.587068e-009	-2.671613e-002	2.671613e-002	-1.369046e-011	1.369047e-011	-1.573426e-009	1.095237e-002	-1.095237e-002	1.095237e-002	1.580270e-002	-3.893811e-005	3.893811e-005	1.368938e-011	-1.368898e-011	2.675507e-002
1.034208739813247e-003	-7.473826e-002	-6.526184e-002	-5.000000e+000	-2.978479e+000	-2.021521e+000	-2.504737e+000	-2.495263e+000	-2.499999e+000	-2.500001e+000	-2.570001e+000	-2.569999e+000	1.372655e-009	-1.372655e-009	-2.310523e-002	2.310523e-002	-1.184353e-011	1.184355e-011	-1.361059e-009	9.474833e-003	-9.474831e-003	9.474831e-003	1.367083e-002	-4.043042e-005	4.043042e-005	1.184385e-011	-1.184479e-011	2.314566e-002
1.037208739813246e-003	-7.409763e-002	-6.590247e-002	-5.000000e+000	-2.913948e+000	-2.086052e+000	-2.504098e+000	-2.495902e+000	-2.500001e+000	-2.499999e+000	-2.569999e+000	-2.570001e+000	1.187118e-009	-1.187118e-009	-1.998237e-002	1.998237e-002	-1.024624e-011	1.024625e-011	-1.176659e-009	8.196997e-003	-8.196996e-003	8.196996e-003	1.182709e-002	-4.172104e-005	4.172104e-005	1.024666e-011	-1.024627e-011	2.002409e-002
1.040208739813246e-003	-7.354689e-002	-6.645322e-002	-5.000000e+000	-2.858140e+000	-2.141860e+000	-2.503546e+000	-2.496454e+000	-2.499999e+000	-2.500001e+000	-2.570001e+000	-2.569999e+000	1.026365e-009	-1.026365e-009	-1.728159e-002	1.728159e-002	-8.864833e-012	8.864847e-012	-1.017952e-009	7.091872e-003	-7.091871e-003	7.091871e-003	1.023256e-002	-4.283721e-005	4.283721e-005	8.864394e-012	-8.863557e-012	1.732443e-002
1.043208739813246e-003	-7.306719e-002	-6.693292e-002	-5.000000e+000	-2.809874e+000	-2.190126e+000	-2.503068e+000	-2.496932e+000	-2.500001e+000	-2.499999e+000	-2.569999e+000	-2.570001e+000	8.878942e-010	-8.878942e-010	-1.494584e-002	1.494584e-002	-7.670134e-012	7.670149e-012	-8.801635e-010	6.136113e-003	-6.136112e-003	6.136112e-003	8.853533e-003	-4.380253e-005	4.380253e-005	7.669196e-012	-7.669692e-012	1.498965e-002
1.046208739813246e-003	-7.265568e-002	-6.734443e-002	-5.000000e+000	-2.768131e+000	-2.231869e+000	-2.502655e+000	-2.497345e+000	-2.499999e+000	-2.500001e+000	-2.570001e+000	-2.569999e+000	7.678409e-010	-7.678409e-010	-1.292579e-002	1.292579e-002	-6.636908e-012	6.636925e-012	-7.612471e-010	5.309533e-003	-5.309532e-003	5.309532e-003	7.660897e-003	-4.463737e-005	4.463737e-005	6.635994e-012	-6.636490e-012	1.297043e-002
1.049208739813245e-003	-7.229662e-002	-6.770349e-002	-5.000000e+000	-2.732031e+000	-2.267969e+000	-2.502297e+000	-2.497703e+000	-2.500001e+000	-2.499999e+000	-2.569999e+000	-2.570001e+000	6.641585e-010	-6.641585e-010	-1.117877e-002	1.117877e-002	-5.743331e-012	5.743349e-012	-6.582468e-010	4.594672e-003	-4.594671e-003	4.594671e-003	6.629454e-003	-4.535938e-005	4.535938e-005	5.743980e-012	-5.744476e-012	1.122413e-002
1.052208739813245e-003	-7.198906e-002	-6.801105e-002	-5.000000e+000	-2.700809e+000	-2.299191e+000	-2.501988e+000	-2.498012e+000	-2.499999e+000	-2.500001e+000	-2.570001e+000	-2.569999e+000	5.743459e-010	-5.743459e-010	-9.667865e-003	9.667865e-003	-4.970528e-012	4.970547e-012	-5.693437e-010	3.976430e-003	-3.976429e-003	3.976429e-003	5.737419e-003	-4.598380e-005	4.598380e-005	4.971577e-012	-4.972073e-012	9.713849e-003
1.055208739813245e-003	-7.172012e-002	-6.827998e-002	-5.000000e+000	-2.673808e+000	-2.326192e+000	-2.501721e+000	-2.498279e+000	-2.500001e+000	-2.499999e+000	-2.569999e+000	-2.570001e+000	4.970389e-010	-4.970389e-010	-8.361175e-003	8.361175e-003	-4.302176e-012	4.302195e-012	-4.924914e-010	3.441748e-003	-3.441748e-003	3.441748e-003	4.965951e-003	-4.652383e-005	4.652383e-005	4.303190e-012	-4.302798e-012	8.407699e-003
1.058208739813245e-003	-7.149053e-002	-6.850958e-002	-5.000000e+000	-2.650456e+000	-2.349544e+000	-2.501490e+000	-2.498510e+000	-2.499999e+000	-2.500001e+000	-2.570001e+000	-2.569999e+000	4.295089e-010	-4.295089e-010	-7.231094e-003	7.231094e-003	-3.724157e-012	3.724177e-012	-4.258709e-010	2.979334e-003	-2.979333e-003	2.979333e-003	4.298752e-003	-4.699087e-005	4.699087e-005	3.724674e-012	-3.724282e-012	7.278085e-003
