time	V(N008,N005)	V(N009,N004)	V(n001)	V(n002)	V(n003)	V(n004)	V(n005)	V(n006)	V(n007)	V(n008)	V(n009)	I(C1)	I(C2)	I(C3)	I(C4)	I(R1)	I(R2)	I(R3)	I(R4)	I(R5)	I(R6)	I(R7)	I(R8)	I(R9)	I(V1)	I(V2)	I(V3)
0.000000000000000e+000	-7.000000e-002	-7.000000e-002	0.000000e+000	-2.100000e-020	-2.100000e-020	-2.102100e-020	-2.102100e-020	-2.102100e-020	-2.102100e-020	-7.000000e-002	-7.000000e-002	4.200000e-025	4.200000e-025	2.100000e-038	2.100000e-038	2.536958e-037	2.536958e-037	0.000000e+000	0.000000e+000	4.200000e-025	4.200000e-025	0.000000e+000	4.200000e-025	4.200000e-025	-1.261169e-043	-1.261169e-043	-4.200000e-025
1.000000000000000e-003	-7.000000e-002	-7.000000e-002	0.000000e+000	-8.268006e-015	-8.268006e-015	-8.234877e-015	-8.234877e-015	-1.151710e-009	-1.151710e-009	-7.000000e-002	-7.000000e-002	-3.541868e-018	-3.541868e-018	-8.281634e-019	-8.281634e-019	2.879255e-018	2.879255e-018	0.000000e+000	1.577722e-030	-6.625915e-019	-6.625915e-019	4.056999e-031	1.653601e-019	1.653601e-019	-2.879255e-018	-2.879255e-018	6.628033e-019
1.000000100000000e-003	-7.235759e-002	-6.764242e-002	-5.000000e-001	-4.999984e-001	-1.612579e-006	-2.524277e-001	-2.475723e-001	-2.500701e-001	-2.499299e-001	-3.199299e-001	-3.200701e-001	-9.606300e-005	9.606300e-005	-1.209422e-002	1.209422e-002	-5.949107e-012	5.949113e-012	9.606301e-005	4.855351e-003	-4.951414e-003	4.951414e-003	7.142811e-003	-3.225157e-011	3.225157e-011	5.949128e-012	-5.949108e-012	1.209422e-002
1.000000300000000e-003	-7.727408e-002	-6.272584e-002	-1.500000e+000	-1.499993e+000	-6.967808e-006	-7.573521e-001	-7.426479e-001	-7.500780e-001	-7.499220e-001	-8.199220e-001	-8.200780e-001	-1.486155e-004	1.486155e-004	-3.628119e-002	3.628119e-002	-1.819448e-011	1.819449e-011	1.486155e-004	1.470420e-002	-1.485282e-002	1.485282e-002	2.142837e-002	-1.393562e-010	1.393562e-010	1.819452e-011	-1.819439e-011	3.628119e-002
1.000000906678666e-003	-9.229684e-002	-4.770303e-002	-4.533393e+000	-4.533342e+000	-5.116758e-005	-2.289065e+000	-2.244328e+000	-2.266768e+000	-2.266625e+000	-2.336625e+000	-2.336768e+000	-1.481226e-004	1.481226e-004	-1.096468e-001	1.096468e-001	-5.573661e-011	5.573662e-011	1.481226e-004	4.473741e-002	-4.488553e-002	4.488553e-002	6.476130e-002	-1.023352e-009	1.023352e-009	5.573683e-011	-5.573675e-011	1.096468e-001
1.000001000000000e-003	-9.460020e-002	-4.539990e-002	-5.000000e+000	-4.999939e+000	-6.107186e-005	-2.524676e+000	-2.475324e+000	-2.500076e+000	-2.499924e+000	-2.569924e+000	-2.570076e+000	-1.523784e-004	1.523784e-004	-1.209321e-001	1.209321e-001	-6.150061e-011	6.150062e-011	1.523785e-004	4.935287e-002	-4.950525e-002	4.950525e-002	7.142682e-002	-1.221437e-009	1.221437e-009	6.150080e-011	-6.150108e-011	1.209321e-001
1.000001010306496e-003	-9.468603e-002	-4.531384e-002	-5.000000e+000	-4.999938e+000	-6.231823e-005	-2.524714e+000	-2.475286e+000	-2.500028e+000	-2.499972e+000	-2.569972e+000	-2.570028e+000	-7.625364e-005	7.625364e-005	-1.209313e-001	1.209313e-001	-6.168995e-011	6.168996e-011	7.625370e-005	4.942822e-002	-4.950447e-002	4.950447e-002	7.142679e-002	-1.246365e-009	1.246365e-009	6.169010e-011	-6.169052e-011	1.209313e-001
1.000001030919489e-003	-9.475327e-002	-4.524684e-002	-5.000000e+000	-4.999935e+000	-6.481098e-005	-2.524746e+000	-2.475254e+000	-2.499993e+000	-2.500007e+000	-2.570008e+000	-2.569993e+000	-1.254613e-005	1.254613e-005	-1.209305e-001	1.209305e-001	-6.184837e-011	6.184837e-011	1.254619e-005	4.949125e-002	-4.950379e-002	4.950379e-002	7.142672e-002	-1.296220e-009	1.296220e-009	6.184838e-011	-6.184882e-011	1.209305e-001
1.000001072145474e-003	-9.474850e-002	-4.525137e-002	-5.000000e+000	-4.999930e+000	-6.979644e-005	-2.524753e+000	-2.475247e+000	-2.500004e+000	-2.499996e+000	-2.569996e+000	-2.570004e+000	1.890831e-006	-1.890831e-006	-1.209301e-001	1.209301e-001	-6.188416e-011	6.188416e-011	-1.890769e-006	4.950544e-002	-4.950355e-002	4.950355e-002	7.142658e-002	-1.395929e-009	1.395929e-009	6.188416e-011	-6.188428e-011	1.209301e-001
1.000001154597445e-003	-9.475446e-002	-4.524541e-002	-5.000000e+000	-4.999920e+000	-7.976734e-005	-2.524751e+000	-2.475249e+000	-2.499997e+000	-2.500003e+000	-2.570003e+000	-2.569997e+000	-3.636669e-007	3.636669e-007	-1.209297e-001	1.209297e-001	-6.187831e-011	6.187831e-011	3.637288e-007	4.950301e-002	-4.950337e-002	4.950337e-002	7.142629e-002	-1.595347e-009	1.595347e-009	6.187841e-011	-6.187826e-011	1.209297e-001
1.000001270972199e-003	-9.474921e-002	-4.525089e-002	-5.000000e+000	-4.999906e+000	-9.384044e-005	-2.524752e+000	-2.475248e+000	-2.500002e+000	-2.499998e+000	-2.569998e+000	-2.570003e+000	3.061725e-007	-3.061725e-007	-1.209290e-001	1.209290e-001	-6.187963e-011	6.187963e-011	-3.061107e-007	4.950339e-002	-4.950309e-002	4.950309e-002	7.142589e-002	-1.876809e-009	1.876809e-009	6.187990e-011	-6.187963e-011	1.209290e-001
1.000001503721707e-003	-9.475350e-002	-4.524660e-002	-5.000000e+000	-4.999878e+000	-1.219863e-004	-2.524751e+000	-2.475249e+000	-2.499998e+000	-2.500002e+000	-2.570002e+000	-2.569998e+000	-1.175307e-007	1.175307e-007	-1.209276e-001	1.209276e-001	-6.187787e-011	6.187788e-011	1.175925e-007	4.950242e-002	-4.950254e-002	4.950254e-002	7.142509e-002	-2.439726e-009	2.439726e-009	6.187837e-011	-6.187802e-011	1.209276e-001
1.000001969220723e-003	-9.474850e-002	-4.525137e-002	-5.000000e+000	-4.999822e+000	-1.782769e-004	-2.524751e+000	-2.475249e+000	-2.500002e+000	-2.499998e+000	-2.569998e+000	-2.570002e+000	6.416758e-008	-6.416758e-008	-1.209249e-001	1.209249e-001	-6.187693e-011	6.187694e-011	-6.410573e-008	4.950148e-002	-4.950142e-002	4.950142e-002	7.142348e-002	-3.565538e-009	3.565538e-009	6.187738e-011	-6.187713e-011	1.209249e-001
1.000002900218755e-003	-9.475160e-002	-4.524851e-002	-5.000000e+000	-4.999709e+000	-2.908533e-004	-2.524750e+000	-2.475250e+000	-2.499998e+000	-2.500002e+000	-2.570002e+000	-2.569998e+000	-2.005580e-008	2.005580e-008	-1.209194e-001	1.209194e-001	-6.187394e-011	6.187394e-011	2.011764e-008	4.949917e-002	-4.949919e-002	4.949919e-002	7.142026e-002	-5.817066e-009	5.817066e-009	6.187439e-011	-6.187423e-011	1.209195e-001
1.000004762214819e-003	-9.474540e-002	-4.525471e-002	-5.000000e+000	-4.999484e+000	-5.159871e-004	-2.524747e+000	-2.475253e+000	-2.500002e+000	-2.499998e+000	-2.569998e+000	-2.570002e+000	2.049986e-008	-2.049986e-008	-1.209086e-001	1.209086e-001	-6.186846e-011	6.186847e-011	-2.043801e-008	4.949475e-002	-4.949473e-002	4.949473e-002	7.141383e-002	-1.031974e-008	1.031974e-008	6.186895e-011	-6.186872e-011	1.209086e-001
1.000008486206947e-003	-9.474492e-002	-4.525518e-002	-5.000000e+000	-4.999034e+000	-9.661786e-004	-2.524743e+000	-2.475257e+000	-2.499998e+000	-2.500002e+000	-2.570002e+000	-2.569998e+000	5.971590e-010	-5.971590e-010	-1.208868e-001	1.208868e-001	-6.185727e-011	6.185728e-011	-5.353134e-010	4.948582e-002	-4.948582e-002	4.948582e-002	7.140096e-002	-1.932357e-008	1.932357e-008	6.185754e-011	-6.185724e-011	1.208868e-001
1.000015934191203e-003	-9.473205e-002	-4.526806e-002	-5.000000e+000	-4.998134e+000	-1.866258e-003	-2.524734e+000	-2.475266e+000	-2.500002e+000	-2.499998e+000	-2.569998e+000	-2.570002e+000	1.045252e-008	-1.045252e-008	-1.208432e-001	1.208432e-001	-6.183502e-011	6.183502e-011	-1.039067e-008	4.946800e-002	-4.946800e-002	4.946800e-002	7.137525e-002	-3.732515e-008	3.732515e-008	6.183512e-011	-6.183501e-011	1.208432e-001
1.000030830159715e-003	-9.471822e-002	-4.528189e-002	-5.000000e+000	-4.996335e+000	-3.665200e-003	-2.524716e+000	-2.475284e+000	-2.499998e+000	-2.500002e+000	-2.570002e+000	-2.569998e+000	5.541475e-009	-5.541475e-009	-1.207561e-001	1.207561e-001	-6.179048e-011	6.179048e-011	-5.479630e-009	4.943238e-002	-4.943237e-002	4.943237e-002	7.132385e-002	-7.330399e-008	7.330399e-008	6.179043e-011	-6.179042e-011	1.207562e-001
1.000060622096740e-003	-9.467864e-002	-4.532146e-002	-5.000000e+000	-4.992742e+000	-7.258227e-003	-2.524681e+000	-2.475319e+000	-2.500002e+000	-2.499998e+000	-2.569998e+000	-2.570002e+000	7.978390e-009	-7.978390e-009	-1.205823e-001	1.205823e-001	-6.170155e-011	6.170155e-011	-7.916621e-009	4.936123e-002	-4.936122e-002	4.936122e-002	7.122120e-002	-1.451645e-007	1.451645e-007	6.170133e-011	-6.170119e-011	1.205824e-001
1.000120205970788e-003	-9.461164e-002	-4.538846e-002	-5.000000e+000	-4.985575e+000	-1.442491e-002	-2.524610e+000	-2.475390e+000	-2.499998e+000	-2.500002e+000	-2.570002e+000	-2.569998e+000	6.735566e-009	-6.735566e-009	-1.202355e-001	1.202355e-001	-6.152415e-011	6.152415e-011	-6.674024e-009	4.921931e-002	-4.921931e-002	4.921931e-002	7.101643e-002	-2.884982e-007	2.884982e-007	6.152393e-011	-6.152369e-011	1.202357e-001
1.000239373718885e-003	-9.446645e-002	-4.553366e-002	-5.000000e+000	-4.971319e+000	-2.868120e-002	-2.524468e+000	-2.475532e+000	-2.500002e+000	-2.499998e+000	-2.569998e+000	-2.570002e+000	7.305289e-009	-7.305289e-009	-1.195455e-001	1.195455e-001	-6.117127e-011	6.117128e-011	-7.244049e-009	4.893701e-002	-4.893701e-002	4.893701e-002	7.060911e-002	-5.736239e-007	5.736239e-007	6.117142e-011	-6.117096e-011	1.195461e-001
1.000477709215079e-003	-9.419131e-002	-4.580879e-002	-5.000000e+000	-4.943111e+000	-5.688876e-002	-2.524189e+000	-2.475811e+000	-2.499998e+000	-2.500002e+000	-2.570002e+000	-2.569998e+000	6.918830e-009	-6.918830e-009	-1.181805e-001	1.181805e-001	-6.047306e-011	6.047307e-011	-6.858272e-009	4.837845e-002	-4.837844e-002	4.837844e-002	6.980318e-002	-1.137775e-006	1.137775e-006	6.047342e-011	-6.047297e-011	1.181816e-001
1.000954380207467e-003	-9.364057e-002	-4.635954e-002	-5.000000e+000	-4.887890e+000	-1.121096e-001	-2.523643e+000	-2.476357e+000	-2.500002e+000	-2.499998e+000	-2.569998e+000	-2.570002e+000	6.912690e-009	-6.912690e-009	-1.155082e-001	1.155082e-001	-5.910621e-011	5.910622e-011	-6.853573e-009	4.728496e-002	-4.728496e-002	4.728496e-002	6.822544e-002	-2.242193e-006	2.242193e-006	5.910638e-011	-5.910612e-011	1.155104e-001
1.001907722192243e-003	-9.258533e-002	-4.741478e-002	-5.000000e+000	-4.780926e+000	-2.190739e-001	-2.522583e+000	-2.477417e+000	-2.499998e+000	-2.500002e+000	-2.570002e+000	-2.569998e+000	6.552008e-009	-6.552008e-009	-1.103318e-001	1.103318e-001	-5.645858e-011	5.645859e-011	-6.495587e-009	4.516686e-002	-4.516685e-002	4.516685e-002	6.516932e-002	-4.381478e-006	4.381478e-006	5.645879e-011	-5.645853e-011	1.103362e-001
1.002907722192243e-003	-9.151530e-002	-4.848480e-002	-5.000000e+000	-4.673262e+000	-3.267383e-001	-2.521517e+000	-2.478483e+000	-2.500002e+000	-2.499998e+000	-2.569998e+000	-2.570002e+000	6.244818e-009	-6.244818e-009	-1.051215e-001	1.051215e-001	-5.379362e-011	5.379362e-011	-6.191158e-009	4.303489e-002	-4.303488e-002	4.303488e-002	6.209319e-002	-6.534767e-006	6.534767e-006	5.379363e-011	-5.379341e-011	1.051281e-001
1.003907722192243e-003	-9.050322e-002	-4.949689e-002	-5.000000e+000	-4.570623e+000	-4.293764e-001	-2.520501e+000	-2.479499e+000	-2.499998e+000	-2.500002e+000	-2.570002e+000	-2.569998e+000	5.949687e-009	-5.949687e-009	-1.001545e-001	1.001545e-001	-5.125307e-011	5.125308e-011	-5.898642e-009	4.100245e-002	-4.100245e-002	4.100245e-002	5.916067e-002	-8.587527e-006	8.587527e-006	5.125279e-011	-5.125261e-011	1.001631e-001
1.004907722192243e-003	-8.953094e-002	-5.046916e-002	-5.000000e+000	-4.472835e+000	-5.271648e-001	-2.519533e+000	-2.480467e+000	-2.500002e+000	-2.499998e+000	-2.569998e+000	-2.570002e+000	5.668539e-009	-5.668539e-009	-9.542222e-002	9.542222e-002	-4.883257e-011	4.883257e-011	-5.619881e-009	3.906605e-002	-3.906605e-002	3.906605e-002	5.636672e-002	-1.054330e-005	1.054330e-005	4.883218e-011	-4.883201e-011	9.543277e-002
1.005907722192243e-003	-8.861256e-002	-5.138755e-002	-5.000000e+000	-4.379667e+000	-6.203326e-001	-2.518610e+000	-2.481390e+000	-2.499998e+000	-2.500002e+000	-2.570002e+000	-2.569998e+000	5.400693e-009	-5.400693e-009	-9.091351e-002	9.091351e-002	-4.652643e-011	4.652644e-011	-5.354309e-009	3.722114e-002	-3.722113e-002	3.722113e-002	5.370478e-002	-1.240665e-005	1.240665e-005	4.652624e-011	-4.652596e-011	9.092592e-002
1.006907722192243e-003	-8.772969e-002	-5.227041e-002	-5.000000e+000	-4.290902e+000	-7.090983e-001	-2.517732e+000	-2.482268e+000	-2.500002e+000	-2.499998e+000	-2.569998e+000	-2.570002e+000	5.145580e-009	-5.145580e-009	-8.661783e-002	8.661783e-002	-4.432926e-011	4.432927e-011	-5.101356e-009	3.546341e-002	-3.546340e-002	3.546340e-002	5.116862e-002	-1.418197e-005	1.418197e-005	4.432948e-011	-4.432909e-011	8.663202e-002
1.007907722192243e-003	-8.689642e-002	-5.310369e-002	-5.000000e+000	-4.206330e+000	-7.936698e-001	-2.516894e+000	-2.483106e+000	-2.499998e+000	-2.500002e+000	-2.570002e+000	-2.569998e+000	4.902518e-009	-4.902518e-009	-8.252513e-002	8.252513e-002	-4.223591e-011	4.223591e-011	-4.860340e-009	3.378872e-002	-3.378872e-002	3.378872e-002	4.875229e-002	-1.587339e-005	1.587339e-005	4.223635e-011	-4.223607e-011	8.254101e-002
1.009907722192242e-003	-8.533859e-002	-5.466151e-002	-5.000000e+000	-4.048986e+000	-9.510136e-001	-2.515337e+000	-2.484663e+000	-2.499998e+000	-2.500002e+000	-2.570002e+000	-2.569998e+000	4.450158e-009	-4.450158e-009	-7.491074e-002	7.491074e-002	-3.834126e-011	3.834126e-011	-4.411845e-009	3.067300e-002	-3.067300e-002	3.067300e-002	4.425676e-002	-1.902027e-005	1.902027e-005	3.834141e-011	-3.834101e-011	7.492976e-002
1.011907722192242e-003	-8.392453e-002	-5.607557e-002	-5.000000e+000	-3.906160e+000	-1.093840e+000	-2.513922e+000	-2.486078e+000	-2.499998e+000	-2.500002e+000	-2.570002e+000	-2.569998e+000	4.039521e-009	-4.039521e-009	-6.799890e-002	6.799890e-002	-3.480596e-011	3.480597e-011	-4.004846e-009	2.784477e-002	-2.784476e-002	2.784476e-002	4.017601e-002	-2.187679e-005	2.187679e-005	3.480619e-011	-3.480590e-011	6.802078e-002
1.013907722192242e-003	-8.264089e-002	-5.735922e-002	-5.000000e+000	-3.776513e+000	-1.223487e+000	-2.512639e+000	-2.487361e+000	-2.499998e+000	-2.500002e+000	-2.570002e+000	-2.569998e+000	3.666628e-009	-3.666628e-009	-6.172480e-002	6.172480e-002	-3.159685e-011	3.159686e-011	-3.635250e-009	2.527748e-002	-2.527748e-002	2.527748e-002	3.647179e-002	-2.446975e-005	2.446975e-005	3.159675e-011	-3.159680e-011	6.174927e-002
1.016907722192242e-003	-8.092999e-002	-5.907011e-002	-5.000000e+000	-3.604121e+000	-1.395879e+000	-2.510932e+000	-2.489068e+000	-2.500002e+000	-2.499998e+000	-2.569998e+000	-2.570002e+000	3.171067e-009	-3.171067e-009	-5.338219e-002	5.338219e-002	-2.732974e-011	2.732975e-011	-3.143782e-009	2.186379e-002	-2.186379e-002	2.186379e-002	3.154632e-002	-2.791757e-005	2.791757e-005	2.732979e-011	-2.732951e-011	5.341011e-002
1.019907722192242e-003	-7.945776e-002	-6.054235e-002	-5.000000e+000	-3.455030e+000	-1.544970e+000	-2.509456e+000	-2.490544e+000	-2.499998e+000	-2.500002e+000	-2.570002e+000	-2.569998e+000	2.742581e-009	-2.742581e-009	-4.616716e-002	4.616716e-002	-2.363936e-011	2.363937e-011	-2.718934e-009	1.891149e-002	-1.891148e-002	1.891148e-002	2.728657e-002	-3.089940e-005	3.089940e-005	2.363928e-011	-2.363889e-011	4.619806e-002
1.022907722192241e-003	-7.817721e-002	-6.182289e-002	-5.000000e+000	-3.326090e+000	-1.673910e+000	-2.508179e+000	-2.491821e+000	-2.500002e+000	-2.499998e+000	-2.569998e+000	-2.570002e+000	2.371962e-009	-2.371962e-009	-3.992729e-002	3.992729e-002	-2.044776e-011	2.044777e-011	-2.351499e-009	1.635821e-002	-1.635821e-002	1.635821e-002	2.360256e-002	-3.347821e-005	3.347821e-005	2.044748e-011	-2.044753e-011	3.996077e-002
1.025907722192241e-003	-7.707715e-002	-6.292295e-002	-5.000000e+000	-3.214576e+000	-1.785424e+000	-2.507075e+000	-2.492925e+000	-2.499998e+000	-2.500002e+000	-2.570002e+000	-2.569998e+000	2.051365e-009	-2.051365e-009	-3.453080e-002	3.453080e-002	-1.768754e-011	1.768755e-011	-2.033630e-009	1.415003e-002	-1.415003e-002	1.415003e-002	2.041647e-002	-3.570847e-005	3.570847e-005	1.768760e-011	-1.768743e-011	3.456650e-002
1.028907722192241e-003	-7.611823e-002	-6.388187e-002	-5.000000e+000	-3.118135e+000	-1.881865e+000	-2.506120e+000	-2.493880e+000	-2.500002e+000	-2.499998e+000	-2.569998e+000	-2.570002e+000	1.774197e-009	-1.774197e-009	-2.986368e-002	2.986368e-002	-1.530038e-011	1.530039e-011	-1.758735e-009	1.224031e-002	-1.224030e-002	1.224030e-002	1.766101e-002	-3.763729e-005	3.763729e-005	1.530026e-011	-1.530020e-011	2.990131e-002
1.031907722192241e-003	-7.529640e-002	-6.470370e-002	-5.000000e+000	-3.034729e+000	-1.965271e+000	-2.505294e+000	-2.494706e+000	-2.499998e+000	-2.500002e+000	-2.570002e+000	-2.569998e+000	1.534318e-009	-1.534318e-009	-2.582736e-002	2.582736e-002	-1.323586e-011	1.323588e-011	-1.521130e-009	1.058869e-002	-1.058869e-002	1.058869e-002	1.527797e-002	-3.930542e-005	3.930542e-005	1.323579e-011	-1.323573e-011	2.586666e-002
1.034907722192240e-003	-7.457829e-002	-6.542182e-002	-5.000000e+000	-2.962596e+000	-2.037404e+000	-2.504580e+000	-2.495420e+000	-2.500002e+000	-2.499998e+000	-2.569998e+000	-2.570002e+000	1.326953e-009	-1.326953e-009	-2.233658e-002	2.233658e-002	-1.145038e-011	1.145040e-011	-1.315584e-009	9.160312e-003	-9.160311e-003	9.160311e-003	1.321702e-002	-4.074808e-005	4.074808e-005	1.145023e-011	-1.145017e-011	2.237733e-002
1.037907722192240e-003	-7.396460e-002	-6.603551e-002	-5.000000e+000	-2.900212e+000	-2.099788e+000	-2.503963e+000	-2.496037e+000	-2.499998e+000	-2.500002e+000	-2.570002e+000	-2.569998e+000	1.147555e-009	-1.147555e-009	-1.931761e-002	1.931761e-002	-9.906227e-012	9.906243e-012	-1.137550e-009	7.924987e-003	-7.924985e-003	7.924985e-003	1.143462e-002	-4.199577e-005	4.199577e-005	9.906046e-012	-9.905876e-012	1.935961e-002
1.040907722192240e-003	-7.342649e-002	-6.657362e-002	-5.000000e+000	-2.846260e+000	-2.153740e+000	-2.503428e+000	-2.496572e+000	-2.500002e+000	-2.499998e+000	-2.569998e+000	-2.570002e+000	9.923724e-010	-9.923724e-010	-1.670668e-002	1.670668e-002	-8.570775e-012	8.570792e-012	-9.840733e-010	6.856626e-003	-6.856625e-003	6.856625e-003	9.893131e-003	-4.307481e-005	4.307481e-005	8.570877e-012	-8.570485e-012	1.674975e-002
1.043907722192240e-003	-7.296848e-002	-6.703162e-002	-5.000000e+000	-2.799599e+000	-2.200401e+000	-2.502966e+000	-2.497034e+000	-2.499998e+000	-2.500002e+000	-2.570002e+000	-2.569998e+000	8.583356e-010	-8.583356e-010	-1.444864e-002	1.444864e-002	-7.415821e-012	7.415839e-012	-8.509460e-010	5.932663e-003	-5.932662e-003	5.932662e-003	8.559983e-003	-4.400801e-005	4.400801e-005	7.415784e-012	-7.415725e-012	1.449265e-002
1.046907722192239e-003	-7.256484e-002	-6.743526e-002	-5.000000e+000	-2.759246e+000	-2.240754e+000	-2.502567e+000	-2.497433e+000	-2.500002e+000	-2.499998e+000	-2.569998e+000	-2.570002e+000	7.423751e-010	-7.423751e-010	-1.249579e-002	1.249579e-002	-6.416967e-012	6.416986e-012	-7.358949e-010	5.133580e-003	-5.133579e-003	5.133579e-003	7.407022e-003	-4.481509e-005	4.481509e-005	6.417193e-012	-6.416912e-012	1.254060e-002
1.049907722192239e-003	-7.222342e-002	-6.777668e-002	-5.000000e+000	-2.724346e+000	-2.275654e+000	-2.502221e+000	-2.497779e+000	-2.499998e+000	-2.500002e+000	-2.570002e+000	-2.569998e+000	6.419896e-010	-6.419896e-010	-1.080688e-002	1.080688e-002	-5.553117e-012	5.553137e-012	-6.364189e-010	4.442501e-003	-4.442500e-003	4.442500e-003	6.409893e-003	-4.551308e-005	4.551308e-005	5.553091e-012	-5.553143e-012	1.085239e-002
1.052907722192239e-003	-7.192039e-002	-6.807971e-002	-5.000000e+000	-2.694164e+000	-2.305836e+000	-2.501922e+000	-2.498078e+000	-2.500002e+000	-2.499998e+000	-2.569998e+000	-2.570002e+000	5.552465e-010	-5.552465e-010	-9.346242e-003	9.346242e-003	-4.806023e-012	4.806044e-012	-5.503580e-010	3.844826e-003	-3.844825e-003	3.844825e-003	5.547534e-003	-4.611673e-005	4.611673e-005	4.806200e-012	-4.806031e-012	9.392359e-003
1.055907722192239e-003	-7.166600e-002	-6.833410e-002	-5.000000e+000	-2.668061e+000	-2.331939e+000	-2.501664e+000	-2.498336e+000	-2.499998e+000	-2.500002e+000	-2.570002e+000	-2.569998e+000	4.802132e-010	-4.802132e-010	-8.083021e-003	8.083021e-003	-4.159905e-012	4.159926e-012	-4.758931e-010	3.327932e-003	-3.327931e-003	3.327931e-003	4.801729e-003	-4.663879e-005	4.663879e-005	4.160027e-012	-4.159636e-012	8.129661e-003
