time	V(N008,N005)	V(N009,N004)	V(n001)	V(n002)	V(n003)	V(n004)	V(n005)	V(n006)	V(n007)	V(n008)	V(n009)	I(C1)	I(C2)	I(C3)	I(C4)	I(R1)	I(R2)	I(R3)	I(R4)	I(R5)	I(R6)	I(R7)	I(R8)	I(R9)	I(V1)	I(V2)	I(V3)
0.000000000000000e+000	-7.000000e-002	-7.000000e-002	0.000000e+000	-2.100000e-020	-2.100000e-020	-2.104200e-020	-2.104200e-020	-2.104200e-020	-2.104200e-020	-7.000000e-002	-7.000000e-002	4.200000e-025	4.200000e-025	2.100000e-038	2.100000e-038	-4.365708e-036	-4.365708e-036	0.000000e+000	0.000000e+000	4.200000e-025	4.200000e-025	0.000000e+000	4.200000e-025	4.200000e-025	-1.261169e-043	-1.261169e-043	-4.200000e-025
1.000000000000000e-003	-7.000000e-002	-7.000000e-002	0.000000e+000	-7.923817e-017	-7.923817e-017	-2.628320e-015	-2.628320e-015	-9.566937e-012	-9.566937e-012	-7.000000e-002	-7.000000e-002	2.546689e-017	2.546689e-017	2.548924e-017	2.548924e-017	2.391077e-020	2.391077e-020	0.000000e+000	0.000000e+000	2.549082e-017	2.549082e-017	1.408680e-033	1.584763e-021	1.584763e-021	-2.391077e-020	-2.391077e-020	-2.549082e-017
1.000000100000000e-003	-7.024729e-002	-6.975272e-002	-5.000000e-001	-4.999987e-001	-1.285377e-006	-2.502488e-001	-2.497512e-001	-2.500015e-001	-2.499985e-001	-3.199985e-001	-3.200015e-001	-9.930051e-006	9.930051e-006	-9.640319e-003	9.640320e-003	-6.194099e-013	6.194099e-013	9.930051e-006	2.487570e-003	-2.497500e-003	2.497500e-003	7.142820e-003	-2.570753e-011	2.570753e-011	6.193428e-013	-6.195658e-013	9.640319e-003
1.000000300000000e-003	-7.074624e-002	-6.925380e-002	-1.500000e+000	-1.499994e+000	-5.554116e-006	-7.507477e-001	-7.492523e-001	-7.500015e-001	-7.499985e-001	-8.199985e-001	-8.200015e-001	-1.498546e-005	1.498546e-005	-2.892088e-002	2.892088e-002	-1.865624e-012	1.865624e-012	1.498546e-005	7.477481e-003	-7.492467e-003	7.492467e-003	2.142841e-002	-1.110823e-010	1.110823e-010	1.865132e-012	-1.865977e-012	2.892088e-002
1.000000906659477e-003	-7.226133e-002	-6.773853e-002	-4.533298e+000	-4.533257e+000	-4.078637e-005	-2.268912e+000	-2.264386e+000	-2.266650e+000	-2.266647e+000	-2.336647e+000	-2.336650e+000	-1.498172e-005	1.498172e-005	-8.740368e-002	8.740368e-002	-5.653372e-012	5.653372e-012	1.498173e-005	2.262847e-002	-2.264345e-002	2.264345e-002	6.476022e-002	-8.157274e-010	8.157274e-010	5.652741e-012	-5.653450e-012	8.740368e-002
1.000001000000000e-003	-7.249451e-002	-6.750560e-002	-5.000000e+000	-4.999951e+000	-4.868318e-005	-2.502496e+000	-2.497504e+000	-2.500001e+000	-2.499999e+000	-2.569999e+000	-2.570002e+000	-1.513662e-005	1.513662e-005	-9.640174e-002	9.640174e-002	-6.236070e-012	6.236070e-012	1.513663e-005	2.495942e-002	-2.497455e-002	2.497455e-002	7.142718e-002	-9.736636e-010	9.736636e-010	6.235346e-012	-6.236067e-012	9.640174e-002
1.000001060585351e-003	-7.249689e-002	-6.750298e-002	-5.000000e+000	-4.999946e+000	-5.452369e-005	-2.502497e+000	-2.497503e+000	-2.500000e+000	-2.500000e+000	-2.570000e+000	-2.570000e+000	-5.145008e-006	5.145008e-006	-9.640150e-002	9.640150e-002	-6.241049e-012	6.241049e-012	5.145015e-006	2.496934e-002	-2.497448e-002	2.497448e-002	7.142701e-002	-1.090474e-009	1.090474e-009	6.240244e-012	-6.241905e-012	9.640150e-002
1.000001181756052e-003	-7.249737e-002	-6.750250e-002	-5.000000e+000	-4.999934e+000	-6.620467e-005	-2.502497e+000	-2.497503e+000	-2.500000e+000	-2.500000e+000	-2.570000e+000	-2.570000e+000	-2.302343e-009	2.302339e-009	-9.640104e-002	9.640104e-002	-6.243590e-012	6.243590e-012	2.308577e-009	2.497436e-002	-2.497436e-002	2.497436e-002	7.142668e-002	-1.324094e-009	1.324094e-009	6.241944e-012	-6.244042e-012	9.640104e-002
1.000001424097454e-003	-7.249737e-002	-6.750250e-002	-5.000000e+000	-4.999910e+000	-8.956645e-005	-2.502497e+000	-2.497503e+000	-2.500000e+000	-2.500000e+000	-2.570000e+000	-2.570000e+000	1.968800e-009	-1.968814e-009	-9.640014e-002	9.640014e-002	-6.243533e-012	6.243533e-012	-1.962576e-009	2.497413e-002	-2.497413e-002	2.497413e-002	7.142601e-002	-1.791329e-009	1.791329e-009	6.241462e-012	-6.242926e-012	9.640014e-002
1.000001908780258e-003	-7.249737e-002	-6.750250e-002	-5.000000e+000	-4.999864e+000	-1.362892e-004	-2.502497e+000	-2.497503e+000	-2.500000e+000	-2.500000e+000	-2.570000e+000	-2.570000e+000	-1.057430e-010	1.057335e-010	-9.639834e-002	9.639834e-002	-6.243416e-012	6.243416e-012	1.119721e-010	2.497366e-002	-2.497366e-002	2.497366e-002	7.142468e-002	-2.725784e-009	2.725784e-009	6.242012e-012	-6.242144e-012	9.639834e-002
1.000019495842012e-003	-7.249566e-002	-6.750420e-002	-5.000000e+000	-4.998169e+000	-1.830916e-003	-2.502496e+000	-2.497504e+000	-2.500000e+000	-2.500000e+000	-2.570000e+000	-2.570000e+000	3.214890e-010	-3.214925e-010	-9.633296e-002	9.633296e-002	-6.239184e-012	6.239184e-012	-3.152508e-010	2.495673e-002	-2.495673e-002	2.495673e-002	7.137626e-002	-3.661831e-008	3.661831e-008	6.238559e-012	-6.238699e-012	9.633299e-002
1.000037082903766e-003	-7.249396e-002	-6.750590e-002	-5.000000e+000	-4.996476e+000	-3.524109e-003	-2.502494e+000	-2.497506e+000	-2.500000e+000	-2.500000e+000	-2.570000e+000	-2.570000e+000	6.389804e-010	-6.389795e-010	-9.626763e-002	9.626763e-002	-6.234955e-012	6.234955e-012	-6.327363e-010	2.493982e-002	-2.493982e-002	2.493982e-002	7.132789e-002	-7.048219e-008	7.048219e-008	6.234822e-012	-6.234998e-012	9.626770e-002
1.000054669965521e-003	-7.249226e-002	-6.750761e-002	-5.000000e+000	-4.994784e+000	-5.215870e-003	-2.502492e+000	-2.497508e+000	-2.500000e+000	-2.500000e+000	-2.570000e+000	-2.570000e+000	8.467312e-010	-8.467274e-010	-9.620236e-002	9.620236e-002	-6.230730e-012	6.230730e-012	-8.404845e-010	2.492292e-002	-2.492292e-002	2.492292e-002	7.127955e-002	-1.043174e-007	1.043174e-007	6.230800e-012	-6.231042e-012	9.620246e-002
1.000072257027275e-003	-7.249056e-002	-6.750931e-002	-5.000000e+000	-4.993094e+000	-6.906198e-003	-2.502491e+000	-2.497509e+000	-2.500000e+000	-2.500000e+000	-2.570000e+000	-2.570000e+000	9.447414e-010	-9.447363e-010	-9.613715e-002	9.613715e-002	-6.226509e-012	6.226508e-012	-9.384954e-010	2.490603e-002	-2.490603e-002	2.490603e-002	7.123126e-002	-1.381240e-007	1.381240e-007	6.226494e-012	-6.226831e-012	9.613728e-002
1.000089844089029e-003	-7.248885e-002	-6.751101e-002	-5.000000e+000	-4.991405e+000	-8.595092e-003	-2.502489e+000	-2.497511e+000	-2.500000e+000	-2.500000e+000	-2.570000e+000	-2.570000e+000	9.330111e-010	-9.330061e-010	-9.607199e-002	9.607199e-002	-6.222291e-012	6.222290e-012	-9.267690e-010	2.488916e-002	-2.488916e-002	2.488916e-002	7.118300e-002	-1.719019e-007	1.719019e-007	6.221904e-012	-6.222365e-012	9.607216e-002
1.000107431150783e-003	-7.248715e-002	-6.751272e-002	-5.000000e+000	-4.989718e+000	-1.028255e-002	-2.502487e+000	-2.497513e+000	-2.500000e+000	-2.500000e+000	-2.570000e+000	-2.570000e+000	8.115402e-010	-8.115369e-010	-9.600688e-002	9.600688e-002	-6.218076e-012	6.218076e-012	-8.053053e-010	2.487230e-002	-2.487230e-002	2.487230e-002	7.113479e-002	-2.056511e-007	2.056511e-007	6.217029e-012	-6.217645e-012	9.600709e-002
1.000125018212537e-003	-7.248545e-002	-6.751442e-002	-5.000000e+000	-4.988031e+000	-1.196858e-002	-2.502486e+000	-2.497514e+000	-2.500000e+000	-2.500000e+000	-2.570000e+000	-2.570000e+000	5.803287e-010	-5.803287e-010	-9.594183e-002	9.594183e-002	-6.213865e-012	6.213865e-012	-5.741043e-010	2.485546e-002	-2.485546e-002	2.485546e-002	7.108662e-002	-2.393717e-007	2.393717e-007	6.211871e-012	-6.212669e-012	9.594207e-002
1.000249097010425e-003	-7.247353e-002	-6.752634e-002	-5.000000e+000	-4.976177e+000	-2.382329e-002	-2.502474e+000	-2.497526e+000	-2.500000e+000	-2.500000e+000	-2.570000e+000	-2.570000e+000	5.697037e-010	-5.697084e-010	-9.548446e-002	9.548446e-002	-6.184258e-012	6.184258e-012	-5.635267e-010	2.473703e-002	-2.473703e-002	2.473703e-002	7.074790e-002	-4.764659e-007	4.764659e-007	6.182520e-012	-6.185428e-012	9.548493e-002
1.000497254606201e-003	-7.245016e-002	-6.754971e-002	-5.000000e+000	-4.952678e+000	-4.732180e-002	-2.502450e+000	-2.497550e+000	-2.500000e+000	-2.500000e+000	-2.570000e+000	-2.570000e+000	5.682021e-010	-5.682163e-010	-9.457786e-002	9.457786e-002	-6.125571e-012	6.125570e-012	-5.620914e-010	2.450228e-002	-2.450228e-002	2.450228e-002	7.007653e-002	-9.464360e-007	9.464360e-007	6.124994e-012	-6.128517e-012	9.457880e-002
1.000993569797752e-003	-7.240415e-002	-6.759572e-002	-5.000000e+000	-4.906510e+000	-9.348999e-002	-2.502404e+000	-2.497596e+000	-2.500000e+000	-2.500000e+000	-2.570000e+000	-2.570000e+000	5.555592e-010	-5.555686e-010	-9.279662e-002	9.279662e-002	-6.010265e-012	6.010265e-012	-5.495622e-010	2.404106e-002	-2.404106e-002	2.404106e-002	6.875743e-002	-1.869800e-006	1.869800e-006	6.010422e-012	-6.012474e-012	9.279849e-002
1.001986200180855e-003	-7.231426e-002	-6.768560e-002	-5.000000e+000	-4.816563e+000	-1.834373e-001	-2.502314e+000	-2.497686e+000	-2.500000e+000	-2.500000e+000	-2.570000e+000	-2.570000e+000	5.354202e-010	-5.354202e-010	-8.932632e-002	8.932632e-002	-5.785622e-012	5.785621e-012	-5.296431e-010	2.314248e-002	-2.314248e-002	2.314248e-002	6.618751e-002	-3.668746e-006	3.668746e-006	5.784358e-012	-5.786962e-012	8.933000e-002
1.002986200180855e-003	-7.222676e-002	-6.777310e-002	-5.000000e+000	-4.728933e+000	-2.710668e-001	-2.502227e+000	-2.497773e+000	-2.500000e+000	-2.500000e+000	-2.570000e+000	-2.570000e+000	5.151506e-010	-5.151506e-010	-8.594545e-002	8.594545e-002	-5.566767e-012	5.566766e-012	-5.095870e-010	2.226707e-002	-2.226706e-002	2.226706e-002	6.368381e-002	-5.421336e-006	5.421336e-006	5.566778e-012	-5.568658e-012	8.595087e-002
1.003986200180854e-003	-7.214236e-002	-6.785750e-002	-5.000000e+000	-4.644614e+000	-3.553857e-001	-2.502142e+000	-2.497858e+000	-2.500000e+000	-2.500000e+000	-2.570000e+000	-2.570000e+000	4.956533e-010	-4.956533e-010	-8.269230e-002	8.269230e-002	-5.356180e-012	5.356179e-012	-4.902958e-010	2.142472e-002	-2.142472e-002	2.142472e-002	6.127469e-002	-7.107714e-006	7.107714e-006	5.358537e-012	-5.358144e-012	8.269941e-002
1.004986200180854e-003	-7.206130e-002	-6.793857e-002	-5.000000e+000	-4.563487e+000	-4.365130e-001	-2.502061e+000	-2.497939e+000	-2.500000e+000	-2.500000e+000	-2.570000e+000	-2.570000e+000	4.768950e-010	-4.768950e-010	-7.956230e-002	7.956230e-002	-5.153564e-012	5.153564e-012	-4.717364e-010	2.061426e-002	-2.061426e-002	2.061426e-002	5.895677e-002	-8.730261e-006	8.730261e-006	5.156181e-012	-5.154900e-012	7.957102e-002
1.005986200180854e-003	-7.198334e-002	-6.801653e-002	-5.000000e+000	-4.485431e+000	-5.145695e-001	-2.501983e+000	-2.498017e+000	-2.500000e+000	-2.500000e+000	-2.570000e+000	-2.570000e+000	4.588401e-010	-4.588401e-010	-7.655077e-002	7.655077e-002	-4.958618e-012	4.958618e-012	-4.538876e-010	1.983447e-002	-1.983447e-002	1.983447e-002	5.672659e-002	-1.029139e-005	1.029139e-005	4.959938e-012	-4.959100e-012	7.656106e-002
1.007986200180854e-003	-7.183623e-002	-6.816363e-002	-5.000000e+000	-4.338069e+000	-6.619308e-001	-2.501836e+000	-2.498164e+000	-2.500000e+000	-2.500000e+000	-2.570000e+000	-2.570000e+000	4.247624e-010	-4.247624e-010	-7.086535e-002	7.086535e-002	-4.590582e-012	4.590583e-012	-4.201794e-010	1.836233e-002	-1.836233e-002	1.836233e-002	5.251626e-002	-1.323862e-005	1.323862e-005	4.589716e-012	-4.589767e-012	7.087860e-002
1.009986200180854e-003	-7.169986e-002	-6.830001e-002	-5.000000e+000	-4.201653e+000	-7.983476e-001	-2.501700e+000	-2.498300e+000	-2.500000e+000	-2.500000e+000	-2.570000e+000	-2.570000e+000	3.932286e-010	-3.932143e-010	-6.560220e-002	6.560220e-002	-4.249880e-012	4.249883e-012	-3.889724e-010	1.699952e-002	-1.699952e-002	1.699952e-002	4.861864e-002	-1.596695e-005	1.596695e-005	4.250466e-012	-4.250073e-012	6.561816e-002
1.011986200180854e-003	-7.157373e-002	-6.842613e-002	-5.000000e+000	-4.075367e+000	-9.246328e-001	-2.501574e+000	-2.498426e+000	-2.500000e+000	-2.500000e+000	-2.570000e+000	-2.570000e+000	3.640110e-010	-3.640110e-010	-6.072994e-002	6.072994e-002	-3.934483e-012	3.934485e-012	-3.600888e-010	1.573793e-002	-1.573793e-002	1.573793e-002	4.501049e-002	-1.849265e-005	1.849265e-005	3.934390e-012	-3.933553e-012	6.074843e-002
1.014986200180854e-003	-7.140183e-002	-6.859803e-002	-5.000000e+000	-3.903306e+000	-1.096694e+000	-2.501402e+000	-2.498598e+000	-2.500000e+000	-2.500000e+000	-2.570000e+000	-2.570000e+000	3.242278e-010	-3.242278e-010	-5.409156e-002	5.409156e-002	-3.504758e-012	3.504762e-012	-3.207248e-010	1.401904e-002	-1.401904e-002	1.401904e-002	4.009445e-002	-2.193388e-005	2.193388e-005	3.505086e-012	-3.505137e-012	5.411349e-002
1.017986200180853e-003	-7.124877e-002	-6.875110e-002	-5.000000e+000	-3.750052e+000	-1.249948e+000	-2.501249e+000	-2.498751e+000	-2.500000e+000	-2.500000e+000	-2.570000e+000	-2.570000e+000	2.887859e-010	-2.887859e-010	-4.817881e-002	4.817881e-002	-3.122006e-012	3.122011e-012	-2.856595e-010	1.248803e-002	-1.248803e-002	1.248803e-002	3.571578e-002	-2.499896e-005	2.499896e-005	3.122400e-012	-3.121562e-012	4.820381e-002
1.020986200180853e-003	-7.111239e-002	-6.888747e-002	-5.000000e+000	-3.613551e+000	-1.386449e+000	-2.501112e+000	-2.498888e+000	-2.500000e+000	-2.500000e+000	-2.570000e+000	-2.570000e+000	2.572165e-010	-2.572165e-010	-4.291239e-002	4.291239e-002	-2.781093e-012	2.781099e-012	-2.544311e-010	1.112438e-002	-1.112438e-002	1.112438e-002	3.181574e-002	-2.772898e-005	2.772898e-005	2.780672e-012	-2.780723e-012	4.294012e-002
1.023986200180853e-003	-7.099080e-002	-6.900907e-002	-5.000000e+000	-3.491971e+000	-1.508030e+000	-2.500991e+000	-2.499009e+000	-2.500000e+000	-2.500000e+000	-2.570000e+000	-2.570000e+000	2.291074e-010	-2.291074e-010	-3.822165e-002	3.822165e-002	-2.477445e-012	2.477452e-012	-2.266276e-010	9.909796e-003	-9.909795e-003	9.909795e-003	2.834201e-002	-3.016059e-005	3.016059e-005	2.478903e-012	-2.478066e-012	3.825181e-002
1.026986200180853e-003	-7.088256e-002	-6.911731e-002	-5.000000e+000	-3.383680e+000	-1.616320e+000	-2.500883e+000	-2.499117e+000	-2.500000e+000	-2.500000e+000	-2.570000e+000	-2.570000e+000	2.040679e-010	-2.040679e-010	-3.404364e-002	3.404364e-002	-2.206989e-012	2.206997e-012	-2.018510e-010	8.827972e-003	-8.827971e-003	8.827971e-003	2.524800e-002	-3.232640e-005	3.232640e-005	2.207490e-012	-2.207541e-012	3.407597e-002
1.029986200180852e-003	-7.078624e-002	-6.921363e-002	-5.000000e+000	-3.287227e+000	-1.712773e+000	-2.500786e+000	-2.499214e+000	-2.500000e+000	-2.500000e+000	-2.570000e+000	-2.570000e+000	1.817497e-010	-1.817497e-010	-3.032234e-002	3.032234e-002	-1.966096e-012	1.966105e-012	-1.797815e-010	7.864403e-003	-7.864403e-003	7.864403e-003	2.249219e-002	-3.425547e-005	3.425547e-005	1.965384e-012	-1.964102e-012	3.035659e-002
1.032986200180852e-003	-7.070065e-002	-6.929922e-002	-5.000000e+000	-3.201317e+000	-1.798683e+000	-2.500701e+000	-2.499299e+000	-2.500000e+000	-2.500000e+000	-2.570000e+000	-2.570000e+000	1.618758e-010	-1.618758e-010	-2.700781e-002	2.700781e-002	-1.751535e-012	1.751546e-012	-1.601350e-010	7.006161e-003	-7.006161e-003	7.006161e-003	2.003762e-002	-3.597367e-005	3.597367e-005	1.752576e-012	-1.751294e-012	2.704378e-002
1.035986200180852e-003	-7.062411e-002	-6.937575e-002	-5.000000e+000	-3.124798e+000	-1.875202e+000	-2.500624e+000	-2.499376e+000	-2.500000e+000	-2.500000e+000	-2.570000e+000	-2.570000e+000	1.441904e-010	-1.441904e-010	-2.405559e-002	2.405559e-002	-1.560428e-012	1.560439e-012	-1.426272e-010	6.241734e-003	-6.241734e-003	6.241734e-003	1.785136e-002	-3.750405e-005	3.750405e-005	1.561472e-012	-1.560635e-012	2.409309e-002
1.038986200180852e-003	-7.055593e-002	-6.944394e-002	-5.000000e+000	-3.056643e+000	-1.943357e+000	-2.500556e+000	-2.499444e+000	-2.500000e+000	-2.500000e+000	-2.570000e+000	-2.570000e+000	1.284306e-010	-1.284306e-010	-2.142608e-002	2.142608e-002	-1.390210e-012	1.390223e-012	-1.270379e-010	5.560866e-003	-5.560866e-003	5.560866e-003	1.590408e-002	-3.886715e-005	3.886715e-005	1.391261e-012	-1.391757e-012	2.146494e-002
1.041986200180851e-003	-7.049537e-002	-6.950450e-002	-5.000000e+000	-2.995938e+000	-2.004062e+000	-2.500495e+000	-2.499505e+000	-2.500000e+000	-2.500000e+000	-2.570000e+000	-2.570000e+000	1.143903e-010	-1.143903e-010	-1.908399e-002	1.908399e-002	-1.238599e-012	1.238613e-012	-1.131468e-010	4.954424e-003	-4.954424e-003	4.954424e-003	1.416965e-002	-4.008124e-005	4.008124e-005	1.239358e-012	-1.239409e-012	1.912408e-002
1.044986200180851e-003	-7.044148e-002	-6.955838e-002	-5.000000e+000	-2.941869e+000	-2.058131e+000	-2.500442e+000	-2.499558e+000	-2.500000e+000	-2.500000e+000	-2.570000e+000	-2.570000e+000	1.018847e-010	-1.018847e-010	-1.699793e-002	1.699793e-002	-1.103560e-012	1.103575e-012	-1.007834e-010	4.414272e-003	-4.414272e-003	4.414272e-003	1.262482e-002	-4.116263e-005	4.116263e-005	1.103666e-012	-1.104161e-012	1.703909e-002
1.047986200180851e-003	-7.039332e-002	-6.960654e-002	-5.000000e+000	-2.893710e+000	-2.106290e+000	-2.500393e+000	-2.499607e+000	-2.500000e+000	-2.500000e+000	-2.570000e+000	-2.570000e+000	9.075052e-011	-9.075052e-011	-1.513989e-002	1.513989e-002	-9.832829e-013	9.832989e-013	-8.976997e-011	3.933163e-003	-3.933163e-003	3.933163e-003	1.124885e-002	-4.212580e-005	4.212580e-005	9.843142e-013	-9.834771e-013	1.518201e-002
1.050986200180851e-003	-7.035041e-002	-6.964946e-002	-5.000000e+000	-2.850815e+000	-2.149185e+000	-2.500350e+000	-2.499650e+000	-2.500000e+000	-2.500000e+000	-2.570000e+000	-2.570000e+000	8.083134e-011	-8.083134e-011	-1.348495e-002	1.348495e-002	-8.761527e-013	8.761699e-013	-7.995027e-011	3.504645e-003	-3.504645e-003	3.504645e-003	1.002328e-002	-4.298370e-005	4.298370e-005	8.759625e-013	-8.755696e-013	1.352793e-002
1.053986200180850e-003	-7.031226e-002	-6.968760e-002	-5.000000e+000	-2.812609e+000	-2.187391e+000	-2.500312e+000	-2.499688e+000	-2.500000e+000	-2.500000e+000	-2.570000e+000	-2.570000e+000	7.199930e-011	-7.199930e-011	-1.201091e-002	1.201091e-002	-7.807329e-013	7.807511e-013	-7.121059e-011	3.122968e-003	-3.122968e-003	3.122968e-003	8.931688e-003	-4.374782e-005	4.374782e-005	7.819910e-013	-7.811541e-013	1.205466e-002
1.056986200180850e-003	-7.027817e-002	-6.972170e-002	-5.000000e+000	-2.778579e+000	-2.221421e+000	-2.500278e+000	-2.499722e+000	-2.500000e+000	-2.500000e+000	-2.570000e+000	-2.570000e+000	6.411938e-011	-6.411938e-011	-1.069800e-002	1.069800e-002	-6.957434e-013	6.957627e-013	-6.343015e-011	2.783012e-003	-2.783012e-003	2.783012e-003	7.959414e-003	-4.442841e-005	4.442841e-005	6.951321e-013	-6.951834e-013	1.074243e-002
1.059986200180850e-003	-7.024789e-002	-6.975198e-002	-5.000000e+000	-2.748270e+000	-2.251730e+000	-2.500248e+000	-2.499752e+000	-2.500000e+000	-2.500000e+000	-2.570000e+000	-2.570000e+000	5.711343e-011	-5.711343e-011	-9.528601e-003	9.528601e-003	-6.200439e-013	6.200644e-013	-5.649525e-011	2.480217e-003	-2.480217e-003	2.480217e-003	7.093419e-003	-4.503461e-005	4.503461e-005	6.194997e-013	-6.186629e-013	9.573636e-003
1.062986200180850e-003	-7.022095e-002	-6.977892e-002	-5.000000e+000	-2.721273e+000	-2.278727e+000	-2.500221e+000	-2.499779e+000	-2.500000e+000	-2.500000e+000	-2.570000e+000	-2.570000e+000	5.086775e-011	-5.086775e-011	-8.487031e-003	8.487031e-003	-5.526191e-013	5.526407e-013	-5.031353e-011	2.210520e-003	-2.210520e-003	2.210520e-003	6.322086e-003	-4.557454e-005	4.557454e-005	5.525224e-013	-5.521296e-013	8.532606e-003
1.065986200180849e-003	-7.019687e-002	-6.980300e-002	-5.000000e+000	-2.697227e+000	-2.302773e+000	-2.500197e+000	-2.499803e+000	-2.500000e+000	-2.500000e+000	-2.570000e+000	-2.570000e+000	4.531131e-011	-4.531131e-011	-7.559315e-003	7.559315e-003	-4.925645e-013	4.925871e-013	-4.482814e-011	1.970303e-003	-1.970303e-003	1.970303e-003	5.635067e-003	-4.605545e-005	4.605545e-005	4.930461e-013	-4.917653e-013	7.605371e-003
1.068986200180849e-003	-7.017565e-002	-6.982422e-002	-5.000000e+000	-2.675810e+000	-2.324190e+000	-2.500176e+000	-2.499824e+000	-2.500000e+000	-2.500000e+000	-2.570000e+000	-2.570000e+000	4.035883e-011	-4.035883e-011	-6.733007e-003	6.733007e-003	-4.390744e-013	4.390981e-013	-3.991119e-011	1.756345e-003	-1.756345e-003	1.756345e-003	5.023146e-003	-4.648380e-005	4.648380e-005	4.405133e-013	-4.396767e-013	6.779491e-003
