time,"V(N008,N005)","V(N009,N004)",V(n001),V(n002),V(n003),V(n004),V(n005),V(n006),V(n007),V(n008),V(n009),I(C1),I(C2),I(C3),I(C4),I(R1),I(R2),I(R3),I(R4),I(R5),I(R6),I(R7),I(R8),I(R9),I(V1),I(V2),I(V3)
0.0,-0.07,-0.07,0.0,-2.1000000000000002e-20,-2.1000000000000002e-20,-2.1004200000000002e-20,-2.1004200000000002e-20,-2.1004200000000002e-20,-2.1004200000000002e-20,-0.07,-0.07,4.199999999999999e-25,4.199999999999999e-25,2.0999999999999996e-38,2.0999999999999996e-38,-4.357865e-36,-4.357865e-36,0.0,0.0,4.199999999999999e-25,4.199999999999999e-25,0.0,4.199999999999999e-25,4.199999999999999e-25,-1.2611689999999998e-43,-1.2611689999999998e-43,-4.199999999999999e-25
0.001,-0.07,-0.07,0.0,-7.916819e-17,-7.916819e-17,-3.0581509999999995e-16,-3.0581509999999995e-16,-9.564614e-12,-9.564614e-12,-0.07,-0.07,2.2640770000000003e-17,2.2640770000000003e-17,2.266311e-17,2.266311e-17,2.391077e-20,2.391077e-20,0.0,0.0,2.26647e-17,2.26647e-17,-5.282550999999999e-34,1.583364e-21,1.583364e-21,-2.3910779999999998e-20,-2.3910759999999998e-20,-2.26647e-17
0.0010000001,-0.07245079,-0.06754923,-0.5,-0.49999570000000004,-4.252789e-06,-0.2524655,-0.2475345,-0.2500147,-0.2499853,-0.31998530000000003,-0.3200147,-9.841698e-05,9.841698e-05,-0.03189576,0.03189576,-6.139049e-12,6.139049e-12,9.8417e-05,0.02465461,-0.02475303,0.02475303,0.007142735999999999,-8.505578000000001e-11,8.505578000000001e-11,6.138852e-12,-6.139055000000001e-12,0.03189576
0.0010000003,-0.0773958,-0.06260419,-1.5,-1.499982,-1.8376129999999997e-05,-0.7574108,-0.7425892,-0.750015,-0.749985,-0.8199850000000001,-0.8200149999999999,-0.0001485152,0.0001485152,-0.09568512,0.09568512,-1.849001e-11,1.849001e-11,0.00014851530000000002,0.07410856,-0.07425708,0.07425708,0.02142805,-3.675227e-10,3.675227e-10,1.848939e-11,-1.849014e-11,0.09568512
0.0010000006037394961,-0.08491373,-0.05508626,-3.018698,-3.018634,-6.338185e-05,-1.524277,-1.49442,-1.509364,-1.509334,-1.579334,-1.579364,-0.0001484905,0.0001484905,-0.1925581,0.1925581,-3.728467e-11,3.728467e-11,0.0001484905,0.1492872,-0.14943570000000003,0.14943570000000003,0.04312244,-1.267637e-09,1.267637e-09,3.728389e-11,-3.728428e-11,0.1925581
0.001000000906672554,-0.09241152,-0.04758859,-4.533363,-4.533228,-0.0001349434,-2.289108,-2.244255,-2.266696,-2.266667,-2.336667,-2.336696,-0.0001484705,0.0001484705,-0.2891705,0.2891705,-5.602876e-11,5.602876e-11,0.0001484705,0.22426350000000003,-0.224412,0.224412,0.06475847,-2.6988690000000003e-09,2.6988690000000003e-09,5.602746999999999e-11,-5.6028369999999995e-11,0.2891705
0.001000001,-0.09472084,-0.04527903,-5.0,-4.999839,-0.0001610657,-2.524736,-2.475264,-2.5000150000000003,-2.4999849999999997,-2.569985,-2.570015,-0.0001499986,0.0001499986,-0.3189343,0.3189343,-6.180256999999999e-11,6.180256999999999e-11,0.0001499987,0.2473603,-0.24751030000000002,0.24751030000000002,0.07142397,-3.2213150000000003e-09,3.2213150000000003e-09,6.179979e-11,-6.180095e-11,0.3189343
0.001000001009481719,-0.09474349,-0.04525638,-5.0,-4.999836,-0.0001640898,-2.5247450000000002,-2.4752549999999998,-2.500002,-2.499998,-2.569998,-2.570002,-5.6205509999999996e-05,5.6205509999999996e-05,-0.31893299999999997,0.31893299999999997,-6.184915999999999e-11,6.184915999999999e-11,5.620557e-05,0.2474529,-0.24750909999999998,0.24750909999999998,0.07142388,-3.2817959999999995e-09,3.2817959999999995e-09,6.184734e-11,-6.184821e-11,0.31893299999999997
0.001000001028445158,-0.09475207,-0.04524803,-5.0,-4.99983,-0.00017013779999999998,-2.5247509999999997,-2.4752490000000003,-2.4999990000000003,-2.5000009999999997,-2.570001,-2.569999,-9.74988e-07,9.74988e-07,-0.3189316,0.3189316,-6.187649e-11,6.187649e-11,9.750498e-07,0.2475069,-0.24750789999999998,0.24750789999999998,0.07142371,-3.402756e-09,3.402756e-09,6.187508e-11,-6.187625e-11,0.3189316
0.0010000010663720358,-0.09474945,-0.04525042,-5.0,-4.999818,-0.0001822339,-2.5247509999999997,-2.4752490000000003,-2.5000009999999997,-2.4999990000000003,-2.569999,-2.570001,4.1652009999999997e-07,-4.1652009999999997e-07,-0.3189301,0.3189301,-6.187689e-11,6.187689e-11,-4.164582e-07,0.24750709999999998,-0.2475067,0.2475067,0.07142337,-3.644677e-09,3.644677e-09,6.187578e-11,-6.187736999999999e-11,0.3189301
0.001000001142225792,-0.09475136,-0.04524875,-5.0,-4.9997940000000005,-0.00020642569999999998,-2.52475,-2.47525,-2.4999990000000003,-2.5000009999999997,-2.570001,-2.569999,-1.590053e-07,1.590053e-07,-0.318927,0.318927,-6.1876e-11,6.1876e-11,1.590671e-07,0.24750419999999998,-0.24750429999999995,0.24750429999999995,0.07142267,-4.128514000000001e-09,4.128514000000001e-09,6.187651999999999e-11,-6.187660999999999e-11,0.318927
0.0010000012939333038,-0.09474874,-0.04525137,-5.0,-4.999745,-0.0002548085,-2.52475,-2.47525,-2.5000009999999997,-2.4999990000000003,-2.569999,-2.570001,1.031428e-07,-1.031428e-07,-0.3189208,0.3189208,-6.187493e-11,6.187493e-11,-1.030809e-07,0.24749960000000001,-0.24749949999999998,0.24749949999999998,0.07142129,-5.09617e-09,5.09617e-09,6.187599e-11,-6.187504e-11,0.3189208
0.0010000015973483278,-0.09475017,-0.04524994,-5.0,-4.999649,-0.0003515706,-2.5247490000000004,-2.4752509999999996,-2.4999990000000003,-2.5000009999999997,-2.570001,-2.569999,-2.2008259999999998e-08,2.2008259999999998e-08,-0.3189085,0.3189085,-6.187246999999999e-11,6.187246999999999e-11,2.20701e-08,0.24748989999999998,-0.24748989999999998,0.24748989999999998,0.07141852,-7.031411e-09,7.031411e-09,6.187195e-11,-6.187309e-11,0.3189085
0.001000002204178375,-0.09474611,-0.04525399,-5.0,-4.999455,-0.0005450807,-2.524747,-2.475253,-2.5000009999999997,-2.4999990000000003,-2.569999,-2.570001,3.91401e-08,-3.91401e-08,-0.3188838,0.3188838,-6.186771e-11,6.186771e-11,-3.907826e-08,0.24747080000000002,-0.24747080000000002,0.24747080000000002,0.071413,-1.0901610000000002e-08,1.0901610000000002e-08,6.18658e-11,-6.186879e-11,0.3188838
0.00100000341783847,-0.09474444,-0.04525566,-5.0,-4.999068,-0.0009320448,-2.524743,-2.475257,-2.4999990000000003,-2.5000009999999997,-2.570001,-2.569999,8.911836e-09,-8.911836e-09,-0.3188344,0.3188344,-6.185812e-11,6.185812e-11,-8.84999e-09,0.24743249999999997,-0.24743249999999997,0.24743249999999997,0.07140194,-1.8640900000000002e-08,1.8640900000000002e-08,6.185619e-11,-6.185831e-11,0.3188344
0.001000005845158659,-0.09473443,-0.04526567,-5.0,-4.9982940000000005,-0.001705748,-2.5247349999999997,-2.4752650000000003,-2.5000009999999997,-2.4999990000000003,-2.569999,-2.570001,2.393214e-08,-2.393214e-08,-0.3187357,0.3187357,-6.183898000000001e-11,6.183898000000001e-11,-2.387029e-08,0.24735589999999996,-0.24735589999999996,0.24735589999999996,0.07137983,-3.411497e-08,3.411497e-08,6.183743e-11,-6.183847e-11,0.3187357
0.0010000106997990381,-0.09472132,-0.04527879,-5.0,-4.996748,-0.003252257,-2.52472,-2.47528,-2.4999990000000003,-2.5000009999999997,-2.570001,-2.569999,1.6428959999999998e-08,-1.6428959999999998e-08,-0.3185383,0.3185383,-6.18007e-11,6.18007e-11,-1.6367120000000002e-08,0.24720279999999997,-0.24720279999999997,0.24720279999999997,0.07133565,-6.504514e-08,6.504514e-08,6.179878e-11,-6.180076e-11,0.3185384
0.001000020409079795,-0.09468865,-0.04531145,-5.0,-4.993659,-0.006341686,-2.52469,-2.47531,-2.5000009999999997,-2.4999990000000003,-2.569999,-2.570001,2.014607e-08,-2.014607e-08,-0.3181441,0.3181441,-6.172422e-11,6.172422e-11,-2.008422e-08,0.2468969,-0.2468969,0.2468969,0.07124738,-1.268337e-07,1.268337e-07,6.172275e-11,-6.172463e-11,0.3181443
0.0010000398276413089,-0.09462976,-0.04537034,-5.0,-4.987494,-0.01250623,-2.524629,-2.475371,-2.4999990000000003,-2.5000009999999997,-2.570001,-2.569999,1.8230369999999997e-08,-1.8230369999999997e-08,-0.31735749999999996,0.31735749999999996,-6.157164e-11,6.157164e-11,-1.816852e-08,0.2462865,-0.2462865,0.2462865,0.07107125,-2.5012450000000004e-07,2.5012450000000004e-07,6.157112e-11,-6.15713e-11,0.3173577
0.0010000786647643368,-0.09450603,-0.04549408,-5.0,-4.9752220000000005,-0.02477829,-2.524507,-2.475493,-2.5000009999999997,-2.4999990000000003,-2.569999,-2.570001,1.9071349999999998e-08,-1.9071349999999998e-08,-0.31579159999999995,0.31579159999999995,-6.126787e-11,6.126787e-11,-1.90098e-08,0.24507150000000003,-0.24507150000000003,0.24507150000000003,0.07072062,-4.955658e-07,4.955658e-07,6.126755e-11,-6.126794e-11,0.31579209999999996
0.0010001563390103939,-0.09426761,-0.0457325,-5.0,-4.950903,-0.04909645,-2.524266,-2.475734,-2.4999990000000003,-2.5000009999999997,-2.570001,-2.569999,1.8419849999999997e-08,-1.8419849999999997e-08,-0.3126886,0.3126886,-6.066594e-11,6.066594e-11,-1.835936e-08,0.2426637,-0.2426637,0.2426637,0.07002582,-9.81929e-07,9.81929e-07,6.066517e-11,-6.066729000000001e-11,0.3126895
0.001000311687502507,-0.09379268,-0.04620743,-5.0,-4.903154,-0.0968454,-2.5237939999999996,-2.4762060000000004,-2.5000009999999997,-2.4999990000000003,-2.569999,-2.570001,1.8291299999999998e-08,-1.8291299999999998e-08,-0.3065957,0.3065957,-5.948404e-11,5.948404e-11,-1.823219e-08,0.23793609999999998,-0.23793609999999998,0.23793609999999998,0.06866156,-1.936908e-06,1.936908e-06,5.948374e-11,-5.948656999999999e-11,0.30659770000000003
0.001000622384486734,-0.09288311,-0.04711699,-5.0,-4.811079,-0.18892079999999997,-2.522882,-2.477118,-2.4999990000000003,-2.5000009999999997,-2.570001,-2.569999,1.747685e-08,-1.747685e-08,-0.29484679999999996,0.29484679999999996,-5.720494e-11,5.720494e-11,-1.74197e-08,0.22881970000000001,-0.22881970000000001,0.22881970000000001,0.06603083,-3.778417e-06,3.778417e-06,5.720545e-11,-5.7207009999999995e-11,0.29485059999999996
0.001001243778455187,-0.09117198,-0.04882813,-5.0,-4.638485,-0.3615144,-2.521173,-2.478827,-2.5000009999999997,-2.4999990000000003,-2.569999,-2.570001,1.622222e-08,-1.622222e-08,-0.2728236,0.2728236,-5.293282e-11,5.293282e-11,-1.616929e-08,0.2117313,-0.21173119999999998,0.21173119999999998,0.06109959,-7.230289e-06,7.230289e-06,5.293379e-11,-5.293311e-11,0.2728308
0.001002243778455187,-0.08866501,-0.0513351,-5.0,-4.3850489999999995,-0.6149513000000001,-2.518664,-2.481336,-2.4999990000000003,-2.5000009999999997,-2.570001,-2.569999,1.428612e-08,-1.428612e-08,-0.24048470000000002,0.24048470000000002,-4.6659629999999997e-11,4.6659629999999997e-11,-1.42395e-08,0.1866385,-0.1866385,0.1866385,0.05385853,-1.229903e-05,1.229903e-05,4.66606e-11,-4.665917e-11,0.240497
0.0010032437784551868,-0.08642459,-0.05357552,-5.0,-4.158987000000001,-0.8410131,-2.516426,-2.483574,-2.5000009999999997,-2.4999990000000003,-2.569999,-2.570001,1.2572399999999998e-08,-1.2572399999999998e-08,-0.21163890000000002,0.21163890000000002,-4.1064040000000004e-11,4.1064040000000004e-11,-1.253125e-08,0.16425610000000002,-0.16425610000000002,0.16425610000000002,0.04739963,-1.682026e-05,1.682026e-05,4.106486e-11,-4.106358e-11,0.2116558
0.001004243778455187,-0.08445692,-0.05554318,-5.0,-3.9600410000000004,-1.039959,-2.514456,-2.485544,-2.4999990000000003,-2.5000009999999997,-2.570001,-2.569999,1.1064459999999998e-08,-1.1064459999999998e-08,-0.1862532,0.1862532,-3.613963e-11,3.613963e-11,-1.102808e-08,0.1445585,-0.1445585,0.1445585,0.04171545,-2.0799179999999998e-05,2.0799179999999998e-05,3.614072e-11,-3.6139440000000004e-11,0.1862739
0.0010052437784551869,-0.08272147,-0.05727863,-5.0,-3.784958,-1.215042,-2.512722,-2.487278,-2.5000009999999997,-2.4999990000000003,-2.569999,-2.570001,9.737278e-09,-9.737278e-09,-0.1639124,0.1639124,-3.18059e-11,3.18059e-11,-9.705445e-09,0.12722360000000002,-0.12722360000000002,0.12722360000000002,0.03671309,-2.430084e-05,2.430084e-05,3.180688e-11,-3.18056e-11,0.16393670000000002
0.001006243778455187,-0.08119798,-0.05880213,-5.0,-3.630876,-1.369124,-2.511197,-2.488803,-2.4999990000000003,-2.5000009999999997,-2.570001,-2.569999,8.569259e-09,-8.569259e-09,-0.1442513,0.1442513,-2.7991990000000003e-11,2.7991990000000003e-11,-8.541519e-09,0.11196800000000001,-0.11196789999999998,0.11196789999999998,0.03231075,-2.7382470000000002e-05,2.7382470000000002e-05,2.7992790000000003e-11,-2.7991509999999998e-11,0.1442787
0.001007243778455187,-0.0798533,-0.06014681,-5.0,-3.495276,-1.504724,-2.5098540000000003,-2.4901459999999997,-2.5000009999999997,-2.4999990000000003,-2.569999,-2.570001,7.54153e-09,-7.54153e-09,-0.12694860000000002,0.12694860000000002,-2.463556e-11,2.463556e-11,-7.516974e-09,0.09854221,-0.09854221,0.09854221,0.02843647,-3.0094470000000003e-05,3.0094470000000003e-05,2.463703e-11,-2.463619e-11,0.1269787
0.001008243778455186,-0.07867384,-0.06132627,-5.0,-3.3759410000000005,-1.624059,-2.508673,-2.491327,-2.4999990000000003,-2.5000009999999997,-2.570001,-2.569999,6.637038000000001e-09,-6.637038000000001e-09,-0.1117213,0.1117213,-2.168172e-11,2.168172e-11,-6.61521e-09,0.08672687,-0.08672687,0.08672687,0.0250269,-3.248117e-05,3.248117e-05,2.1683729999999998e-11,-2.1683779999999997e-11,0.1117538
0.001009243778455186,-0.07763171,-0.06236839,-5.0,-3.270921,-1.729079,-2.5076330000000002,-2.4923669999999998,-2.5000009999999997,-2.4999990000000003,-2.569999,-2.570001,5.841002e-09,-5.841002e-09,-0.09832048,0.09832048,-1.9082189999999998e-11,1.9082189999999998e-11,-5.821675999999999e-09,0.07632877,-0.07632876,0.07632876,0.0220263,-3.458159e-05,3.458159e-05,1.908415e-11,-1.908465e-11,0.09835506
0.001010243778455186,-0.07671881,-0.0632813,-5.0,-3.178497,-1.8215029999999999,-2.5067180000000002,-2.4932819999999998,-2.4999990000000003,-2.5000009999999997,-2.570001,-2.569999,5.140464e-09,-5.140464e-09,-0.08652708,0.08652708,-1.679448e-11,1.679448e-11,-5.123411e-09,0.0671779,-0.06717789,0.06717789,0.01938562,-3.643006e-05,3.643006e-05,1.67964e-11,-1.679646e-11,0.08656351
0.001011243778455186,-0.07591152,-0.06408858,-5.0,-3.097159,-1.902841,-2.505913,-2.494087,-2.5000009999999997,-2.4999990000000003,-2.569999,-2.570001,4.523827e-09,-4.523827e-09,-0.07614829,0.07614829,-1.478117e-11,1.478117e-11,-4.509047e-09,0.05912466,-0.05912466,0.05912466,0.01706169,-3.805682e-05,3.805682e-05,1.478222e-11,-1.478183e-11,0.07618634
0.0010122437784551859,-0.07520485,-0.06479526,-5.0,-3.025578,-1.9744220000000001,-2.505204,-2.494796,-2.4999990000000003,-2.5000009999999997,-2.570001,-2.569999,3.9810859999999995e-09,-3.9810859999999995e-09,-0.06701441,0.06701441,-1.300935e-11,1.300935e-11,-3.9681250000000005e-09,0.0520374,-0.0520374,0.0520374,0.01501651,-3.9488449999999996e-05,3.9488449999999996e-05,1.300965e-11,-1.30097e-11,0.0670539
0.001013243778455186,-0.074579,-0.0654211,-5.0,-2.962582,-2.037418,-2.50458,-2.49542,-2.5000009999999997,-2.4999990000000003,-2.569999,-2.570001,3.5036009999999997e-09,-3.5036009999999997e-09,-0.05897613,0.05897613,-1.145006e-11,1.145006e-11,-3.4920050000000003e-09,0.04580024,-0.04580024,0.04580024,0.01321664,-4.074835e-05,4.074835e-05,1.145098e-11,-1.145103e-11,0.05901688
0.001014243778455186,-0.07403231,-0.0659678,-5.0,-2.907143,-2.092857,-2.5040310000000003,-2.4959689999999997,-2.4999990000000003,-2.5000009999999997,-2.570001,-2.569999,3.0834140000000002e-09,-3.0834140000000002e-09,-0.05190203,0.05190203,-1.00778e-11,1.007781e-11,-3.073183e-09,0.04031122,-0.04031122,0.04031122,0.01163267,-4.185713e-05,4.185713e-05,1.007943e-11,-1.007859e-11,0.05194389
0.001015243778455186,-0.07354712,-0.06645298,-5.0,-2.8583540000000003,-2.1416459999999997,-2.503548,-2.496452,-2.5000009999999997,-2.4999990000000003,-2.569999,-2.570001,2.7134770000000003e-09,-2.7134770000000003e-09,-0.04567645,0.04567645,-8.87015e-12,8.870154e-12,-2.7043820000000004e-09,0.03548061,-0.0354806,0.0354806,0.01023869,-4.283291e-05,4.283291e-05,8.872546e-12,-8.871264999999999e-12,0.04571929
0.001016243778455186,-0.07312417,-0.06687593,-5.0,-2.8154169999999996,-2.1845830000000004,-2.503123,-2.496877,-2.4999990000000003,-2.5000009999999997,-2.570001,-2.569999,2.3878779999999996e-09,-2.3878779999999996e-09,-0.04019763,0.04019763,-7.807352e-12,7.807355e-12,-2.37992e-09,0.03122941,-0.03122941,0.03122941,0.009011915,-4.3691660000000004e-05,4.3691660000000004e-05,7.810173e-12,-7.808892e-12,0.04024133
0.0010172437784551859,-0.07274771,-0.0672524,-5.0,-2.77763,-2.22237,-2.502749,-2.497251,-2.5000009999999997,-2.4999990000000003,-2.569999,-2.570001,2.1013879999999997e-09,-2.1013879999999997e-09,-0.03537599,0.03537599,-6.872034e-12,6.872039e-12,-2.094566e-09,0.02748814,-0.02748814,0.02748814,0.007932291999999999,-4.44474e-05,4.44474e-05,6.8738720000000004e-12,-6.872591e-12,0.03542043
0.001018243778455186,-0.0724206,-0.06757951,-5.0,-2.744376,-2.255624,-2.5024189999999997,-2.4975810000000003,-2.4999990000000003,-2.5000009999999997,-2.570001,-2.569999,1.8494570000000002e-09,-1.8494570000000002e-09,-0.03113269,0.03113269,-6.048907e-12,6.048911e-12,-1.843318e-09,0.02419563,-0.02419563,0.02419563,0.006982168,-4.511248e-05,4.511248e-05,6.048871e-12,-6.0480339999999995e-12,0.0311778
0.001019243778455186,-0.07212877,-0.06787133,-5.0,-2.7151099999999997,-2.2848900000000003,-2.5021299999999997,-2.4978700000000003,-2.5000009999999997,-2.4999990000000003,-2.569999,-2.570001,1.6277679999999996e-09,-1.6277679999999996e-09,-0.02739837,0.02739837,-5.324513e-12,5.324517e-12,-1.6223110000000003e-09,0.02129806,-0.02129806,0.02129806,0.00614601,-4.569779000000001e-05,4.569779000000001e-05,5.32364e-12,-5.323247e-12,0.02744407
0.001020243778455185,-0.07187605,-0.06812406,-5.0,-2.689355,-2.310645,-2.501875,-2.498125,-2.4999990000000003,-2.5000009999999997,-2.570001,-2.569999,1.432454e-09,-1.432454e-09,-0.02411197,0.02411197,-4.687008e-12,4.687013e-12,-1.4279070000000002e-09,0.01874804,-0.01874804,0.01874804,0.005410148,-4.62129e-05,4.62129e-05,4.6867550000000005e-12,-4.685918e-12,0.02415819
0.0010212437784551849,-0.07164931,-0.06835079,-5.0,-2.666689,-2.333311,-2.50165,-2.49835,-2.5000009999999997,-2.4999990000000003,-2.569999,-2.570001,1.26056e-09,-1.26056e-09,-0.02121978,0.02121978,-4.125971e-12,4.125976e-12,-1.256694e-09,0.01650389,-0.01650389,0.01650389,0.004762552,-4.6666220000000005e-05,4.6666220000000005e-05,4.1258860000000004e-12,-4.1250489999999995e-12,0.02126645
0.001022243778455185,-0.07145405,-0.06854606,-5.0,-2.6467419999999997,-2.3532580000000003,-2.5014529999999997,-2.4985470000000003,-2.4999990000000003,-2.5000009999999997,-2.570001,-2.569999,1.109356e-09,-1.109356e-09,-0.0186745,0.0186745,-3.632229e-12,3.632236e-12,-1.105946e-09,0.01452893,-0.01452893,0.01452893,0.004192634000000001,-4.7065159999999995e-05,4.7065159999999995e-05,3.6316519999999997e-12,-3.63126e-12,0.01872156
0.001023243778455185,-0.0712781,-0.06872201,-5.0,-2.629188,-2.370812,-2.5012790000000003,-2.4987209999999997,-2.5000009999999997,-2.4999990000000003,-2.569999,-2.570001,9.763426e-10,-9.763426e-10,-0.01643452,0.01643452,-3.197712e-12,3.197718e-12,-9.731593e-10,0.01279086,-0.01279086,0.01279086,0.0036910759999999997,-4.741625e-05,4.741625e-05,3.197092e-12,-3.196699e-12,0.01648194
0.001024243778455185,-0.07112718,-0.06887293,-5.0,-2.613739,-2.386261,-2.5011259999999997,-2.4988740000000003,-2.4999990000000003,-2.5000009999999997,-2.570001,-2.569999,8.592451e-10,-8.592451e-10,-0.01446322,0.01446322,-2.815314e-12,2.815321e-12,-8.562893e-10,0.01126127,-0.01126127,0.01126127,0.00324968,-4.7725230000000004e-05,4.7725230000000004e-05,2.8156e-12,-2.814763e-12,0.01451095
0.001025243778455185,-0.07099056,-0.06900954,-5.0,-2.600143,-2.399857,-2.5009919999999997,-2.4990080000000003,-2.5000009999999997,-2.4999990000000003,-2.569999,-2.570001,7.560175e-10,-7.560175e-10,-0.01272838,0.01272838,-2.478784e-12,2.478791e-12,-7.537437e-10,0.009915149,-0.009915149,0.009915149,0.0028612290000000003,-4.799714e-05,4.799714e-05,2.479728e-12,-2.478003e-12,0.01277638
0.001026243778455185,-0.07087421,-0.06912589,-5.0,-2.588178,-2.411822,-2.500873,-2.499127,-2.4999990000000003,-2.5000009999999997,-2.570001,-2.569999,6.652954e-10,-6.652954e-10,-0.01120163,0.01120163,-2.1826200000000002e-12,2.182628e-12,-6.634764e-10,0.008730495,-0.008730494,0.008730494,0.002519371,-4.823644e-05,4.823644e-05,2.18372e-12,-2.181995e-12,0.01124987
