time,"V(N008,N005)","V(N009,N004)",V(n001),V(n002),V(n003),V(n004),V(n005),V(n006),V(n007),V(n008),V(n009),I(C1),I(C2),I(C3),I(C4),I(R0),I(R1),I(R2),I(R3),I(R4),I(R5),I(R6),I(R7),I(R8),I(V1),I(V2),I(V3)
0.0,-0.07,-0.07,0.0,-3.5e-13,-3.5e-13,-3.5035e-13,-3.5035e-13,-3.5035e-13,-3.5035e-13,-0.07,-0.07,7.000000000000001e-18,7.000000000000001e-18,3.5e-29,3.5e-29,7.000000000000001e-18,-3.7654190000000003e-29,-3.7654190000000003e-29,0.0,0.0,0.0,7.000000000000001e-18,7.000000000000001e-18,7.000000000000001e-18,-3.5035e-29,-3.5035e-29,-7.000000000000001e-18
0.001,-0.07,-0.07,0.0,-3.50827e-13,-3.508183e-13,-4.1589499999999997e-13,-4.1605609999999997e-13,-4.158826e-13,-4.1614070000000003e-13,-0.07,-0.07,0.0,0.0,1.2944989999999998e-15,1.2978639999999998e-15,1.301362e-15,-3.108112e-26,2.116005e-25,-1.249001e-15,-8.051994999999999e-16,1.240987e-19,1.304756e-15,7.016538999999999e-18,7.016365e-18,-4.551914e-15,0.0,-1.301515e-15
0.001000001,-0.07000017,-0.06999969,-5.0,-5.0,-6.129623e-07,-2.502498,-2.497502,-2.502497,-2.497503,-2.567502,-2.5724970000000003,-0.02497439,0.02497439,-0.1213786,0.1213786,-0.04995004,-3.1530419999999995e-16,3.1530419999999995e-16,0.02497439,0.02497565,0.07142855,0.04995004,-1.225923e-11,1.225925e-11,-5.70715e-10,0.0,0.1213786
0.001001859904218233,-0.07043514,-0.06956481,-5.0,-4.997744,-0.002255779,-2.502712,-2.497288,-2.502277,-2.497723,-2.567723,-2.572277,-0.02277755,0.02277755,-0.12126469999999999,0.12126469999999999,-0.04990064,-1.086386e-12,1.086386e-12,0.02277755,0.02712309,0.07136412,0.04990064,-4.511557e-08,4.511557e-08,-3.008222e-10,-1.050551e-12,0.12126480000000002
0.001003718808436466,-0.07083843,-0.0691616,-5.0,-4.995491,-0.004508865999999999,-2.502911,-2.497089,-2.5020729999999998,-2.4979270000000002,-2.567927,-2.572073,-0.0207386,0.0207386,-0.12115129999999999,0.12115129999999999,-0.0498516,-2.093597e-12,2.093597e-12,0.0207386,0.02911299,0.07129975,0.0498516,-9.017731e-08,9.017731e-08,-9.342936e-11,-2.0351349999999997e-12,0.12115129999999999
0.001005577712654698,-0.07121003,-0.06879005,-5.0,-4.99324,-0.006759875,-2.503095,-2.496905,-2.501884,-2.498116,-2.568115,-2.571885,-0.01885756,0.01885756,-0.12103820000000001,0.12103820000000001,-0.04980291,-3.021951e-12,3.021951e-12,0.01885756,0.03094536,0.07123543,0.04980291,-1.351975e-07,1.351975e-07,5.146343e-11,-2.9537529999999997e-12,0.1210383
0.001007436616872931,-0.07154995,-0.06845017,-5.0,-4.990991,-0.009008806,-2.503262,-2.496738,-2.501712,-2.498288,-2.568288,-2.5717119999999998,-0.0171344,0.0171344,-0.12092560000000001,0.12092560000000001,-0.04975458,-3.871446e-12,3.871446e-12,0.0171344,0.03262018,0.07117118,0.04975458,-1.801761e-07,1.801761e-07,1.338562e-10,-3.806404e-12,0.1209258
0.001009295521091164,-0.07185818,-0.06814195,-5.0,-4.9887440000000005,-0.01125566,-2.503414,-2.496586,-2.5015560000000003,-2.4984439999999997,-2.568444,-2.571556,-0.01556914,0.01556914,-0.1208134,0.1208134,-0.04970661,-4.642082e-12,4.642082e-12,0.01556914,0.03413747,0.07110698,0.04970661,-2.2511320000000002e-07,2.2511320000000002e-07,1.537489e-10,-4.593089e-12,0.1208136
0.001011154425309397,-0.07213473,-0.0678654,-5.0,-4.986499,-0.01350043,-2.50355,-2.49645,-2.501415,-2.498585,-2.5685849999999997,-2.571415,-0.01416178,0.01416178,-0.1207016,0.1207016,-0.049659,-5.33386e-12,5.33386e-12,0.01416178,0.03549722,0.07104285,0.049659,-2.700087e-07,2.700087e-07,1.111416e-10,-5.313807e-12,0.1207018
0.0010130133295276301,-0.07237959,-0.06762052,-5.0,-4.984257,-0.01574313,-2.50367,-2.49633,-2.50129,-2.49871,-2.56871,-2.5712900000000003,-0.01291231,0.01291231,-0.12059020000000001,0.12059020000000001,-0.04961174,-5.94678e-12,5.94678e-12,0.01291231,0.03669943,0.07097877,0.04961174,-3.1486259999999996e-07,3.1486259999999996e-07,6.0342839999999995e-12,-5.968559e-12,0.1205905
0.0010150133295276302,-0.07262492,-0.06737494,-5.0,-4.981846,-0.01815374,-2.50379,-2.49621,-2.5011650000000003,-2.4988349999999997,-2.568835,-2.571165,-0.01165921,0.01165921,-0.12047069999999999,0.12047069999999999,-0.04956112,-6.5606759999999996e-12,6.5606759999999996e-12,0.01165921,0.03790191,0.0709099,0.04956112,-3.6307470000000004e-07,3.6307470000000004e-07,6.541878e-12,-6.565414999999999e-12,0.12047100000000001
0.00101701332952763,-0.07284641,-0.06715345,-5.0,-4.979438,-0.02056196,-2.503898,-2.496102,-2.501052,-2.498948,-2.568948,-2.571052,-0.01052552,0.01052552,-0.12035150000000001,0.12035150000000001,-0.04951079,-7.114939e-12,7.114939e-12,0.01052552,0.03898527,0.07084109,0.04951079,-4.1123909999999993e-07,4.1123909999999993e-07,7.043255e-12,-7.077006e-12,0.1203519
0.001019013329527629,-0.07304645,-0.06695342,-5.0,-4.977032,-0.0229678,-2.503996,-2.496004,-2.5009490000000003,-2.4990509999999997,-2.569051,-2.570949,-0.009499856,0.009499856,-0.12023260000000001,0.12023260000000001,-0.04946072,-7.615252000000001e-12,7.615252000000001e-12,0.009499856,0.03996086,0.07077235,0.04946072,-4.5935590000000006e-07,4.5935590000000006e-07,7.57483e-12,-7.503331e-12,0.12023310000000001
0.001021013329527629,-0.07322717,-0.0667727,-5.0,-4.974628,-0.02537126,-2.504084,-2.495916,-2.500857,-2.499143,-2.569143,-2.570857,-0.008571934,0.008571934,-0.1201141,0.1201141,-0.04941089,-8.066757000000001e-12,8.066757000000001e-12,0.008571934,0.04083896,0.07070368,0.04941089,-5.074253e-07,5.074253e-07,8.051337e-12,-8.014922e-12,0.1201146
0.0010230133295276288,-0.07339001,-0.06660986,-5.0,-4.972228,-0.02777236,-2.504163,-2.495837,-2.500773,-2.499227,-2.569227,-2.570773,-0.00773244,0.00773244,-0.11999580000000001,0.11999580000000001,-0.0493613,-8.474103e-12,8.474103e-12,0.00773244,0.04162886,0.07063507,0.0493613,-5.554472e-07,5.554472e-07,8.478551e-12,-8.412826e-12,0.11999639999999999
0.0010250133295276289,-0.07353711,-0.06646299,-5.0,-4.969829,-0.0301711,-2.504234,-2.495766,-2.500697,-2.499303,-2.5693029999999997,-2.570697,-0.006972949,0.006972949,-0.1198778,0.1198778,-0.0493119,-8.8415e-12,8.8415e-12,0.006972949,0.04233895,0.07056653,0.0493119,-6.034219e-07,6.034219e-07,8.833823e-12,-8.81073e-12,0.11987839999999998
0.001027013329527629,-0.07366967,-0.06633043,-5.0,-4.967432,-0.03256748,-2.504298,-2.495702,-2.500628,-2.499372,-2.569372,-2.5706279999999997,-0.006285837,0.006285837,-0.11976010000000001,0.11976010000000001,-0.0492627,-9.172755e-12,9.172755e-12,0.006285837,0.04297686,0.07049807,0.0492627,-6.513495e-07,6.513495e-07,9.201084e-12,-9.038104e-12,0.1197608
0.001029013329527629,-0.07378888,-0.06621099,-5.0,-4.965038,-0.03496151,-2.504355,-2.495645,-2.500566,-2.499434,-2.569434,-2.570566,-0.005664211,0.005664211,-0.11964260000000002,0.11964260000000002,-0.04921367,-9.471312e-12,9.471312e-12,0.005664211,0.04354946,0.07042967,0.04921367,-6.992300999999999e-07,6.992300999999999e-07,9.537704e-12,-9.322321e-12,0.1196433
0.001031013329527628,-0.07389665,-0.06610346,-5.0,-4.962646,-0.03735318,-2.504406,-2.495594,-2.50051,-2.49949,-2.56949,-2.57051,-0.005101830999999999,0.005101830999999999,-0.11952539999999999,0.11952539999999999,-0.04916481,-9.740288e-12,9.740288e-12,0.005101830999999999,0.04406298,0.07036134,0.04916481,-7.470636999999999e-07,7.470636999999999e-07,9.778844e-12,-9.663381e-12,0.1195261
0.001033013329527628,-0.07399321,-0.06600666,-5.0,-4.9602580000000005,-0.03974252,-2.504452,-2.495548,-2.500459,-2.499541,-2.569541,-2.570459,-0.004593052,0.004593052,-0.11940839999999998,0.11940839999999998,-0.0491161,-9.9825e-12,9.9825e-12,0.004593052,0.04452305,0.07029307,0.0491161,-7.948505e-07,7.948505e-07,1.000355e-11,-9.947598e-12,0.1194092
0.0010350133295276278,-0.07408047,-0.06591964,-5.0,-4.95787,-0.04212952,-2.504493,-2.495507,-2.500413,-2.499587,-2.569587,-2.5704130000000003,-0.004132767,0.004132767,-0.11929160000000001,0.11929160000000001,-0.04906754,-1.02005e-11,1.02005e-11,0.004132767,0.04493477,0.07022487,0.04906754,-8.425905e-07,8.425905e-07,1.017675e-11,-1.0118130000000001e-11,0.11929239999999999
0.0010370133295276279,-0.07415891,-0.0658412,-5.0,-4.9554860000000005,-0.04451419,-2.50453,-2.49547,-2.500371,-2.499629,-2.569629,-2.5703709999999997,-0.003716357,0.003716357,-0.119175,0.119175,-0.04901911,-1.03966e-11,1.03966e-11,0.003716357,0.04530275,0.07015674,0.04901911,-8.902836999999999e-07,8.902836999999999e-07,1.040945e-11,-1.03455e-11,0.1191759
0.001039013329527628,-0.07422924,-0.06577063,-5.0,-4.953104,-0.04689652,-2.504563,-2.495437,-2.500334,-2.499666,-2.569666,-2.570334,-0.003339641,0.003339641,-0.1190585,0.1190585,-0.04897081,-1.057288e-11,1.057288e-11,0.003339641,0.04563117,0.07008867,0.04897081,-9.379304999999999e-07,9.379304999999999e-07,1.062173e-11,-1.054445e-11,0.1190595
0.001041013329527628,-0.07429266,-0.06570721,-5.0,-4.950724,-0.04927653,-2.5045919999999997,-2.4954080000000003,-2.5003,-2.4997,-2.5697,-2.5703,-0.0029988379999999998,0.0029988379999999998,-0.1189423,0.1189423,-0.04892262,-1.073124e-11,1.073124e-11,0.0029988379999999998,0.04592378,0.07002068,0.04892262,-9.855306e-07,9.855306e-07,1.0724310000000001e-11,-1.074341e-11,0.1189433
0.001043013329527627,-0.07434964,-0.06565046,-5.0,-4.948346,-0.05165422,-2.5046180000000002,-2.4953819999999998,-2.500269,-2.499731,-2.569731,-2.5702689999999997,-0.002690526,0.002690526,-0.11882619999999999,0.11882619999999999,-0.04887455,-1.0873369999999999e-11,1.0873369999999999e-11,0.002690526,0.04618402,0.06995274,0.04887455,-1.033084e-06,1.033084e-06,1.085798e-11,-1.082867e-11,0.11882730000000001
0.001045013329527627,-0.07440042,-0.06559944,-5.0,-4.945971,-0.05402958,-2.504642,-2.495358,-2.500241,-2.499759,-2.569759,-2.5702409999999998,-0.002411609,0.002411609,-0.11871040000000001,0.11871040000000001,-0.04882658,-1.100084e-11,1.100084e-11,0.002411609,0.04641497,0.06988487,0.04882658,-1.080592e-06,1.080592e-06,1.092371e-11,-1.097078e-11,0.11871140000000001
0.001047013329527627,-0.0744462,-0.06555367,-5.0,-4.9435970000000005,-0.05640263,-2.5046619999999997,-2.4953380000000003,-2.500216,-2.499784,-2.569784,-2.570216,-0.002159287,0.002159287,-0.11859460000000001,0.11859460000000001,-0.04877871,-1.111503e-11,1.111503e-11,0.002159287,0.04661942,0.06981707,0.04877871,-1.128053e-06,1.128053e-06,1.103873e-11,-1.1084469999999999e-11,0.11859580000000002
0.0010490133295276269,-0.07448697,-0.06551313,-5.0,-4.941226,-0.05877337,-2.50468,-2.49532,-2.500193,-2.499807,-2.569807,-2.570193,-0.001931027,0.001931027,-0.11847910000000002,0.11847910000000002,-0.04873093,-1.1217219999999999e-11,1.1217219999999999e-11,0.001931027,0.04679991,0.06974933,0.04873093,-1.175467e-06,1.175467e-06,1.117417e-11,-1.114131e-11,0.11848030000000001
0.001051013329527627,-0.07452345,-0.06547642,-5.0,-4.938858,-0.0611418,-2.504696,-2.495304,-2.500172,-2.499828,-2.569828,-2.570172,-0.001724535,0.001724535,-0.11836369999999999,0.11836369999999999,-0.04868324,-1.130854e-11,1.130854e-11,0.001724535,0.04695871,0.06968166,0.04868324,-1.2228360000000001e-06,1.2228360000000001e-06,1.135314e-11,-1.116973e-11,0.1183649
0.001053013329527627,-0.07455611,-0.06544399,-5.0,-4.936491999999999,-0.06350791,-2.5047099999999998,-2.4952900000000002,-2.500154,-2.499846,-2.569846,-2.570154,-0.0015377379999999999,0.0015377379999999999,-0.11824839999999999,0.11824839999999999,-0.04863565,-1.139004e-11,1.139004e-11,0.0015377379999999999,0.04709791,0.06961406,0.04863565,-1.270158e-06,1.270158e-06,1.13749e-11,-1.1397110000000001e-11,0.11824970000000001
0.001055013329527626,-0.07458544,-0.06541467,-5.0,-4.934128,-0.06587173,-2.504722,-2.495278,-2.500137,-2.499863,-2.5698630000000002,-2.570137,-0.001368759,0.001368759,-0.11813330000000001,0.11813330000000001,-0.04858813,-1.146265e-11,1.146265e-11,0.001368759,0.04721937,0.06954652,0.04858813,-1.3174350000000002e-06,1.3174350000000002e-06,1.1479260000000001e-11,-1.145395e-11,0.1181346
0.001057013329527626,-0.07461119,-0.06538892,-5.0,-4.931767,-0.06823325,-2.5047330000000003,-2.4952669999999997,-2.500122,-2.499878,-2.5698790000000002,-2.570122,-0.0012159010000000001,0.0012159010000000001,-0.1180184,0.1180184,-0.04854069,-1.1527219999999999e-11,1.1527219999999999e-11,0.0012159010000000001,0.04732478,0.06947905,0.04854069,-1.364665e-06,1.364665e-06,1.15481e-11,-1.1539210000000001e-11,0.11801969999999999
0.001059013329527626,-0.07463408,-0.06536603,-5.0,-4.9294080000000005,-0.07059247,-2.504742,-2.495258,-2.500108,-2.499892,-2.569892,-2.5701080000000003,-0.001077628,0.001077628,-0.11790360000000001,0.11790360000000001,-0.04849332,-1.158452e-11,1.158452e-11,0.001077628,0.04741569,0.06941164,0.04849332,-1.411849e-06,1.411849e-06,1.149703e-11,-1.148237e-11,0.117905
0.001061013329527626,-0.0746541,-0.06534576,-5.0,-4.9270510000000005,-0.07294939,-2.5047490000000003,-2.4952509999999997,-2.500095,-2.499905,-2.569905,-2.5700950000000002,-0.0009525508,0.0009525508,-0.11778889999999999,0.11778889999999999,-0.04844603,-1.163523e-11,1.163523e-11,0.0009525508,0.04749347,0.0693443,0.04844603,-1.458988e-06,1.458988e-06,1.162093e-11,-1.151079e-11,0.1177903
0.001063013329527626,-0.07467198,-0.06532788,-5.0,-4.924696,-0.07530402,-2.504756,-2.495244,-2.500084,-2.499916,-2.569916,-2.570084,-0.0008394114,0.0008394114,-0.1176743,0.1176743,-0.0483988,-1.167999e-11,1.167999e-11,0.0008394114,0.04755939,0.06927703,0.0483988,-1.50608e-06,1.50608e-06,1.159828e-11,-1.1596060000000001e-11,0.1176758
0.001065013329527626,-0.07468772,-0.06531215,-5.0,-4.922344,-0.07765637,-2.5047610000000002,-2.4952389999999998,-2.500074,-2.499926,-2.5699259999999997,-2.570074,-0.0007370727,0.0007370727,-0.1175599,0.1175599,-0.04835164,-1.1719369999999999e-11,1.1719369999999999e-11,0.0007370727,0.04761457,0.06920981,0.04835164,-1.5531270000000001e-06,1.5531270000000001e-06,1.1646239999999999e-11,-1.173817e-11,0.1175615
0.001067013329527625,-0.07470155,-0.06529832,-5.0,-4.919993,-0.08000642,-2.504766,-2.495234,-2.500064,-2.499936,-2.569936,-2.570064,-0.0006445058,0.0006445058,-0.11744560000000001,0.11744560000000001,-0.04830455,-1.175389e-11,1.175389e-11,0.0006445058,0.04766005,0.06914267,0.04830455,-1.600128e-06,1.600128e-06,1.167022e-11,-1.162448e-11,0.1174472
0.001069013329527625,-0.07471371,-0.06528616,-5.0,-4.917644999999999,-0.0823542,-2.50477,-2.49523,-2.5000560000000003,-2.4999439999999997,-2.569944,-2.570056,-0.0005607797,0.0005607797,-0.1173315,0.1173315,-0.04825752,-1.178399e-11,1.178399e-11,0.0005607797,0.04769674,0.06907559,0.04825752,-1.647084e-06,1.647084e-06,1.17435e-11,-1.170974e-11,0.11733310000000001
0.001071013329527625,-0.0747242,-0.06527591,-5.0,-4.9153,-0.08469968,-2.504773,-2.495227,-2.500048,-2.499952,-2.5699520000000002,-2.570049,-0.0004850519,0.0004850519,-0.1172174,0.1172174,-0.04821055,-1.1810110000000001e-11,1.1810110000000001e-11,0.0004850519,0.04772551,0.06900857,0.04821055,-1.693994e-06,1.693994e-06,1.1803889999999999e-11,-1.188027e-11,0.1172191
0.001073013329527625,-0.07473326,-0.06526685,-5.0,-4.912957,-0.08704289,-2.504775,-2.495225,-2.5000419999999997,-2.4999580000000003,-2.569958,-2.570042,-0.0004165607,0.0004165607,-0.11710350000000001,0.11710350000000001,-0.04816365,-1.183263e-11,1.183263e-11,0.0004165607,0.04774709,0.06894163,0.04816365,-1.740858e-06,1.740858e-06,1.1730169999999999e-11,-1.185185e-11,0.11710530000000001
0.001075013329527625,-0.07474089,-0.06525922,-5.0,-4.910616,-0.08938383,-2.5047759999999997,-2.4952240000000003,-2.500036,-2.499964,-2.5699650000000003,-2.570035,-0.0003546163,0.0003546163,-0.11698980000000002,0.11698980000000002,-0.0481168,-1.1851889999999999e-11,1.1851889999999999e-11,0.0003546163,0.04776219,0.06887475,0.0481168,-1.7876769999999998e-06,1.7876769999999998e-06,1.184297e-11,-1.176659e-11,0.1169915
0.001077013329527625,-0.07474732,-0.06525254,-5.0,-4.908278,-0.09172248,-2.5047770000000003,-2.4952229999999997,-2.5000299999999998,-2.4999700000000002,-2.56997,-2.57003,-0.0002985951,0.0002985951,-0.1168761,0.1168761,-0.04807001,-1.18682e-11,1.18682e-11,0.0002985951,0.04777141,0.06880793,0.04807001,-1.8344499999999999e-06,1.8344499999999999e-06,1.179323e-11,-1.179501e-11,0.11687789999999999
0.001079013329527624,-0.07475281,-0.06524706,-5.0,-4.905941,-0.09405887,-2.504778,-2.495222,-2.500025,-2.499975,-2.569975,-2.570025,-0.0002479327,0.0002479327,-0.1167626,0.1167626,-0.04802327,-1.188185e-11,1.188185e-11,0.0002479327,0.04777534,0.06874117,0.04802327,-1.881177e-06,1.881177e-06,1.189715e-11,-1.179501e-11,0.1167644
0.001080013329527624,-0.07475519,-0.06524467,-5.0,-4.904774,-0.09522621,-2.504778,-2.495222,-2.500022,-2.499978,-2.569978,-2.5700220000000003,-0.00022444959999999998,0.00022444959999999998,-0.1167058,0.1167058,-0.04799993,-1.188776e-11,1.188776e-11,0.00022444959999999998,0.04777548,0.06870782,0.04799993,-1.9045240000000002e-06,1.9045240000000002e-06,1.191403e-11,-1.176659e-11,0.1167077
0.001081013329527624,-0.07475734,-0.06524277,-5.0,-4.903607,-0.09639299,-2.5047770000000003,-2.4952229999999997,-2.50002,-2.49998,-2.5699799999999997,-2.57002,-0.00020211869999999999,0.00020211869999999999,-0.1166492,0.1166492,-0.04797659,-1.1893089999999999e-11,1.1893089999999999e-11,0.00020211869999999999,0.04777447,0.06867449,0.04797659,-1.92786e-06,1.92786e-06,1.190559e-11,-1.176659e-11,0.1166511
0.001082013329527624,-0.07475924,-0.06524086,-5.0,-4.9024410000000005,-0.0975592,-2.5047770000000003,-2.4952229999999997,-2.500018,-2.499982,-2.569982,-2.570018,-0.0001808836,0.0001808836,-0.1165925,0.1165925,-0.04795327,-1.189788e-11,1.189788e-11,0.0001808836,0.04777239,0.06864117,0.04795327,-1.951184e-06,1.951184e-06,1.18634e-11,-1.179501e-11,0.1165944
0.001083013329527624,-0.07476091,-0.06523919,-5.0,-4.901275,-0.09872483,-2.5047770000000003,-2.4952229999999997,-2.500016,-2.499984,-2.569984,-2.570016,-0.0001606909,0.0001606909,-0.1165358,0.1165358,-0.04792996,-1.190215e-11,1.190215e-11,0.0001606909,0.04776927,0.06860787,0.04792996,-1.974497e-06,1.974497e-06,1.1822539999999999e-11,-1.188027e-11,0.1165378
0.001084013329527624,-0.07476234,-0.06523776,-5.0,-4.90011,-0.09988991,-2.5047759999999997,-2.4952240000000003,-2.5000139999999997,-2.4999860000000003,-2.569986,-2.570014,-0.0001414898,0.0001414898,-0.11647919999999999,0.11647919999999999,-0.04790667,-1.190592e-11,1.190592e-11,0.0001414898,0.04776518,0.06857458,0.04790667,-1.997798e-06,1.997798e-06,1.184253e-11,-1.1965539999999999e-11,0.1164812
0.001085013329527624,-0.07476377,-0.06523633,-5.0,-4.898944999999999,-0.1010544,-2.5047759999999997,-2.4952240000000003,-2.500012,-2.499988,-2.569988,-2.5700119999999997,-0.0001232316,0.0001232316,-0.11642269999999999,0.11642269999999999,-0.04788339,-1.190923e-11,1.190923e-11,0.0001232317,0.04776016,0.0685413,0.04788339,-2.021088e-06,2.021088e-06,1.18936e-11,-1.199396e-11,0.1164247
0.001086013329527624,-0.07476497,-0.06523514,-5.0,-4.897781,-0.1022184,-2.5047759999999997,-2.4952240000000003,-2.50001,-2.49999,-2.569989,-2.570011,-0.00010587059999999999,0.00010587059999999999,-0.1163661,0.1163661,-0.04786012,-1.19121e-11,1.19121e-11,0.00010587059999999999,0.04775425,0.06850804,0.04786012,-2.044367e-06,2.044367e-06,1.19158e-11,-1.1965539999999999e-11,0.1163682
0.0010870133295276241,-0.07476592,-0.06523418,-5.0,-4.896618,-0.1033817,-2.504775,-2.495225,-2.500009,-2.499991,-2.569991,-2.570009,-8.936269e-05,8.936269e-05,-0.1163096,0.1163096,-0.04783687,-1.191454e-11,1.191454e-11,8.936270000000001e-05,0.04774751,0.06847481,0.04783687,-2.067635e-06,2.067635e-06,1.192291e-11,-1.193712e-11,0.11631169999999999
0.001088013329527624,-0.07476664,-0.06523323,-5.0,-4.895455,-0.10454460000000002,-2.5047740000000003,-2.4952259999999997,-2.500007,-2.499993,-2.569993,-2.570007,-7.366637e-05,7.366637e-05,-0.1162531,0.1162531,-0.04781363,-1.191657e-11,1.191657e-11,7.366638000000001e-05,0.04773996,0.06844158,0.04781363,-2.090891e-06,2.090891e-06,1.190781e-11,-1.193712e-11,0.11625519999999999
0.001089013329527624,-0.07476735,-0.06523275,-5.0,-4.894293,-0.1057068,-2.504773,-2.495227,-2.500006,-2.499994,-2.569994,-2.5700060000000002,-5.874196999999999e-05,5.874196999999999e-05,-0.11619669999999999,0.11619669999999999,-0.0477904,-1.191823e-11,1.191823e-11,5.874199000000001e-05,0.04773166,0.06840838,0.0477904,-2.114136e-06,2.114136e-06,1.189138e-11,-1.19087e-11,0.1161988
