time,"V(N008,N005)","V(N009,N004)",V(n001),V(n002),V(n003),V(n004),V(n005),V(n006),V(n007),V(n008),V(n009),V(nc_01),V(nc_02),V(nc_03),V(nc_04),I(C1),I(C2),I(C3),I(C4),I(R1),I(R2),I(R3),I(R4),I(R5),I(R6),I(R7),I(R8),I(R9),I(V1),I(V2),I(V3),I(V4),I(V5)
0.0,-0.07,-0.07,0.0,-2.1000000000000002e-20,-2.1000000000000002e-20,-2.1021e-20,-2.1021e-20,-2.102098e-20,-2.102098e-20,-0.07,-0.07,0.0,0.0,0.0,0.0,4.199999999999999e-25,4.199999999999999e-25,1.0499999999999998e-38,1.0499999999999998e-38,-4.168962999999999e-35,-4.168962999999999e-35,0.0,0.0,0.0,4.199999999999999e-25,4.199999999999999e-25,4.199999999999999e-25,4.199999999999999e-25,-1.2611689999999998e-43,-1.2611689999999998e-43,-4.199999999999999e-25,0.0,0.0
0.0001006310719994779,-0.07000001,-0.07000001,0.0,-9.103943000000001e-14,-9.103943000000001e-14,-1.141741e-13,-1.141741e-13,-7.44585e-09,-7.44585e-09,-0.07000001,-0.07000001,0.0,0.0,0.0,0.0,4.4407949999999995e-16,4.4407949999999995e-16,4.608731e-16,4.608731e-16,1.8614349999999998e-17,1.8614349999999998e-17,0.0,-1.893266e-29,-1.0917839999999998e-29,4.626931e-16,4.626931e-16,1.820789e-18,1.820789e-18,-1.8614349999999998e-17,-1.8614349999999998e-17,-4.626939e-16,0.0,0.0
0.0002030310719994804,-0.07000002,-0.07000002,0.0,-1.8717079999999998e-13,-1.8717079999999998e-13,-2.1125279999999998e-13,-2.1125279999999998e-13,-1.502491e-08,-1.502491e-08,-0.07000002,-0.07000002,0.0,0.0,0.0,0.0,4.4407990000000003e-16,4.4407990000000003e-16,4.778974e-16,4.778974e-16,3.756176e-17,3.756176e-17,0.0,4.6700569999999994e-29,-4.4933519999999995e-29,4.816404e-16,4.816404e-16,3.743416e-18,3.743416e-18,-3.756175e-17,-3.756175e-17,-4.816408e-16,0.0,0.0
0.0003054310719994828,-0.07000002,-0.07000002,0.0,-2.867817e-13,-2.867817e-13,-3.118111e-13,-3.118111e-13,-2.260398e-08,-2.260398e-08,-0.07000002,-0.07000002,0.0,0.0,0.0,0.0,4.4408070000000003e-16,4.4408070000000003e-16,4.948533999999999e-16,4.948533999999999e-16,5.650917e-17,5.650917e-17,0.0,1.767049e-29,-4.34189e-29,5.005877e-16,5.005877e-16,5.735634e-18,5.735634e-18,-5.650904e-17,-5.650925e-17,-5.00589e-16,0.0,0.0
0.0004078310719994853,-0.07000003,-0.07000003,0.0,-3.898579e-13,-3.898579e-13,-4.158347e-13,-4.158347e-13,-3.0183049999999996e-08,-3.0183049999999996e-08,-0.07000003,-0.07000003,0.0,0.0,0.0,0.0,4.4407990000000003e-16,4.4407990000000003e-16,5.117388e-16,5.117388e-16,7.545659e-17,7.545659e-17,0.0,5.301145999999999e-29,-6.61381e-29,5.195350000000001e-16,5.195350000000001e-16,7.797158999999999e-18,7.797158999999999e-18,-7.545632e-17,-7.545632e-17,-5.195359e-16,0.0,0.0
0.0005102310719994759,-0.07000004,-0.07000004,0.0,-4.963853e-13,-4.963853e-13,-5.233095e-13,-5.233095e-13,-3.776212e-08,-3.776212e-08,-0.07000004,-0.07000004,0.0,0.0,0.0,0.0,4.440803e-16,4.440803e-16,5.285567999999999e-16,5.285567999999999e-16,9.4404e-17,9.4404e-17,0.0,-1.21169e-28,-5.301145e-29,5.384844999999999e-16,5.384844999999999e-16,9.927707e-18,9.927707e-18,-9.440376e-17,-9.440408000000001e-17,-5.384844999999999e-16,0.0,0.0
0.0006126310719994229,-0.07000005,-0.07000005,0.0,-6.063498e-13,-6.063498e-13,-6.342213e-13,-6.342213e-13,-4.534119e-08,-4.534119e-08,-0.07000005,-0.07000005,0.0,0.0,0.0,0.0,4.44079e-16,4.44079e-16,5.453044e-16,5.453044e-16,1.133514e-16,1.133514e-16,0.0,4.7962749999999993e-29,-1.342957e-28,5.57431e-16,5.57431e-16,1.2127e-17,1.2127e-17,-1.13351e-16,-1.133514e-16,-5.574314e-16,0.0,0.0
0.0007150310719993699,-0.07000005,-0.07000005,0.0,-7.197371999999999e-13,-7.197371999999999e-13,-7.485562e-13,-7.485562e-13,-5.292027e-08,-5.292027e-08,-0.07000005,-0.07000005,0.0,0.0,0.0,0.0,4.4407990000000003e-16,4.4407990000000003e-16,5.61984e-16,5.61984e-16,1.322988e-16,1.322988e-16,0.0,3.382636e-28,-1.459077e-28,5.763783e-16,5.763783e-16,1.439474e-17,1.439474e-17,-1.322989e-16,-1.322993e-16,-5.763787e-16,0.0,0.0
0.0008174310719993169,-0.07000006,-0.07000006,0.0,-8.365335999999999e-13,-8.365335999999999e-13,-8.662999e-13,-8.662999e-13,-6.049934999999999e-08,-6.049934999999999e-08,-0.07000006,-0.07000006,0.0,0.0,0.0,0.0,4.440803e-16,4.440803e-16,5.785949e-16,5.785949e-16,1.5124619999999999e-16,1.5124619999999999e-16,0.0,-5.048709e-30,-1.247031e-28,5.953256e-16,5.953256e-16,1.673067e-17,1.673067e-17,-1.512465e-16,-1.512456e-16,-5.953256e-16,0.0,0.0
0.0009198310719992637,-0.07000007,-0.07000007,0.0,-9.567252e-13,-9.567252e-13,-9.874389e-13,-9.874389e-13,-6.807844e-08,-6.807844e-08,-0.07000007,-0.07000007,0.0,0.0,0.0,0.0,4.44079e-16,4.44079e-16,5.951388e-16,5.951388e-16,1.701936e-16,1.701936e-16,0.0,-1.110716e-28,-8.279884e-29,6.142734e-16,6.142734e-16,1.9134500000000002e-17,1.9134500000000002e-17,-1.70193e-16,-1.701936e-16,-6.142734e-16,0.0,0.0
0.00102223107199926,-0.07000007,-0.07000007,0.0,-1.080298e-12,-1.080298e-12,-1.111959e-12,-1.111959e-12,-7.565753e-08,-7.565753e-08,-0.07000007,-0.07000007,0.0,0.0,0.0,0.0,4.440803e-16,4.440803e-16,6.116151999999999e-16,6.116151999999999e-16,1.891411e-16,1.891411e-16,0.0,5.048708e-30,-8.885728999999999e-29,6.332211e-16,6.332211e-16,2.1605959999999998e-17,2.1605959999999998e-17,-1.891404e-16,-1.891421e-16,-6.332211e-16,0.0,0.0
0.001124631071999318,-0.07000008,-0.07000008,0.0,-1.2072379999999999e-12,-1.2072379999999999e-12,-1.239846e-12,-1.239846e-12,-8.323661999999999e-08,-8.323661999999999e-08,-0.07000008,-0.07000008,0.0,0.0,0.0,0.0,4.4407990000000003e-16,4.4407990000000003e-16,6.280237e-16,6.280237e-16,2.080885e-16,2.080885e-16,0.0,4.0389679999999996e-29,-2.362796e-28,6.521685e-16,6.521685e-16,2.4144760000000002e-17,2.4144760000000002e-17,-2.080883e-16,-2.0808909999999998e-16,-6.521685e-16,0.0,0.0
0.001227031071999376,-0.07000009,-0.07000009,0.0,-1.337532e-12,-1.337532e-12,-1.371087e-12,-1.371087e-12,-9.081572e-08,-9.081572e-08,-0.07000009,-0.07000009,0.0,0.0,0.0,0.0,4.44079e-16,4.44079e-16,6.443643e-16,6.443643e-16,2.270359e-16,2.270359e-16,0.0,-2.625329e-28,-2.46377e-28,6.711152999999999e-16,6.711152999999999e-16,2.6750630000000004e-17,2.6750630000000004e-17,-2.270352e-16,-2.2703599999999997e-16,-6.711149000000001e-16,0.0,0.0
0.001329431071999434,-0.0700001,-0.0700001,0.0,-1.471165e-12,-1.471165e-12,-1.505668e-12,-1.505668e-12,-9.839480999999999e-08,-9.839480999999999e-08,-0.0700001,-0.0700001,0.0,0.0,0.0,0.0,4.440803e-16,4.440803e-16,6.606398e-16,6.606398e-16,2.459833e-16,2.459833e-16,0.0,5.250658e-28,-1.827633e-28,6.900627e-16,6.900627e-16,2.9423299999999997e-17,2.9423299999999997e-17,-2.459839e-16,-2.459839e-16,-6.9006309999999995e-16,0.0,0.0
0.001431831071999492,-0.0700001,-0.0700001,0.0,-1.608125e-12,-1.608125e-12,-1.6435759999999999e-12,-1.6435759999999999e-12,-1.0597389999999999e-07,-1.0597389999999999e-07,-0.0700001,-0.0700001,0.0,0.0,0.0,0.0,4.440786e-16,4.440786e-16,6.768478999999999e-16,6.768478999999999e-16,2.6493069999999997e-16,2.6493069999999997e-16,0.0,-5.048709999999999e-29,-1.787243e-28,7.090103999999999e-16,7.090103999999999e-16,3.21625e-17,3.21625e-17,-2.649299e-16,-2.6493120000000003e-16,-7.090103999999999e-16,0.0,0.0
0.00153423107199955,-0.07000011,-0.07000011,0.0,-1.748398e-12,-1.748398e-12,-1.7847950000000002e-12,-1.7847950000000002e-12,-1.13553e-07,-1.13553e-07,-0.07000011,-0.07000011,0.0,0.0,0.0,0.0,4.4407949999999995e-16,4.4407949999999995e-16,6.929894e-16,6.929894e-16,2.838781e-16,2.838781e-16,0.0,-1.5146129999999999e-28,-2.170945e-28,7.279564999999999e-16,7.279564999999999e-16,3.4967950000000004e-17,3.4967950000000004e-17,-2.8387860000000004e-16,-2.838778e-16,-7.279572999999999e-16,0.0,0.0
0.001636631071999608,-0.07000012,-0.07000012,0.0,-1.891969e-12,-1.891969e-12,-1.929315e-12,-1.929315e-12,-1.211321e-07,-1.211321e-07,-0.07000012,-0.07000012,0.0,0.0,0.0,0.0,4.4407949999999995e-16,4.4407949999999995e-16,7.090653e-16,7.090653e-16,3.028255e-16,3.028255e-16,0.0,-1.5146129999999999e-28,-3.332148e-28,7.469055e-16,7.469055e-16,3.783938e-17,3.783938e-17,-3.028273e-16,-3.028248e-16,-7.469047e-16,0.0,0.0
0.001739031071999666,-0.07000013,-0.07000013,0.0,-2.038826e-12,-2.038826e-12,-2.0771189999999998e-12,-2.0771189999999998e-12,-1.287112e-07,-1.287112e-07,-0.07000013,-0.07000013,0.0,0.0,0.0,0.0,4.4407949999999995e-16,4.4407949999999995e-16,7.250763e-16,7.250763e-16,3.217729e-16,3.217729e-16,0.0,2.221432e-28,-2.807083e-28,7.658524000000001e-16,7.658524000000001e-16,4.077653e-17,4.077653e-17,-3.217717e-16,-3.217722e-16,-7.658528e-16,0.0,0.0
0.0018414310719997238,-0.07000013,-0.07000013,0.0,-2.107117e-12,-2.107117e-12,-2.1233150000000002e-12,-2.1233150000000002e-12,-1.295847e-07,-1.295847e-07,-0.07000013,-0.07000013,0.0,0.0,0.0,0.0,-1.6940659999999998e-21,-1.6940659999999998e-21,2.818129e-16,2.818129e-16,3.239563e-16,3.239563e-16,0.0,-1.948802e-27,-3.79663e-28,3.239553e-16,3.239553e-16,4.2142340000000003e-17,4.2142340000000003e-17,-3.239559e-16,-3.239572e-16,-3.239553e-16,0.0,0.0
0.001943831071999782,-0.07000013,-0.07000013,0.0,-2.164714e-12,-2.164714e-12,-2.1809119999999998e-12,-2.1809119999999998e-12,-1.295847e-07,-1.295847e-07,-0.07000013,-0.07000013,0.0,0.0,0.0,0.0,-1.6940659999999998e-21,-1.6940659999999998e-21,2.8066100000000003e-16,2.8066100000000003e-16,3.239563e-16,3.239563e-16,0.0,-2.1204579999999996e-27,-5.2708529999999995e-28,3.239553e-16,3.239553e-16,4.329429e-17,4.329429e-17,-3.239562e-16,-3.239562e-16,-3.239553e-16,0.0,0.0
0.002046231071999638,-0.07000013,-0.07000013,0.0,-2.222076e-12,-2.222076e-12,-2.2382740000000002e-12,-2.2382740000000002e-12,-1.295848e-07,-1.295848e-07,-0.07000013,-0.07000013,0.0,0.0,0.0,0.0,-4.235164999999999e-22,-4.235164999999999e-22,2.7951419999999996e-16,2.7951419999999996e-16,3.239563e-16,3.239563e-16,0.0,-1.6660739999999998e-27,-3.776435e-28,3.239549e-16,3.239549e-16,4.444153e-17,4.444153e-17,-3.239545e-16,-3.2395709999999997e-16,-3.239557e-16,0.0,0.0
0.002148631071999474,-0.07000013,-0.07000013,0.0,-2.279204e-12,-2.279204e-12,-2.295401e-12,-2.295401e-12,-1.295848e-07,-1.295848e-07,-0.07000013,-0.07000013,0.0,0.0,0.0,0.0,-8.470329e-22,-8.470329e-22,2.783712e-16,2.783712e-16,3.239563e-16,3.239563e-16,0.0,-2.1103609999999998e-27,-7.815403e-28,3.239549e-16,3.239549e-16,4.558407e-17,4.558407e-17,-3.239548e-16,-3.239577e-16,-3.239553e-16,0.0,0.0
0.0022510310719993103,-0.07000013,-0.07000013,0.0,-2.336275e-12,-2.336275e-12,-2.352475e-12,-2.352475e-12,-1.295997e-07,-1.295997e-07,-0.07000013,-0.07000013,0.0,0.0,0.0,0.0,0.0,0.0,2.772671e-16,2.772671e-16,3.239933e-16,3.239933e-16,0.0,-3.029225e-29,-2.564745e-28,3.2399259999999994e-16,3.2399259999999994e-16,4.672550999999999e-17,4.672550999999999e-17,-3.2399139999999996e-16,-3.239939e-16,-3.2399259999999994e-16,0.0,0.0
0.0023534310719991462,-0.07000013,-0.07000013,0.0,-2.392944e-12,-2.392944e-12,-2.409144e-12,-2.409144e-12,-1.295998e-07,-1.295998e-07,-0.07000013,-0.07000013,0.0,0.0,0.0,0.0,0.0,0.0,2.7613540000000003e-16,2.7613540000000003e-16,3.239933e-16,3.239933e-16,0.0,-5.553580999999999e-28,-3.1301999999999997e-28,3.2399430000000003e-16,3.2399430000000003e-16,4.785888e-17,4.785888e-17,-3.239895e-16,-3.239958e-16,-3.2399430000000003e-16,0.0,0.0
0.002455831071998982,-0.07000013,-0.07000013,0.0,-2.449381e-12,-2.449381e-12,-2.46558e-12,-2.46558e-12,-1.295998e-07,-1.295998e-07,-0.07000013,-0.07000013,0.0,0.0,0.0,0.0,0.0,0.0,2.7500499999999997e-16,2.7500499999999997e-16,3.239933e-16,3.239933e-16,0.0,5.048709999999999e-29,-1.87812e-28,3.2399259999999994e-16,3.2399259999999994e-16,4.8987609999999995e-17,4.8987609999999995e-17,-3.2399240000000003e-16,-3.239945e-16,-3.2399259999999994e-16,0.0,0.0
0.002558231071998818,-0.07000013,-0.07000013,0.0,-2.505586e-12,-2.505586e-12,-2.521786e-12,-2.521786e-12,-1.295999e-07,-1.295999e-07,-0.07000013,-0.07000013,0.0,0.0,0.0,0.0,0.0,0.0,2.7388089999999996e-16,2.7388089999999996e-16,3.239933e-16,3.239933e-16,0.0,-8.885728999999998e-28,-5.755529e-28,3.2399259999999994e-16,3.2399259999999994e-16,5.011173e-17,5.011173e-17,-3.2399169999999996e-16,-3.239951e-16,-3.2399259999999994e-16,0.0,0.0
0.002660631071998654,-0.07000013,-0.07000013,0.0,-2.561563e-12,-2.561563e-12,-2.577762e-12,-2.577762e-12,-1.295999e-07,-1.295999e-07,-0.07000013,-0.07000013,0.0,0.0,0.0,0.0,0.0,0.0,2.727626e-16,2.727626e-16,3.239933e-16,3.239933e-16,0.0,-6.765271000000001e-28,-5.573776e-28,3.2399299999999997e-16,3.2399299999999997e-16,5.123124999999999e-17,5.123124999999999e-17,-3.239919e-16,-3.239936e-16,-3.239939e-16,0.0,0.0
0.0027630310719984896,-0.07000013,-0.07000013,0.0,-2.61731e-12,-2.61731e-12,-2.6335099999999998e-12,-2.6335099999999998e-12,-1.296e-07,-1.296e-07,-0.07000013,-0.07000013,0.0,0.0,0.0,0.0,-4.235164999999999e-22,-4.235164999999999e-22,2.7164679999999997e-16,2.7164679999999997e-16,3.239933e-16,3.239933e-16,0.0,-4.240916e-28,-3.150395e-28,3.239934e-16,3.239934e-16,5.2346199999999997e-17,5.2346199999999997e-17,-3.2399130000000003e-16,-3.2399430000000003e-16,-3.2399299999999997e-16,0.0,0.0
0.002865431071998326,-0.07000013,-0.07000013,0.0,-2.67283e-12,-2.67283e-12,-2.689029e-12,-2.689029e-12,-1.296e-07,-1.296e-07,-0.07000013,-0.07000013,0.0,0.0,0.0,0.0,-4.235164999999999e-22,-4.235164999999999e-22,2.705364e-16,2.705364e-16,3.239933e-16,3.239933e-16,0.0,2.625329e-28,-4.240916e-28,3.239939e-16,3.239939e-16,5.345659e-17,5.345659e-17,-3.239922e-16,-3.239947e-16,-3.2399299999999997e-16,0.0,0.0
0.002967831071998162,-0.07000013,-0.07000013,0.0,-2.7281220000000002e-12,-2.7281220000000002e-12,-2.744322e-12,-2.744322e-12,-1.2960010000000001e-07,-1.2960010000000001e-07,-0.07000013,-0.07000013,0.0,0.0,0.0,0.0,-4.235164999999999e-22,-4.235164999999999e-22,2.69431e-16,2.69431e-16,3.239933e-16,3.239933e-16,0.0,-3.534097e-28,-3.897604e-28,3.239939e-16,3.239939e-16,5.4562440000000004e-17,5.4562440000000004e-17,-3.239908e-16,-3.239954e-16,-3.239934e-16,0.0,0.0
0.003070231071997998,-0.07000013,-0.07000013,0.0,-2.783189e-12,-2.783189e-12,-2.799388e-12,-2.799388e-12,-1.296002e-07,-1.296002e-07,-0.07000013,-0.07000013,0.0,0.0,0.0,0.0,0.0,0.0,2.683301e-16,2.683301e-16,3.239933e-16,3.239933e-16,0.0,-4.644812999999999e-28,-6.603711999999999e-28,3.2399299999999997e-16,3.2399299999999997e-16,5.566378000000001e-17,5.566378000000001e-17,-3.2399240000000003e-16,-3.239936e-16,-3.239939e-16,0.0,0.0
0.003172631071997834,-0.07000013,-0.07000013,0.0,-2.8380299999999998e-12,-2.8380299999999998e-12,-2.85423e-12,-2.85423e-12,-1.296002e-07,-1.296002e-07,-0.07000013,-0.07000013,0.0,0.0,0.0,0.0,0.0,0.0,2.672324e-16,2.672324e-16,3.239933e-16,3.239933e-16,0.0,8.077935999999999e-29,-8.421248e-28,3.239939e-16,3.239939e-16,5.67606e-17,5.67606e-17,-3.2399139999999996e-16,-3.239948e-16,-3.2399299999999997e-16,0.0,0.0
0.00327503107199767,-0.07000013,-0.07000013,0.0,-2.892647e-12,-2.892647e-12,-2.908847e-12,-2.908847e-12,-1.296003e-07,-1.296003e-07,-0.07000013,-0.07000013,0.0,0.0,0.0,0.0,4.235164999999999e-22,4.235164999999999e-22,2.661409e-16,2.661409e-16,3.239933e-16,3.239933e-16,0.0,1.8175349999999997e-28,-6.522932999999999e-28,3.2399299999999997e-16,3.2399299999999997e-16,5.785295e-17,5.785295e-17,-3.239916e-16,-3.2399419999999995e-16,-3.239939e-16,0.0,0.0
0.003377431071997506,-0.07000013,-0.07000013,0.0,-2.947041e-12,-2.947041e-12,-2.963241e-12,-2.963241e-12,-1.296003e-07,-1.296003e-07,-0.07000013,-0.07000013,0.0,0.0,0.0,0.0,-4.235164999999999e-22,-4.235164999999999e-22,2.650517e-16,2.650517e-16,3.239933e-16,3.239933e-16,0.0,3.433123e-28,2.160848e-28,3.2399259999999994e-16,3.2399259999999994e-16,5.894083000000001e-17,5.894083000000001e-17,-3.239916e-16,-3.2399419999999995e-16,-3.2399259999999994e-16,0.0,0.0
0.003479831071997342,-0.07000013,-0.07000013,0.0,-3.001213e-12,-3.001213e-12,-3.0174130000000003e-12,-3.0174130000000003e-12,-1.296004e-07,-1.296004e-07,-0.07000013,-0.07000013,0.0,0.0,0.0,0.0,4.235164999999999e-22,4.235164999999999e-22,2.639696e-16,2.639696e-16,3.239933e-16,3.239933e-16,0.0,-1.615587e-28,-2.5445499999999997e-28,3.2399299999999997e-16,3.2399299999999997e-16,6.002426e-17,6.002426e-17,-3.2399169999999996e-16,-3.2399430000000003e-16,-3.239939e-16,0.0,0.0
0.003582231071997178,-0.07000013,-0.07000013,0.0,-3.055164e-12,-3.055164e-12,-3.071363e-12,-3.071363e-12,-1.296004e-07,-1.296004e-07,-0.07000013,-0.07000013,0.0,0.0,0.0,0.0,-4.235164999999999e-22,-4.235164999999999e-22,2.628893e-16,2.628893e-16,3.239933e-16,3.239933e-16,0.0,-5.04871e-28,-1.8579249999999999e-28,3.2399259999999994e-16,3.2399259999999994e-16,6.110327e-17,6.110327e-17,-3.239923e-16,-3.2399400000000003e-16,-3.2399259999999994e-16,0.0,0.0
0.003684631071997014,-0.07000013,-0.07000013,0.0,-3.1088930000000002e-12,-3.1088930000000002e-12,-3.125093e-12,-3.125093e-12,-1.296005e-07,-1.296005e-07,-0.07000013,-0.07000013,0.0,0.0,0.0,0.0,4.235164999999999e-22,4.235164999999999e-22,2.618156e-16,2.618156e-16,3.239933e-16,3.239933e-16,0.0,-3.1301999999999997e-28,-5.63436e-28,3.2399299999999997e-16,3.2399299999999997e-16,6.217786e-17,6.217786e-17,-3.239927e-16,-3.2399350000000003e-16,-3.239934e-16,0.0,0.0
0.00378703107199685,-0.07000013,-0.07000013,0.0,-3.162403e-12,-3.162403e-12,-3.178603e-12,-3.178603e-12,-1.296005e-07,-1.296005e-07,-0.07000013,-0.07000013,0.0,0.0,0.0,0.0,4.235164999999999e-22,4.235164999999999e-22,2.607458e-16,2.607458e-16,3.239933e-16,3.239933e-16,0.0,-8.077935e-29,-1.7569509999999997e-28,3.2399299999999997e-16,3.2399299999999997e-16,6.324807e-17,6.324807e-17,-3.2399169999999996e-16,-3.239934e-16,-3.239939e-16,0.0,0.0
0.003889431071996686,-0.07000013,-0.07000013,0.0,-3.215695e-12,-3.215695e-12,-3.2318939999999998e-12,-3.2318939999999998e-12,-1.296006e-07,-1.296006e-07,-0.07000013,-0.07000013,0.0,0.0,0.0,0.0,0.0,0.0,2.5968e-16,2.5968e-16,3.239933e-16,3.239933e-16,0.0,-3.7360449999999995e-28,-8.885728999999999e-29,3.239939e-16,3.239939e-16,6.431388999999999e-17,6.431388999999999e-17,-3.2399240000000003e-16,-3.239941e-16,-3.239939e-16,0.0,0.0
0.003991831071996892,-0.07000013,-0.07000013,0.0,-3.268768e-12,-3.268768e-12,-3.284968e-12,-3.284968e-12,-1.296006e-07,-1.296006e-07,-0.07000013,-0.07000013,0.0,0.0,0.0,0.0,-4.235164999999999e-22,-4.235164999999999e-22,2.586172e-16,2.586172e-16,3.239933e-16,3.239933e-16,0.0,-2.423381e-28,-6.906635e-28,3.2399259999999994e-16,3.2399259999999994e-16,6.537536999999998e-17,6.537536999999998e-17,-3.239928e-16,-3.239928e-16,-3.2399259999999994e-16,0.0,0.0
0.0040942310719971715,-0.07000013,-0.07000013,0.0,-3.321625e-12,-3.321625e-12,-3.337825e-12,-3.337825e-12,-1.296007e-07,-1.296007e-07,-0.07000013,-0.07000013,0.0,0.0,0.0,0.0,4.235164999999999e-22,4.235164999999999e-22,2.575618e-16,2.575618e-16,3.239933e-16,3.239933e-16,0.0,-6.361375e-28,-7.875986999999999e-28,3.2399430000000003e-16,3.2399430000000003e-16,6.643250000000001e-17,6.643250000000001e-17,-3.239909e-16,-3.239951e-16,-3.2399430000000003e-16,0.0,0.0
0.004196631071997452,-0.07000013,-0.07000013,0.0,-3.3742650000000003e-12,-3.3742650000000003e-12,-3.390465e-12,-3.390465e-12,-1.296007e-07,-1.296007e-07,-0.07000013,-0.07000013,0.0,0.0,0.0,0.0,4.235164999999999e-22,4.235164999999999e-22,2.5650849999999998e-16,2.5650849999999998e-16,3.239933e-16,3.239933e-16,0.0,-6.159426e-28,-5.452607e-28,3.2399299999999997e-16,3.2399299999999997e-16,6.748531e-17,6.748531e-17,-3.239923e-16,-3.2399400000000003e-16,-3.239939e-16,0.0,0.0
0.0042990310719977325,-0.07000013,-0.07000013,0.0,-3.4266910000000004e-12,-3.4266910000000004e-12,-3.4428910000000003e-12,-3.4428910000000003e-12,-1.2960079999999999e-07,-1.2960079999999999e-07,-0.07000013,-0.07000013,0.0,0.0,0.0,0.0,0.0,0.0,2.554601e-16,2.554601e-16,3.239933e-16,3.239933e-16,0.0,-1.8175349999999997e-28,-5.169879e-28,3.239939e-16,3.239939e-16,6.853382e-17,6.853382e-17,-3.239903e-16,-3.239954e-16,-3.239939e-16,0.0,0.0
0.004401431071998013,-0.07000013,-0.07000013,0.0,-3.4789019999999996e-12,-3.4789019999999996e-12,-3.495102e-12,-3.495102e-12,-1.2960079999999999e-07,-1.2960079999999999e-07,-0.07000013,-0.07000013,0.0,0.0,0.0,0.0,0.0,0.0,2.544158e-16,2.544158e-16,3.239933e-16,3.239933e-16,0.0,-3.8370199999999995e-28,-6.3815689999999995e-28,3.239939e-16,3.239939e-16,6.957804e-17,6.957804e-17,-3.239897e-16,-3.239961e-16,-3.239939e-16,0.0,0.0
