time,"V(N008,N005)","V(N009,N004)",V(n001),V(n002),V(n003),V(n004),V(n005),V(n006),V(n007),V(n008),V(n009),V(nc_01),V(nc_02),V(nc_03),V(nc_04),V(nc_05),V(nc_06),I(C1),I(C2),I(C3),I(C4),I(R1),I(R2),I(R3),I(R4),I(R5),I(R6),I(R7),I(R8),I(V1),I(V2),I(V3),I(V5),I(V6),I(V7)
0.0,-0.07,-0.07,0.0,-2.1000000000000002e-20,-2.1000000000000002e-20,-2.1021e-20,-2.1021e-20,-2.102098e-20,-2.102098e-20,-0.07,-0.07,0.0,0.0,-0.07,0.0,0.0,0.0,4.199999999999999e-25,4.199999999999999e-25,1.0499999999999998e-38,1.0499999999999998e-38,-4.168962999999999e-35,-4.168962999999999e-35,0.0,0.0,4.199999999999999e-25,4.199999999999999e-25,4.199999999999999e-25,4.199999999999999e-25,-1.2611689999999998e-43,-1.2611689999999998e-43,0.0,0.0,0.0,-4.199999999999999e-25
0.001006310719994777,-0.07000009,-0.07000009,0.0,-1.391927e-12,-1.391927e-12,-1.4034709999999998e-12,-1.4034709999999998e-12,-9.235272e-08,-9.235272e-08,-0.07000009,-0.07000009,0.0,0.0,-0.07,0.0,0.0,0.0,2.646978e-23,2.646978e-23,2.030398e-16,2.030398e-16,2.3087830000000003e-16,2.3087830000000003e-16,0.0,-2.5243549999999998e-30,2.308784e-16,2.308784e-16,2.783854e-17,2.783854e-17,-1.684165e-17,-1.684165e-17,0.0,0.0,0.0,-2.308784e-16
0.002030310719994708,-0.07000009,-0.07000009,0.0,-1.7993509999999998e-12,-1.7993509999999998e-12,-1.810895e-12,-1.810895e-12,-9.235313e-08,-9.235313e-08,-0.07000009,-0.07000009,0.0,0.0,-0.07,0.0,0.0,0.0,-1.0587909999999999e-22,-1.0587909999999999e-22,1.948912e-16,1.948912e-16,2.3087830000000003e-16,2.3087830000000003e-16,0.0,-2.5243549999999998e-30,2.308782e-16,2.308782e-16,3.598703e-17,3.598703e-17,2.003139e-16,2.003139e-16,0.0,0.0,0.0,-2.308782e-16
0.0030543107199948443,-0.07000009,-0.07000009,0.0,-2.190425e-12,-2.190425e-12,-2.201969e-12,-2.201969e-12,-9.235352e-08,-9.235352e-08,-0.07000009,-0.07000009,0.0,0.0,-0.07,0.0,0.0,0.0,-5.293956e-23,-5.293956e-23,1.8706979999999999e-16,1.8706979999999999e-16,2.3087830000000003e-16,2.3087830000000003e-16,0.0,0.0,2.3087830000000003e-16,2.3087830000000003e-16,4.380849e-17,4.380849e-17,6.397102e-16,6.397102e-16,0.0,0.0,0.0,-2.3087830000000003e-16
0.0040783107199949785,-0.07000009,-0.07000009,0.0,-2.565803e-12,-2.565803e-12,-2.577347e-12,-2.577347e-12,-9.235388999999999e-08,-9.235388999999999e-08,-0.07000009,-0.07000009,0.0,0.0,-0.07,0.0,0.0,0.0,-5.293956e-23,-5.293956e-23,1.795622e-16,1.795622e-16,2.3087830000000003e-16,2.3087830000000003e-16,0.0,0.0,2.3087830000000003e-16,2.3087830000000003e-16,5.131607e-17,5.131607e-17,4.13161e-16,4.13161e-16,0.0,0.0,0.0,-2.3087830000000003e-16
0.005,-0.07000009,-0.07000009,0.0,-2.890491e-12,-2.890491e-12,-2.8818e-12,-2.8818e-12,-9.233034e-08,-9.233034e-08,-0.07000009,-0.07000009,0.0,0.0,-0.07,0.0,0.0,0.0,-4.0463889999999996e-16,-4.0463889999999996e-16,-2.3162990000000005e-16,-2.3162990000000005e-16,2.3081860000000003e-16,2.3081860000000003e-16,0.0,-8.077935999999999e-29,-1.738201e-16,-1.738201e-16,5.780981e-17,5.780981e-17,-5.017060999999999e-17,-5.017060999999999e-17,0.0,0.0,0.0,1.738201e-16
0.005000001399230875,-0.07000294,-0.06999725,-3.498077e-05,-3.497968e-05,-1.096213e-09,-2.033707e-05,-1.464371e-05,-1.758278e-05,-1.758266e-05,-0.07001758,-0.07001758,-3.498077e-05,0.0,-0.07,0.0,-0.005037231,0.0,-8.183958e-09,8.183958e-09,-2.928522e-07,2.928522e-07,-6.8857849999999995e-15,7.347421999999999e-15,8.183966e-09,2.846682e-07,-2.928522e-07,2.928522e-07,-2.180864e-14,2.192425e-14,7.623211e-15,-7.227881999999999e-15,0.0,0.0,0.0,2.928522e-07
0.005000004197692626,-0.07000873,-0.06999145,-0.00010494229999999999,-0.0001049375,-4.865598e-09,-6.111139e-05,-4.3830929999999996e-05,-5.2563549999999996e-05,-5.2563419999999994e-05,-0.07005256,-0.07005256,-0.00010494229999999999,0.0,-0.07,0.0,-0.01511169,0.0,-1.249864e-08,1.249864e-08,-8.765213e-07,8.765213e-07,-2.136959e-14,2.183123e-14,1.2498659999999999e-08,8.640227e-07,-8.765214e-07,8.765214e-07,-9.719634e-14,9.731196e-14,2.256667e-14,-2.218873e-14,0.0,0.0,0.0,8.765214e-07
0.0050001,-0.07020798,-0.06979221,-0.0025,-0.002497918,-2.081697e-06,-0.001457884,-0.001042116,-0.001250092,-0.001250092,-0.0712501,-0.0712501,-0.0025,0.0,-0.07,0.0,-0.36,0.0,-1.229693e-08,1.229693e-08,-2.0800650000000002e-05,2.0800650000000002e-05,-5.194787999999999e-13,5.199404e-13,1.2297439999999999e-08,2.078839e-05,-2.0800689999999998e-05,2.0800689999999998e-05,-4.1633820000000004e-11,4.163394e-11,5.192167e-13,-5.184463e-13,0.0,0.0,0.0,2.0800689999999998e-05
0.005000415523921692,-0.0708575,-0.06914269,-0.0103881,-0.01033907,-4.902912e-05,-0.00605145,-0.004336648,-0.005194140999999999,-0.005194140999999999,-0.07519414,-0.07519414,-0.0103881,0.0,-0.07,0.0,-0.36,0.0,-1.2269110000000001e-08,1.2269110000000001e-08,-8.57514e-05,8.57514e-05,-2.143272e-12,2.1437330000000003e-12,1.227125e-08,8.574011000000001e-05,-8.575236999999999e-05,8.575236999999999e-05,-9.805826e-10,9.805826e-10,2.143473e-12,-2.1431150000000002e-12,0.0,0.0,0.0,8.575236999999999e-05
0.005000731047843384,-0.07150029,-0.0684999,-0.0182762,-0.01813989,-0.0001363027,-0.0106383,-0.007637901,-0.00913819,-0.00913819,-0.07913819,-0.07913819,-0.0182762,0.0,-0.07,0.0,-0.36,0.0,-1.22163e-08,1.22163e-08,-0.0001500292,0.0001500292,-3.750263e-12,3.7507239999999995e-12,1.222005e-08,0.00015001969999999998,-0.000150032,0.000150032,-2.726053e-09,2.726053e-09,3.750805e-12,-3.750778e-12,0.0,0.0,0.0,0.000150032
0.005001046571765076,-0.07213636,-0.06786382,-0.02616429,-0.02590039,-0.0002639023,-0.01521842,-0.01094587,-0.01308224,-0.01308224,-0.08308224,-0.08308224,-0.02616429,0.0,-0.07,0.0,-0.36,0.0,-1.2138500000000001e-08,1.2138500000000001e-08,-0.0002136342,0.0002136342,-5.3404510000000005e-12,5.340913e-12,1.214384e-08,0.0002136273,-0.00021363939999999998,0.00021363939999999998,-5.278046e-09,5.278046e-09,5.341212e-12,-5.341433999999999e-12,0.0,0.0,0.0,0.00021363939999999998
0.005001362095686768,-0.07276572,-0.06723446,-0.03405239,-0.03362056,-0.00043182800000000004,-0.01979182,-0.01426057,-0.01702629,-0.01702629,-0.08702629,-0.08702629,-0.03405239,0.0,-0.07,0.0,-0.36,0.0,-1.20357e-08,1.20357e-08,-0.00027656619999999997,0.00027656619999999997,-6.913838000000001e-12,6.9143e-12,1.2042620000000002e-08,0.0002765628,-0.0002765748,0.0002765748,-8.636560999999999e-09,8.636560999999999e-09,6.9146940000000006e-12,-6.9150839999999995e-12,0.0,0.0,0.0,0.0002765748
0.00500167761960846,-0.07338835,-0.06661183,-0.04194049,-0.04130041,-0.0006400799,-0.02435851,-0.01758198,-0.02097034,-0.02097034,-0.09097034,-0.09097034,-0.04194049,0.0,-0.07,0.0,-0.36,0.0,-1.190792e-08,1.190792e-08,-0.0003388253,0.0003388253,-8.470423e-12,8.470885000000001e-12,1.191639e-08,0.00033882620000000004,-0.0003388381,0.0003388381,-1.28016e-08,1.28016e-08,8.471251e-12,-8.471728e-12,0.0,0.0,0.0,0.0003388381
0.005001993143530153,-0.07400427,-0.06599592,-0.04982859,-0.04893993,-0.0008886578999999999,-0.02891847,-0.02091012,-0.02491439,-0.02491439,-0.09491439,-0.09491439,-0.04982859,0.0,-0.07,0.0,-0.36,0.0,-1.175514e-08,1.175514e-08,-0.0004004115,0.0004004115,-1.0010210000000001e-11,1.001067e-11,1.176515e-08,0.0004004175,-0.00040042919999999996,0.00040042919999999996,-1.7773159999999998e-08,1.7773159999999998e-08,1.001088e-11,-1.0011360000000001e-11,0.0,0.0,0.0,0.00040042919999999996
0.005002308667451843,-0.07461346,-0.06538673,-0.05771669,-0.05653912,-0.001177562,-0.03347171,-0.02424498,-0.02885844,-0.02885844,-0.09885844,-0.09885844,-0.05771669,0.0,-0.07,0.0,-0.36,0.0,-1.157737e-08,1.157737e-08,-0.0004613247,0.0004613247,-1.153319e-11,1.153365e-11,1.15889e-08,0.0004613367,-0.00046134830000000004,0.00046134830000000004,-2.355124e-08,2.355124e-08,1.1533589999999999e-11,-1.1534e-11,0.0,0.0,0.0,0.00046134830000000004
0.0050033086674518435,-0.07651139,-0.06348879,-0.08271669,-0.0804267,-0.0022899820000000003,-0.04786965,-0.03484704,-0.04135844,-0.04135843,-0.11135839999999998,-0.11135839999999998,-0.08271669,0.0,-0.07,0.0,-0.36,0.0,-1.1197829999999999e-08,1.1197829999999999e-08,-0.0006510954,0.0006510954,-1.6278020000000002e-11,1.627848e-11,1.1214110000000002e-08,0.00065113,-0.0006511412,0.0006511412,-4.5799640000000004e-08,4.5799640000000004e-08,1.6278079999999998e-11,-1.62788e-11,0.0,0.0,0.0,0.0006511412
0.005004308667451844,-0.07834711,-0.06165308,-0.1077167,-0.103941,-0.0037757140000000003,-0.06220536,-0.04551133,-0.05385844,-0.05385844,-0.12385839999999998,-0.12385839999999998,-0.1077167,0.0,-0.07,0.0,-0.36,0.0,-1.083074e-08,1.083074e-08,-0.0008346368,0.0008346368,-2.08673e-11,2.086777e-11,1.085161e-08,0.0008347014999999999,-0.0008347122999999999,0.0008347122999999999,-7.551429e-08,7.551429e-08,2.0867270000000002e-11,-2.08676e-11,0.0,0.0,0.0,0.0008347122999999999
0.005005308667451844,-0.08012265,-0.05987754,-0.13271670000000002,-0.1270942,-0.005622504,-0.0764809,-0.05623579,-0.06635843,-0.06635843,-0.1363584,-0.1363584,-0.13271670000000002,0.0,-0.07,0.0,-0.36,0.0,-1.0475709999999998e-08,1.0475709999999998e-08,-0.001012153,0.001012153,-2.530615e-11,2.5306610000000002e-11,1.050102e-08,0.001012255,-0.0010122660000000002,0.0010122660000000002,-1.1245010000000001e-07,1.1245010000000001e-07,2.530535e-11,-2.530529e-11,0.0,0.0,0.0,0.0010122660000000002
0.005006308667451844,-0.08183999,-0.05816022,-0.15771670000000002,-0.1498982,-0.007818501,-0.09069823,-0.06701845,-0.07885844,-0.07885844,-0.14885839999999997,-0.14885839999999997,-0.15771670000000002,0.0,-0.07,0.0,-0.36,0.0,-1.013233e-08,1.013233e-08,-0.001183843,0.001183843,-2.959949e-11,2.959995e-11,1.0161930000000001e-08,0.0011839889999999999,-0.001183999,0.001183999,-1.5637000000000002e-07,1.5637000000000002e-07,2.959878e-11,-2.9597429999999996e-11,0.0,0.0,0.0,0.001183999
0.005007308667451844,-0.08350103,-0.05649915,-0.1827167,-0.1723644,-0.01035224,-0.1048593,-0.0778574,-0.09135844,-0.09135844,-0.16135839999999999,-0.16135839999999999,-0.1827167,0.0,-0.07,0.0,-0.36,0.0,-9.800223e-09,9.800224e-09,-0.001349896,0.001349896,-3.3752109999999996e-11,3.3752570000000003e-11,9.833975000000001e-09,0.001350094,-0.0013501029999999999,0.0013501029999999999,-2.070448e-07,2.070448e-07,3.375275e-11,-3.374923e-11,0.0,0.0,0.0,0.0013501029999999999
0.005008308667451844,-0.08510763,-0.05489255,-0.2077167,-0.1945041,-0.01321263,-0.11896589999999999,-0.0887508,-0.10385839999999999,-0.10385839999999999,-0.1738584,-0.1738584,-0.2077167,0.0,-0.07,0.0,-0.36,0.0,-9.479016999999999e-09,9.479018e-09,-0.001510499,0.001510499,-3.7768609999999995e-11,3.776908e-11,9.516785e-09,0.001510754,-0.0015107629999999998,0.0015107629999999998,-2.642527e-07,2.642527e-07,3.7769590000000005e-11,-3.776611e-11,0.0,0.0,0.0,0.0015107629999999998
0.0050093086674518434,-0.08666158,-0.0533386,-0.2327167,-0.2163277,-0.01638896,-0.1330198,-0.09969686,-0.11635839999999999,-0.11635839999999999,-0.18635839999999998,-0.18635839999999998,-0.2327167,0.0,-0.07,0.0,-0.36,0.0,-9.168354999999999e-09,9.168354999999999e-09,-0.00166583,0.00166583,-4.165348e-11,4.165395e-11,9.210009e-09,0.001666149,-0.0016661579999999998,0.0016661579999999998,-3.277793e-07,3.277793e-07,4.165475e-11,-4.165309e-11,0.0,0.0,0.0,0.0016661579999999998
0.005010308667451844,-0.08816461,-0.05183558,-0.25771669999999997,-0.2378458,-0.01987085,-0.1470229,-0.11069380000000001,-0.12885839999999998,-0.12885839999999998,-0.1988584,-0.1988584,-0.25771669999999997,0.0,-0.07,0.0,-0.36,0.0,-8.86789e-09,8.86789e-09,-0.001816062,0.001816062,-4.541104e-11,4.54115e-11,8.913303e-09,0.001816451,-0.00181646,0.00181646,-3.974171e-07,3.974171e-07,4.541284e-11,-4.5412120000000004e-11,0.0,0.0,0.0,0.00181646
0.0050113086674518454,-0.08961837,-0.05038182,-0.2827167,-0.2590684,-0.02364828,-0.1609766,-0.1217401,-0.1413584,-0.1413584,-0.21135839999999997,-0.21135839999999997,-0.2827167,0.0,-0.07,0.0,-0.36,0.0,-8.577288e-09,8.577288e-09,-0.001961363,0.001961363,-4.904545e-11,4.904591e-11,8.626335e-09,0.001961827,-0.0019618360000000002,0.0019618360000000002,-4.729656e-07,4.729656e-07,4.904721e-11,-4.904654e-11,0.0,0.0,0.0,0.0019618360000000002
0.005012308667451846,-0.09102449,-0.04897569,-0.3077167,-0.2800052,-0.02771154,-0.17488270000000003,-0.1328339,-0.15385839999999998,-0.15385839999999998,-0.22385839999999999,-0.22385839999999999,-0.3077167,0.0,-0.07,0.0,-0.36,0.0,-8.296226000000001e-09,8.296226000000001e-09,-0.002101894,0.002101894,-5.2560759999999997e-11,5.256123e-11,8.348786999999999e-09,0.00210244,-0.002102448,0.002102448,-5.542308e-07,5.542308e-07,5.25616e-11,-5.2560969999999995e-11,0.0,0.0,0.0,0.002102448
0.005013308667451846,-0.09238455,-0.04761565,-0.3327167,-0.3006654,-0.03205124,-0.1887428,-0.14397390000000002,-0.1663584,-0.1663584,-0.2363584,-0.2363584,-0.3327167,0.0,-0.07,0.0,-0.36,0.0,-8.024389000000001e-09,8.024389000000001e-09,-0.002237812,0.002237812,-5.596089e-11,5.596135e-11,8.080350000000001e-09,0.002238445,-0.002238453,0.002238453,-6.410249e-07,6.410249e-07,5.596065e-11,-5.5960069999999995e-11,0.0,0.0,0.0,0.002238453
0.005014308667451845,-0.09370004,-0.04630016,-0.3577167,-0.3210584,-0.03665832,-0.2025583,-0.15515839999999997,-0.17885839999999997,-0.17885839999999997,-0.24885839999999998,-0.24885839999999998,-0.3577167,0.0,-0.07,0.0,-0.36,0.0,-7.761475999999999e-09,7.761475999999999e-09,-0.002369269,0.002369269,-5.924961e-11,5.925008000000001e-11,7.820725000000001e-09,0.002369994,-0.002370002,0.002370002,-7.331665e-07,7.331665e-07,5.925038e-11,-5.924896999999999e-11,0.0,0.0,0.0,0.002370002
0.005015308667451845,-0.09497243,-0.04502776,-0.38271669999999997,-0.3411927,-0.041524,-0.21633070000000001,-0.16638599999999998,-0.19135839999999998,-0.19135839999999998,-0.2613584,-0.2613584,-0.38271669999999997,0.0,-0.07,0.0,-0.36,0.0,-7.507193e-09,7.507193e-09,-0.00249641,0.00249641,-6.243059e-11,6.243105e-11,7.569623000000002e-09,0.0024972329999999997,-0.00249724,0.00249724,-8.304801e-07,8.304801e-07,6.243218e-11,-6.242991999999999e-11,0.0,0.0,0.0,0.00249724
0.005017308667451845,-0.09739353,-0.04260668,-0.4327167,-0.3807192,-0.05199748,-0.2437518,-0.1889649,-0.21635839999999998,-0.21635839999999998,-0.2863584,-0.2863584,-0.4327167,0.0,-0.07,0.0,-0.36,0.0,-7.023394000000001e-09,7.023393e-09,-0.0027383090000000004,0.0027383090000000004,-6.848332e-11,6.848378e-11,7.091876e-09,0.002739342,-0.0027393490000000003,0.0027393490000000003,-1.03995e-06,1.03995e-06,6.848051e-11,-6.848368000000001e-11,0.0,0.0,0.0,0.0027393490000000003
0.0050193086674518465,-0.09965858,-0.04034159,-0.48271670000000005,-0.41930959999999995,-0.06340705,-0.27101679999999995,-0.2116998,-0.24135839999999997,-0.24135839999999997,-0.31135840000000004,-0.31135840000000004,-0.48271670000000005,0.0,-0.07,0.0,-0.36,0.0,-6.570835e-09,6.570835e-09,-0.0029645879999999998,0.0029645879999999998,-7.4146e-11,7.414647e-11,6.644983e-09,0.0029658490000000004,-0.002965856,0.002965856,-1.268141e-06,1.268141e-06,7.414902e-11,-7.414960999999999e-11,0.0,0.0,0.0,0.002965856
0.005021308667451846,-0.1017777,-0.03822246,-0.5327166999999999,-0.45702440000000005,-0.07569227,-0.298136,-0.23458070000000003,-0.26635840000000005,-0.26635840000000005,-0.3363584,-0.3363584,-0.5327166999999999,0.0,-0.07,0.0,-0.36,0.0,-6.1475e-09,6.147499e-09,-0.003176255,0.003176255,-7.944384e-11,7.94443e-11,6.226948e-09,0.0031777629999999997,-0.0031777690000000004,0.0031777690000000004,-1.513845e-06,1.513845e-06,7.944927e-11,-7.944907e-11,0.0,0.0,0.0,0.0031777690000000004
0.005024308667451846,-0.1047032,-0.03529695,-0.6077167,-0.5120775,-0.09563925,-0.33856149999999996,-0.26915520000000004,-0.30385840000000003,-0.30385840000000003,-0.37385840000000004,-0.37385840000000004,-0.6077167,0.0,-0.07,0.0,-0.36,0.0,-5.563197e-09,5.563196e-09,-0.003468406,0.003468406,-8.675761e-11,8.675806999999999e-11,5.649957e-09,0.0034703140000000004,-0.0034703190000000004,0.0034703190000000004,-1.912785e-06,1.912785e-06,8.675888e-11,-8.67606e-11,0.0,0.0,0.0,0.0034703190000000004
0.005027308667451847,-0.10735070000000001,-0.03264949,-0.6827167,-0.5654623000000001,-0.11725439999999998,-0.378709,-0.30400770000000005,-0.3413584,-0.3413584,-0.41135839999999996,-0.41135839999999996,-0.6827167,0.0,-0.07,0.0,-0.36,0.0,-5.034566000000001e-09,5.0345649999999996e-09,-0.003732722,0.003732722,-9.337631e-11,9.337676e-11,5.1279430000000005e-09,0.003735062,-0.003735067,0.003735067,-2.345088e-06,2.345088e-06,9.337604000000001e-11,-9.337612e-11,0.0,0.0,0.0,0.003735067
0.005030594381737561,-0.1099029,-0.03009731,-0.7648595,-0.6218467,-0.1430129,-0.4223326,-0.342527,-0.38242990000000004,-0.38242990000000004,-0.4524299,-0.4524299,-0.7648595,0.0,-0.07,0.0,-0.36,0.0,-4.525163e-09,4.525162e-09,-0.003987422,0.003987422,-9.975671999999999e-11,9.975718e-11,4.6249179999999996e-09,0.003990278,-0.003990283,0.003990283,-2.860257e-06,2.860257e-06,9.975222e-11,-9.975677e-11,0.0,0.0,0.0,0.003990283
0.005033880096023275,-0.11224680000000001,-0.02775341,-0.8470023999999999,-0.6769814000000001,-0.170021,-0.46574790000000005,-0.3812545,-0.42350129999999997,-0.42350129999999997,-0.4935013,-0.4935013,-0.8470023999999999,0.0,-0.07,0.0,-0.36,0.0,-4.057466e-09,4.057465e-09,-0.00422127,0.00422127,-1.056164e-10,1.056169e-10,4.163079000000001e-09,0.0042246670000000005,-0.004224671,0.004224671,-3.40042e-06,3.40042e-06,1.056093e-10,-1.056166e-10,0.0,0.0,0.0,0.004224671
0.005037165810308991,-0.11438239999999998,-0.0256178,-0.9291453000000002,-0.7308665,-0.19827879999999998,-0.5089549,-0.4201904,-0.4645727,-0.4645727,-0.5345727,-0.5345727,-0.9291453000000002,0.0,-0.07,0.0,-0.36,0.0,-3.631475e-09,3.631474e-09,-0.004434266,0.004434266,-1.109555e-10,1.109559e-10,3.742426e-09,0.004438228,-0.004438231,0.004438231,-3.965576e-06,3.965576e-06,1.109472e-10,-1.109557e-10,0.0,0.0,0.0,0.004438231
0.005040451524594706,-0.1163097,-0.02369047,-1.011288,-0.7835019,-0.2277862,-0.5519536999999999,-0.45933450000000003,-0.5056442,-0.5056442,-0.5756441,-0.5756441,-1.011288,0.0,-0.07,0.0,-0.36,0.0,-3.24719e-09,3.2471880000000004e-09,-0.004626408,0.004626408,-1.157738e-10,1.157742e-10,3.3629590000000002e-09,0.004630960999999999,-0.0046309640000000004,0.0046309640000000004,-4.555725e-06,4.555725e-06,1.157661e-10,-1.157739e-10,0.0,0.0,0.0,0.0046309640000000004
0.00504373723888042,-0.1180287,-0.02197143,-1.093431,-0.8348876000000001,-0.2585434,-0.5947441,-0.49868679999999993,-0.5467156,-0.5467156,-0.6167156,-0.6167156,-1.093431,0.0,-0.07,0.0,-0.36,0.0,-2.9046100000000004e-09,2.9046070000000002e-09,-0.0047976979999999995,0.0047976979999999995,-1.200714e-10,1.200719e-10,3.024678e-09,0.004802865999999999,-0.004802869,0.004802869,-5.170867e-06,5.170867e-06,1.200659e-10,-1.200714e-10,0.0,0.0,0.0,0.004802869
0.005047022953166135,-0.11953949999999999,-0.02046066,-1.175574,-0.8850237,-0.2905502,-0.6373263000000001,-0.5382475,-0.587787,-0.587787,-0.657787,-0.657787,-1.175574,0.0,-0.07,0.0,-0.36,0.0,-2.6037350000000004e-09,2.6037329999999998e-09,-0.004948135,0.004948135,-1.238484e-10,1.238488e-10,2.727583e-09,0.004953944,-0.004953946,0.004953946,-5.811003e-06,5.811003e-06,1.238465e-10,-1.23848e-10,0.0,0.0,0.0,0.004953946
0.00505030866745185,-0.120842,-0.01915818,-1.257717,-0.9339101000000001,-0.3238066,-0.6797003,-0.5780164000000001,-0.6288583999999999,-0.6288583999999999,-0.6988584,-0.6988584,-1.257717,0.0,-0.07,0.0,-0.36,0.0,-2.3445660000000003e-09,2.344563e-09,-0.00507772,0.00507772,-1.271046e-10,1.27105e-10,2.4716729999999997e-09,0.005084193,-0.005084196,0.005084196,-6.476133e-06,6.476133e-06,1.27108e-10,-1.271039e-10,0.0,0.0,0.0,0.005084196
0.005054880096023279,-0.1224336,-0.01756653,-1.372002,-1.0006030000000001,-0.3713998,-0.7384348000000001,-0.6335677,-0.6860013,-0.6860013,-0.7560013000000001,-0.7560013000000001,-1.372002,0.0,-0.07,0.0,-0.36,0.0,-2.028148e-09,2.028145e-09,-0.005235929,0.005235929,-1.310836e-10,1.310841e-10,2.159234e-09,0.005243354,-0.005243357,0.005243357,-7.427996000000001e-06,7.427996000000001e-06,1.310881e-10,-1.310893e-10,0.0,0.0,0.0,0.005243357
