time,"V(N012,N005)","V(N013,N007)"
0.0,-0.07,-0.07
0.001006310719994777,-0.07000009,-0.07000009
0.002030310719994708,-0.07000009,-0.07000009
0.0030543107199948443,-0.07000009,-0.07000009
0.0040783107199949785,-0.07000009,-0.07000009
0.005,-0.07000009,-0.07000009
0.0050000013991158675,-0.07000316,-0.07000045
0.005000004197347605,-0.07000943,-0.07000119
0.0050001,-0.07022456,-0.0700265
0.0050003659437398065,-0.07081593,-0.07009607
0.005000631887479612,-0.0714013,-0.07016494
0.005000897831219417,-0.07198068,-0.0702331
0.005001163774959222,-0.07255407,-0.07030056
0.005001429718699027,-0.07312147,-0.07036731
0.0050016956624388325,-0.07368287,-0.07043336
0.0050019616061786395,-0.07423829,-0.0704987
0.005002961606178639,-0.07629083,-0.07074018
0.005003961606178639,-0.07826963,-0.07097298
0.005004961606178639,-0.08017607,-0.07119726
0.005005961606178639,-0.0820128,-0.07141335
0.005006961606178639,-0.08378238,-0.07162154
0.005007961606178639,-0.08548724,-0.0718221
0.0050089616061786395,-0.08712979,-0.07201535
0.00500996160617864,-0.08871228,-0.07220154
0.00501096160617864,-0.0902369,-0.07238089
0.00501196160617864,-0.09170581,-0.07255371
0.00501296160617864,-0.09312104,-0.07272021
0.00501396160617864,-0.09448452,-0.07288061
0.0050149616061786395,-0.09579819,-0.07303515
0.005016961606178641,-0.09828326,-0.07332753
0.005018961606178641,-0.10059,-0.07359889
0.00502096160617864,-0.10273130000000001,-0.07385081
0.005023961606178642,-0.1056587,-0.07419521
0.005026961606178642,-0.1082771,-0.07450327
0.0050301044633215,-0.1106613,-0.07478377
0.005033247320464357,-0.1128412,-0.07504022
0.0050363901776072145,-0.11481680000000001,-0.07527265
0.005039533034750072,-0.11658810000000001,-0.07548104
0.00504267589189293,-0.11815510000000001,-0.0756654
0.005045818749035787,-0.11951780000000001,-0.07582572
0.005048961606178646,-0.1206762,-0.07596201
0.005053961606178646,-0.1222482,-0.07614694
0.005058961606178646,-0.1236372,-0.07631034
0.005063961606178647,-0.1248431,-0.07645222
0.0050689616061786475,-0.1258661,-0.07657256
0.005073961606178647,-0.12670599999999999,-0.07667137
0.005078961606178649,-0.1273629,-0.07674865
0.00508396160617865,-0.1278368,-0.0768044
0.00508496160617865,-0.1279355,-0.07681596
0.0051,-0.1290606,-0.0769484
0.005100014860612547,-0.1290281,-0.07694459
0.005100044581837643,-0.12896300000000002,-0.07693684
0.005102450684117054,-0.124011,-0.07635427
0.0051048567863964675,-0.11940579999999999,-0.07581249
0.005107262888675879,-0.11514749999999999,-0.07531152
0.00510966899095529,-0.1112361,-0.07485136
0.005112075093234704,-0.10767149999999999,-0.074432
0.005114481195514115,-0.1044537,-0.07405344
0.005116887297793527,-0.1015828,-0.07371569
0.005119887297793528,-0.09826481,-0.0733254
0.005122887297793528,-0.09529817,-0.07297635
0.0051258872977935285,-0.09264553,-0.07266426
0.005128887297793529,-0.09027374,-0.07238519
0.005131887297793529,-0.088153,-0.07213569
0.00513488729779353,-0.08625686,-0.07191265
0.005137887297793529,-0.08456135,-0.07171321
0.005140887297793531,-0.08304536,-0.07153487
0.005143887297793531,-0.08168983,-0.07137537
0.005146887297793531,-0.08047795,-0.0712328
0.005149887297793532,-0.07939422,-0.07110524
0.005152887297793532,-0.07842529,-0.07099128
0.0051558872977935325,-0.07755888,-0.07088935
0.005158887297793533,-0.07678425,-0.07079816
0.0051618872977935324,-0.07609153,-0.07071674
0.005164887297793535,-0.07547224,-0.0706439
0.005167887297793534,-0.07491851,-0.07057881
0.005170887297793535,-0.07442331,-0.0705204
0.005173887297793535,-0.07398069,-0.07046843
0.005176887297793535,-0.07358479,-0.07042181
0.005179887297793536,-0.07323086,-0.07038021
0.005182887297793536,-0.07291436,-0.0703429
0.0051858872977935365,-0.07263136,-0.07030964
0.005188887297793537,-0.0723784,-0.07027984
0.005191887297793536,-0.07215214,-0.07025325
0.0051948872977935386,-0.07194984,-0.07022953
0.005197887297793538,-0.071769,-0.07020819
0.005200887297793539,-0.07160723,-0.07018912
0.005203887297793539,-0.07146251,-0.07017195
0.005206887297793539,-0.07133329,-0.07015681
0.00520988729779354,-0.07121766,-0.07014322
0.00521288729779354,-0.0711143,-0.07013106
0.0052158872977935405,-0.07102191,-0.07012022
0.005218887297793541,-0.07093918,-0.07011044
0.00522188729779354,-0.07086539,-0.07010174
0.0052248872977935425,-0.07079935,-0.07009399
0.005227887297793542,-0.0707401,-0.07008708
0.005230887297793543,-0.07068741,-0.07008076
0.005233887297793543,-0.07064021,-0.07007527
0.005236887297793543,-0.07059789,-0.07007027
0.005239887297793544,-0.07056022,-0.07006586
0.005242887297793544,-0.07052648,-0.07006192
0.005245887297793545,-0.0704962,-0.07005835
0.005248887297793546,-0.07046926,-0.07005513
0.005251887297793545,-0.07044518,-0.07005227
0.0052548872977935465,-0.07042348,-0.07004976
0.005257887297793546,-0.07040417,-0.0700475
0.0052608872977935464,-0.07038701,-0.07004547
0.005263887297793547,-0.07037151,-0.07004368
0.005266887297793547,-0.0703578,-0.07004201
0.005269887297793548,-0.0703454,-0.07004058
0.005272887297793548,-0.07033443,-0.07003927
0.005275887297793548,-0.07032454,-0.0700382
0.005278887297793549,-0.07031572,-0.07003713
0.005281887297793549,-0.07030785,-0.07003617
0.00528488729779355,-0.07030082,-0.07003534
0.00528788729779355,-0.0702945,-0.07003462
0.00529088729779355,-0.0702889,-0.07003391
0.005293887297793551,-0.07028377,-0.07003331
0.00529688729779355,-0.07027936,-0.07003284
0.0052998872977935525,-0.07027531,-0.07003236
0.005302887297793552,-0.07027173,-0.07003188
0.005305458726364981,-0.07026899,-0.07003158
0.00530803015493641,-0.07026645,-0.07003131
0.005310601583507839,-0.07026412,-0.07003105
0.005313173012079267,-0.07026199,-0.07003081
0.005315744440650696,-0.07026006,-0.07003059
0.005318315869222125,-0.07025834,-0.07003039
0.0053208872977935535,-0.07025683,-0.07003021
0.005323601583507841,-0.07025535,-0.07003002
0.005326315869222126,-0.070254,-0.07002984
0.005329030154936413,-0.07025276,-0.07002969
0.005331744440650699,-0.07025163,-0.07002955
0.005334458726364985,-0.07025063,-0.07002943
0.005337173012079271,-0.07024974,-0.07002934
0.005339887297793557,-0.07024896,-0.07002926
0.0053427444406507,-0.07024821,-0.07002919
0.005345601583507844,-0.07024751,-0.07002912
0.005348458726364987,-0.07024687,-0.07002905
0.00535131586922213,-0.0702463,-0.07002899
0.005354173012079273,-0.07024577,-0.07002892
0.0053570301549364175,-0.07024531,-0.07002885
0.0053598872977935605,-0.07024491,-0.07002878
0.005363315869222131,-0.07024449,-0.07002875
0.005366744440650703,-0.0702441,-0.07002871
0.005370173012079275,-0.07024376,-0.07002868
0.0053736015835078475,-0.07024345,-0.07002865
0.005377030154936418,-0.07024318,-0.07002861
0.005380458726364991,-0.07024295,-0.07002858
0.005383887297793564,-0.07024276,-0.07002854
0.0053883158692221355,-0.07024252,-0.0700285
0.005392744440650707,-0.07024231,-0.07002846
0.005397173012079279,-0.07024213,-0.07002843
0.005401601583507851,-0.07024197,-0.07002842
0.005406030154936422,-0.07024185,-0.07002841
0.005410458726364995,-0.07024176,-0.07002841
0.005414887297793567,-0.07024169,-0.07002842
0.005421601583507854,-0.07024162,-0.07002845
0.00542831586922214,-0.07024155,-0.07002845
0.005435030154936427,-0.07024149,-0.07002844
0.005441744440650713,-0.07024142,-0.0700284
0.005448458726365,-0.07024135,-0.07002835
0.005455173012079286,-0.07024128,-0.07002828
0.005461887297793572,-0.07024121,-0.07002819
0.005477601583507861,-0.07024121,-0.07002819
0.0054933158692221495,-0.07024121,-0.07002819
0.005509030154936437,-0.07024121,-0.07002819
0.005524744440650724,-0.07024121,-0.07002819
0.005540458726365011,-0.07024121,-0.07002819
0.0055561730120793,-0.07024121,-0.07002819
0.005571887297793589,-0.07024121,-0.07002819
0.006102887297793658,-0.07024097,-0.07002795
0.007126887297793794,-0.07024074,-0.07002771
0.008150887297793636,-0.0702405,-0.07002747
0.009174887297792884,-0.07024038,-0.07002735
0.01019888729779213,-0.07024026,-0.07002723
0.01122288729779138,-0.07024026,-0.07002723
0.01224688729779063,-0.07024026,-0.07002723
0.01327088729778988,-0.07024014,-0.07002711
0.014294887297789119,-0.07024014,-0.07002711
0.015318887297788368,-0.07024014,-0.07002711
0.01634288729778886,-0.07024014,-0.07002711
0.01736688729778989,-0.07024014,-0.07002711
0.018390887297790908,-0.07024014,-0.07002711
0.01941488729779194,-0.07024014,-0.07002711
0.02043888729779296,-0.07024014,-0.07002711
0.02146288729779398,-0.07024014,-0.07002711
0.022486887297795008,-0.07024014,-0.07002711
0.023510887297796032,-0.07024014,-0.07002711
0.02453488729779706,-0.07024014,-0.07002711
0.025,-0.07024014,-0.07002711
0.02500002,-0.0701952,-0.07002187
0.02500006,-0.07010543,-0.07001126
0.0250002,-0.06979191,-0.06997442
0.02500048685714286,-0.06915701,-0.06989978
0.02500077371428571,-0.06852888,-0.06982591
0.02500106057142857,-0.06790754,-0.06975282
0.025001347428571432,-0.06729298,-0.06968052
0.02500163428571428,-0.06668521,-0.06960899
0.02500192114285714,-0.06608422,-0.06953823
0.025002208,-0.06549001,-0.06946826
0.025003208,-0.06345487,-0.06922889
0.025004208,-0.06149423,-0.06899822
0.025005208,-0.05960524,-0.06877601
0.025006208,-0.05778527,-0.06856191
0.025008208,-0.05434251,-0.06815684
0.025010208,-0.05114698,-0.06778097
0.025012208000000008,-0.0481807,-0.06743193
0.02501520800000001,-0.0441258,-0.06695497
0.02501820800000001,-0.04049921,-0.0665282
0.02502120800000001,-0.0373328,-0.06615569
0.02502420800000002,-0.03442891,-0.06581407
0.02502720800000002,-0.03178752,-0.06550332
0.02503020800000002,-0.02940863,-0.06522346
0.025033208000000032,-0.02729226,-0.06497448
0.025036208000000032,-0.0254384,-0.06475639
0.02503920800000003,-0.02384704,-0.06456918
0.02504320800000004,-0.0219765,-0.06434911
0.02504720800000004,-0.02029522,-0.06415131
0.02505120800000004,-0.0188032,-0.06397577
0.02505520800000005,-0.01750043,-0.06382251
0.02505920800000005,-0.01638693,-0.06369151
0.02506320800000006,-0.01546269,-0.06358278
0.02506720800000006,-0.01472771,-0.06349632
0.02506977942857149,-0.01428015,-0.06344366
0.02507235085714292,-0.01386526,-0.06339484
0.02507492228571435,-0.01348304,-0.06334987
0.025077493714285783,-0.01313348,-0.06330875
0.02508006514285721,-0.01281659,-0.06327148
0.02508263657142865,-0.01253237,-0.06323804
0.02508520800000008,-0.01228082,-0.06320846
0.02509035085714294,-0.01185546,-0.06315842
0.0250954937142858,-0.01147937,-0.06311417
0.02510063657142866,-0.01115257,-0.06307572
0.02510577942857153,-0.01087506,-0.06304307
0.02511092228571439,-0.01064683,-0.06301622
0.02511606514285725,-0.01046788,-0.06299517
0.02512120800000011,-0.01033822,-0.06297992
0.02512506514285726,-0.01024424,-0.06296887
0.02512892228571441,-0.01015865,-0.0629588
0.02513277942857155,-0.01008147,-0.06294972
0.0251366365714287,-0.0100127,-0.06294162
0.02514049371428585,-0.009952316,-0.06293451
0.025144350857143,-0.009900338,-0.06292839
0.02514820800000014,-0.009856761,-0.06292325
0.0252,-0.009526968,-0.06288457
0.02520007763829531,-0.009700656,-0.06290507
0.02520023291488594,-0.0100466,-0.06294572
0.02520265172339219,-0.01510699,-0.06354104
0.02520507053189845,-0.01981142,-0.06409448
0.0252074893404047,-0.0241599,-0.06460607
0.02520990814891095,-0.02815242,-0.06507578
0.025212326957417208,-0.03178899,-0.06550364
0.02521474576592346,-0.0350696,-0.06588963
0.02521716457442971,-0.03799427,-0.06623375
0.02522016457442972,-0.04135692,-0.06662929
0.02522316457442972,-0.0443635,-0.06698298
0.025226164574429718,-0.04705191,-0.06729925
0.025229164574429717,-0.04945564,-0.06758213
0.02523216457442973,-0.05160487,-0.06783497
0.02523516457442973,-0.05352652,-0.06806099
0.02523816457442973,-0.05524492,-0.06826317
0.02524116457442974,-0.05678117,-0.06844389
0.02524416457442974,-0.05815494,-0.06860554
0.02524716457442974,-0.05938327,-0.06875002
0.02525016457442975,-0.06048155,-0.06887925
0.02525316457442975,-0.06146359,-0.06899476
0.02525616457442975,-0.06234157,-0.06909811
0.02525916457442975,-0.06312668,-0.06919038
0.02526216457442976,-0.06382871,-0.06927299
0.02526516457442976,-0.06445634,-0.0693469
0.02526816457442976,-0.06501758,-0.06941295
0.02527116457442977,-0.06551945,-0.06947196
0.02527416457442977,-0.06596804,-0.06952477
0.02527716457442977,-0.06636918,-0.06957197
0.025280164574429782,-0.066728,-0.06961417
0.025283164574429782,-0.06704867,-0.06965184
0.02528616457442978,-0.06733549,-0.06968558
0.02528916457442978,-0.06759191,-0.06971574
0.02529216457442979,-0.06782115,-0.0697428
0.02529516457442979,-0.06802619,-0.06976688
0.02529816457442979,-0.06820953,-0.06978834
0.0253011645744298,-0.06837332,-0.06980777
0.0253041645744298,-0.06852007,-0.06982505
0.0253071645744298,-0.06865108,-0.06984043
0.02531016457442981,-0.06876814,-0.06985426
0.02531316457442981,-0.06887293,-0.06986666
0.025316164574429808,-0.06896663,-0.06987762
0.02531916457442981,-0.06905043,-0.0698874
0.025322164574429817,-0.06912529,-0.06989634
0.02532516457442982,-0.06919217,-0.06990421
0.02532816457442982,-0.06925201,-0.06991124
0.02533116457442983,-0.06930566,-0.06991756
0.025334164574429833,-0.06935346,-0.06992316
0.025337164574429832,-0.06939626,-0.06992817
0.025340164574429842,-0.06943452,-0.0699327
0.025343164574429842,-0.06946874,-0.06993675
0.02534616457442984,-0.06949937,-0.06994033
0.02534916457442984,-0.06952667,-0.06994355
0.02535216457442985,-0.06955123,-0.06994641
0.02535516457442985,-0.06957304,-0.06994891
0.02535816457442985,-0.0695926,-0.0699513
0.02536116457442986,-0.06961012,-0.06995332
0.02536416457442986,-0.06962574,-0.06995511
0.02536716457442986,-0.06963968,-0.06995678
0.02537016457442987,-0.0696522,-0.06995833
0.02537316457442987,-0.06966341,-0.06995964
0.025376164574429868,-0.06967342,-0.06996071
0.025379164574429867,-0.06968236,-0.06996179
0.02538216457442988,-0.06969023,-0.06996274
0.02538516457442988,-0.06969738,-0.06996357
0.02538816457442988,-0.06970382,-0.06996429
0.02539116457442989,-0.06970954,-0.069965
0.02539416457442989,-0.06971467,-0.0699656
0.02539716457442989,-0.0697192,-0.0699662
0.0254001645744299,-0.06972325,-0.06996667
0.0254031645744299,-0.06972694,-0.06996703
0.02540573600300133,-0.06972978,-0.06996742
0.025408307431572758,-0.06973239,-0.06996777
0.02541087886014419,-0.06973478,-0.06996808
0.025413450288715618,-0.06973694,-0.06996835
0.02541602171728705,-0.06973888,-0.06996859
0.02541859314585849,-0.06974059,-0.06996878
0.02542116457442992,-0.06974208,-0.06996894
0.02542387886014421,-0.0697436,-0.06996913
0.02542659314585849,-0.069745,-0.06996931
0.025429307431572783,-0.06974627,-0.06996946
0.02543202171728707,-0.06974741,-0.0699696
0.02543473600300136,-0.06974842,-0.06996972
0.02543745028871565,-0.06974931,-0.06996981
0.025440164574429942,-0.06975007,-0.06996989
0.02544302171728708,-0.06975081,-0.06996996
0.025445878860144232,-0.06975151,-0.06997003
0.02544873600300137,-0.06975215,-0.0699701
0.025451593145858518,-0.06975275,-0.06997016
0.02545445028871566,-0.06975329,-0.06997023
0.02545730743157281,-0.06975379,-0.0699703
0.02546016457442996,-0.06975424,-0.06997037
0.02546359314585853,-0.06975467,-0.0699704
0.0254670217172871,-0.06975505,-0.06997044
0.025470450288715682,-0.0697554,-0.06997047
0.02547387886014426,-0.0697557,-0.06997051
0.02547730743157283,-0.06975597,-0.06997054
0.02548073600300141,-0.0697562,-0.06997057
0.025484164574429983,-0.06975639,-0.06997061
0.025488593145858558,-0.06975658,-0.06997065
0.02549302171728713,-0.06975676,-0.06997069
0.02549745028871571,-0.06975691,-0.06997072
0.02550187886014428,-0.06975705,-0.06997073
0.02550630743157286,-0.06975717,-0.06997074
0.025510736003001442,-0.06975726,-0.06997074
0.02551516457443001,-0.06975734,-0.06997073
0.02551945028871573,-0.06975747,-0.06997077
0.02552373600300145,-0.06975758,-0.06997081
0.02552802171728717,-0.06975766,-0.06997084
0.02553230743157289,-0.06975773,-0.06997085
0.0255365931458586,-0.06975778,-0.06997086
0.02554087886014432,-0.06975781,-0.06997086
0.02554516457443004,-0.06975782,-0.06997085
0.02554616457443004,-0.06975782,-0.06997085
0.02555745028871577,-0.06975787,-0.06997089
0.02556873600300149,-0.0697579,-0.06997093
0.025580021717287217,-0.06975793,-0.06997096
0.02559130743157295,-0.06975795,-0.06997097
0.02560259314585867,-0.06975795,-0.06997098
0.0256138788601444,-0.06975795,-0.06997098
0.02562516457443012,-0.06975794,-0.06997097
0.02657016457443107,-0.06975877,-0.0699718
0.02759416457443209,-0.06975937,-0.0699724
0.028618164574433114,-0.06975973,-0.06997275
0.029642164574434138,-0.06975996,-0.06997299
0.030666164574435162,-0.06976008,-0.06997311
0.031690164574436186,-0.0697602,-0.06997323
0.03271416457443721,-0.0697602,-0.06997323
0.033738164574438234,-0.06976032,-0.06997335
0.034762164574439265,-0.06976032,-0.06997335
0.03578616457444028,-0.06976032,-0.06997335
0.03681016457444131,-0.06976032,-0.06997335
0.03783416457444233,-0.06976032,-0.06997335
0.03885816457444336,-0.06976032,-0.06997335
0.03988216457444438,-0.06976032,-0.06997335
0.0409061645744454,-0.06976032,-0.06997335
0.041930164574446434,-0.06976032,-0.06997335
0.04295416457444745,-0.06976032,-0.06997335
0.04397816457444848,-0.06976032,-0.06997335
0.045,-0.06976032,-0.06997335
0.04500001,-0.06978285,-0.06997597
0.04500003,-0.0698278,-0.06998134
0.0450001,-0.06998491,-0.06999981
0.045000124,-0.07003868,-0.07000613
0.045000220000000014,-0.07025325,-0.0700314
0.04500034800000001,-0.07053757,-0.07006478
0.045000604000000013,-0.07110155,-0.07013118
0.04500111600000003,-0.0722096,-0.07026148
0.04500211600000003,-0.07431936,-0.07050967
0.04500311600000003,-0.07636154,-0.07075
0.04500411600000003,-0.07832897,-0.07098138
0.04500511600000003,-0.08022451,-0.07120442
0.045006116000000033,-0.08205068,-0.07141924
0.045008116000000035,-0.08550525,-0.07182574
0.04501011600000004,-0.08871174,-0.07220292
0.04501211600000004,-0.09168816,-0.07255316
0.045015116000000036,-0.09575701,-0.07303178
0.04501811600000005,-0.09939599,-0.07345998
0.04502111600000005,-0.1026505,-0.07384282
0.04502425885714291,-0.10561369999999999,-0.0741914
0.04502740171428577,-0.10832280000000001,-0.07451009
0.04503054457142863,-0.1107779,-0.0747989
0.04503368742857149,-0.1129788,-0.07505783
0.04503683028571435,-0.11492580000000001,-0.07528688
0.04503997314285721,-0.11661860000000002,-0.07548605
0.04504311600000007,-0.11805739999999998,-0.07565534
0.045046973142857216,-0.11962539999999999,-0.07583983
0.04505083028571436,-0.12103879999999999,-0.07600611
0.045054687428571515,-0.12229739999999999,-0.07615419
0.04505854457142866,-0.1234014,-0.07628407
0.04506240171428581,-0.1243506,-0.07639575
0.04506625885714295,-0.1251452,-0.07648922
0.0450701160000001,-0.1257851,-0.07656449
0.0450721160000001,-0.1261032,-0.07660191
0.0450741160000001,-0.12640230000000002,-0.07663709
0.0450761160000001,-0.12668239999999997,-0.07667004
0.04507811600000011,-0.1269435,-0.07670076
0.045080116000000114,-0.1271856,-0.07672924
0.04508211600000011,-0.1274086,-0.07675549
0.04508411600000011,-0.1276126,-0.0767795
0.04508638514285724,-0.1278273,-0.07680474
0.04508865428571437,-0.1280279,-0.07682834
0.0450909234285715,-0.1282145,-0.07685029
0.04509319257142862,-0.1283871,-0.07687059
0.04509546171428575,-0.12854569999999998,-0.07688925
0.045097730857142866,-0.1286903,-0.07690626
0.0451,-0.1288209,-0.07692163
0.0451001,-0.12860270000000001,-0.07689596
0.0451003,-0.12816860000000002,-0.07684489
0.04510275714285715,-0.1231665,-0.07625641
0.04510521428571429,-0.11852069999999999,-0.07570984
0.04510767142857144,-0.11423110000000002,-0.07520518
0.045110128571428584,-0.1102978,-0.07474243
0.04511258571428573,-0.10672069999999999,-0.0743216
0.04511504285714287,-0.1034998,-0.07394267
0.04511750000000002,-0.1006352,-0.07360565
0.04512050000000002,-0.09739218,-0.07322412
0.04512350000000003,-0.0944925,-0.07288298
0.045126500000000035,-0.0918998,-0.07257795
0.04512950000000003,-0.08958158,-0.07230522
0.045132500000000034,-0.08750877,-0.07206136
0.04513550000000004,-0.08565539,-0.07184332
0.04513850000000004,-0.08399822,-0.07164835
0.045141500000000036,-0.08251649,-0.07147403
0.04514450000000005,-0.08119162,-0.07131816
0.04514750000000005,-0.080007,-0.07117879
0.04515050000000005,-0.0789478,-0.07105418
