time	V(N012,N005)	V(N013,N007)
0.000000000000000e+000	-7.000000e-002	-7.000000e-002
1.006310719994777e-003	-7.000007e-002	-7.000010e-002
2.030310719994708e-003	-7.000015e-002	-7.000013e-002
3.054310719994844e-003	-7.000019e-002	-7.000016e-002
4.078310719994979e-003	-7.000019e-002	-7.000016e-002
5.000000000000000e-003	-7.000019e-002	-7.000016e-002
5.000001449305549e-003	-7.000119e-002	-7.000054e-002
5.000007961886916e-003	-7.000573e-002	-7.000224e-002
5.000100000000000e-003	-7.007028e-002	-7.002645e-002
5.001747261983703e-003	-7.123042e-002	-7.046216e-002
5.003394523967405e-003	-7.236971e-002	-7.088991e-002
5.005041785951107e-003	-7.348815e-002	-7.130968e-002
5.006689047934809e-003	-7.458574e-002	-7.172148e-002
5.008336309918511e-003	-7.566248e-002	-7.212531e-002
5.009983571902213e-003	-7.671838e-002	-7.252117e-002
5.011630833885916e-003	-7.775342e-002	-7.290906e-002
5.012630833885916e-003	-7.837737e-002	-7.314301e-002
5.013630833885916e-003	-7.899535e-002	-7.337475e-002
5.014630833885916e-003	-7.960737e-002	-7.360423e-002
5.015630833885916e-003	-8.021355e-002	-7.383150e-002
5.016630833885916e-003	-8.081388e-002	-7.405663e-002
5.017630833885916e-003	-8.140844e-002	-7.427961e-002
5.019630833885917e-003	-8.258051e-002	-7.471907e-002
5.021630833885917e-003	-8.373028e-002	-7.515025e-002
5.023630833885917e-003	-8.485800e-002	-7.557315e-002
5.025630833885918e-003	-8.596426e-002	-7.598794e-002
5.028630833885918e-003	-8.758414e-002	-7.659537e-002
5.031630833885918e-003	-8.915794e-002	-7.718545e-002
5.034630833885919e-003	-9.068668e-002	-7.775873e-002
5.039487976743062e-003	-9.305853e-002	-7.864816e-002
5.044345119600206e-003	-9.533333e-002	-7.950118e-002
5.049202262457349e-003	-9.751107e-002	-8.031779e-002
5.054059405314493e-003	-9.959177e-002	-8.109799e-002
5.058916548171636e-003	-1.015754e-001	-8.184178e-002
5.063773691028780e-003	-1.034620e-001	-8.254915e-002
5.068630833885923e-003	-1.052516e-001	-8.322012e-002
5.071059405314495e-003	-1.061197e-001	-8.354570e-002
5.073487976743066e-003	-1.069689e-001	-8.386417e-002
5.075916548171638e-003	-1.077992e-001	-8.417552e-002
5.078345119600211e-003	-1.086105e-001	-8.447976e-002
5.080773691028782e-003	-1.094030e-001	-8.477689e-002
5.083202262457354e-003	-1.101765e-001	-8.506690e-002
5.085630833885925e-003	-1.109312e-001	-8.534980e-002
5.086630833885926e-003	-1.112373e-001	-8.546472e-002
5.088540714759364e-003	-1.118156e-001	-8.568163e-002
5.090450595632804e-003	-1.123825e-001	-8.589422e-002
5.092360476506243e-003	-1.129379e-001	-8.610249e-002
5.094270357379683e-003	-1.134820e-001	-8.630644e-002
5.096180238253122e-003	-1.140147e-001	-8.650607e-002
5.098090119126562e-003	-1.145359e-001	-8.670138e-002
5.100000000000000e-003	-1.150458e-001	-8.689237e-002
5.100100000000001e-003	-1.150022e-001	-8.687592e-002
5.100700000000001e-003	-1.147363e-001	-8.677602e-002
5.110100000000002e-003	-1.109254e-001	-8.534667e-002
5.119500000000003e-003	-1.073867e-001	-8.401944e-002
5.128900000000004e-003	-1.041201e-001	-8.279434e-002
5.138300000000005e-003	-1.011257e-001	-8.167135e-002
5.147700000000007e-003	-9.840348e-002	-8.065049e-002
5.157100000000007e-003	-9.595341e-002	-7.973174e-002
5.166500000000009e-003	-9.377551e-002	-7.891512e-002
5.175928571428581e-003	-9.175906e-002	-7.815918e-002
5.185357142857154e-003	-8.988641e-002	-7.745710e-002
5.194785714285726e-003	-8.815754e-002	-7.680887e-002
5.204214285714300e-003	-8.657247e-002	-7.621449e-002
5.213642857142872e-003	-8.513118e-002	-7.567396e-002
5.223071428571445e-003	-8.383369e-002	-7.518729e-002
5.232500000000018e-003	-8.267999e-002	-7.475448e-002
5.241928571428590e-003	-8.161618e-002	-7.435568e-002
5.251357142857163e-003	-8.062822e-002	-7.398529e-002
5.260785714285735e-003	-7.971610e-002	-7.364332e-002
5.270214285714309e-003	-7.887983e-002	-7.332976e-002
5.279642857142881e-003	-7.811940e-002	-7.304463e-002
5.289071428571454e-003	-7.743483e-002	-7.278790e-002
5.298500000000026e-003	-7.682610e-002	-7.255960e-002
5.307928571428599e-003	-7.626491e-002	-7.234915e-002
5.317357142857171e-003	-7.574373e-002	-7.215371e-002
5.326785714285744e-003	-7.526258e-002	-7.197328e-002
5.336214285714317e-003	-7.482143e-002	-7.180785e-002
5.345642857142890e-003	-7.442031e-002	-7.165742e-002
5.355071428571463e-003	-7.405919e-002	-7.152201e-002
5.364500000000035e-003	-7.373810e-002	-7.140160e-002
5.373928571428608e-003	-7.344204e-002	-7.129054e-002
5.383357142857180e-003	-7.316708e-002	-7.118740e-002
5.392785714285753e-003	-7.291322e-002	-7.109218e-002
5.402214285714326e-003	-7.268045e-002	-7.100489e-002
5.411642857142899e-003	-7.246879e-002	-7.092551e-002
5.421071428571471e-003	-7.227822e-002	-7.085406e-002
5.430500000000044e-003	-7.210875e-002	-7.079053e-002
5.439928571428616e-003	-7.195250e-002	-7.073199e-002
5.449357142857189e-003	-7.180741e-002	-7.067761e-002
5.458785714285762e-003	-7.167348e-002	-7.062739e-002
5.468214285714335e-003	-7.155069e-002	-7.058134e-002
5.477642857142907e-003	-7.143906e-002	-7.053946e-002
5.487071428571480e-003	-7.133858e-002	-7.050174e-002
5.496500000000053e-003	-7.124925e-002	-7.046819e-002
5.505928571428625e-003	-7.116695e-002	-7.043730e-002
5.515357142857198e-003	-7.109049e-002	-7.040862e-002
5.524785714285770e-003	-7.101987e-002	-7.038214e-002
5.534214285714344e-003	-7.095509e-002	-7.035785e-002
5.543642857142916e-003	-7.089614e-002	-7.033577e-002
5.553071428571489e-003	-7.084304e-002	-7.031588e-002
5.562500000000061e-003	-7.079577e-002	-7.029819e-002
5.571928571428634e-003	-7.075235e-002	-7.028189e-002
5.581357142857206e-003	-7.071201e-002	-7.026674e-002
5.590785714285779e-003	-7.067474e-002	-7.025277e-002
5.600214285714352e-003	-7.064054e-002	-7.023996e-002
5.609642857142925e-003	-7.060942e-002	-7.022832e-002
5.619071428571498e-003	-7.058137e-002	-7.021785e-002
5.628500000000070e-003	-7.055640e-002	-7.020855e-002
5.637928571428643e-003	-7.053354e-002	-7.019984e-002
5.647357142857215e-003	-7.051229e-002	-7.019178e-002
5.656785714285788e-003	-7.049266e-002	-7.018436e-002
5.666214285714361e-003	-7.047464e-002	-7.017758e-002
5.675642857142934e-003	-7.045824e-002	-7.017145e-002
5.685071428571506e-003	-7.044345e-002	-7.016596e-002
5.694500000000079e-003	-7.043028e-002	-7.016110e-002
5.703928571428651e-003	-7.041815e-002	-7.015654e-002
5.713357142857224e-003	-7.040689e-002	-7.015230e-002
5.722785714285797e-003	-7.039652e-002	-7.014839e-002
5.732214285714370e-003	-7.038701e-002	-7.014481e-002
5.741642857142943e-003	-7.037839e-002	-7.014157e-002
5.751071428571515e-003	-7.037064e-002	-7.013865e-002
5.760500000000088e-003	-7.036376e-002	-7.013607e-002
5.770071428571518e-003	-7.035737e-002	-7.013358e-002
5.779642857142948e-003	-7.035140e-002	-7.013128e-002
5.789214285714378e-003	-7.034586e-002	-7.012918e-002
5.798785714285807e-003	-7.034076e-002	-7.012727e-002
5.808357142857237e-003	-7.033607e-002	-7.012556e-002
5.817928571428667e-003	-7.033182e-002	-7.012404e-002
5.827500000000097e-003	-7.032800e-002	-7.012272e-002
5.837214285714384e-003	-7.032466e-002	-7.012132e-002
5.846928571428670e-003	-7.032155e-002	-7.012006e-002
5.856642857142958e-003	-7.031864e-002	-7.011894e-002
5.866357142857244e-003	-7.031595e-002	-7.011795e-002
5.876071428571532e-003	-7.031347e-002	-7.011710e-002
5.885785714285818e-003	-7.031121e-002	-7.011638e-002
5.895500000000106e-003	-7.030916e-002	-7.011580e-002
5.905500000000107e-003	-7.030738e-002	-7.011503e-002
5.915500000000108e-003	-7.030572e-002	-7.011433e-002
5.925500000000110e-003	-7.030417e-002	-7.011370e-002
5.935500000000111e-003	-7.030274e-002	-7.011316e-002
5.945500000000112e-003	-7.030143e-002	-7.011269e-002
5.955500000000114e-003	-7.030023e-002	-7.011230e-002
5.965500000000115e-003	-7.029915e-002	-7.011199e-002
5.976214285714402e-003	-7.029826e-002	-7.011160e-002
5.986928571428689e-003	-7.029743e-002	-7.011125e-002
5.997642857142977e-003	-7.029665e-002	-7.011094e-002
6.008357142857263e-003	-7.029594e-002	-7.011067e-002
6.019071428571551e-003	-7.029528e-002	-7.011043e-002
6.029785714285837e-003	-7.029468e-002	-7.011024e-002
6.040500000000125e-003	-7.029414e-002	-7.011008e-002
6.049928571428697e-003	-7.029368e-002	-7.010971e-002
6.059357142857270e-003	-7.029327e-002	-7.010942e-002
6.068785714285842e-003	-7.029289e-002	-7.010921e-002
6.078214285714416e-003	-7.029255e-002	-7.010907e-002
6.087642857142988e-003	-7.029224e-002	-7.010901e-002
6.097071428571561e-003	-7.029198e-002	-7.010903e-002
6.106500000000134e-003	-7.029176e-002	-7.010913e-002
6.107500000000134e-003	-7.029152e-002	-7.010913e-002
6.121214285714422e-003	-7.029131e-002	-7.010899e-002
6.134928571428709e-003	-7.029111e-002	-7.010886e-002
6.148642857142997e-003	-7.029091e-002	-7.010872e-002
6.162357142857284e-003	-7.029070e-002	-7.010858e-002
6.176071428571572e-003	-7.029050e-002	-7.010845e-002
6.189785714285859e-003	-7.029029e-002	-7.010831e-002
6.203500000000146e-003	-7.029009e-002	-7.010818e-002
6.221785714285863e-003	-7.028995e-002	-7.010818e-002
6.240071428571580e-003	-7.028982e-002	-7.010818e-002
6.258357142857296e-003	-7.028968e-002	-7.010818e-002
6.276642857143014e-003	-7.028954e-002	-7.010818e-002
6.294928571428730e-003	-7.028941e-002	-7.010818e-002
6.313214285714447e-003	-7.028927e-002	-7.010818e-002
6.331500000000163e-003	-7.028913e-002	-7.010818e-002
6.360357142857310e-003	-7.028916e-002	-7.010811e-002
6.389214285714457e-003	-7.028916e-002	-7.010804e-002
6.418071428571604e-003	-7.028915e-002	-7.010797e-002
6.446928571428750e-003	-7.028912e-002	-7.010790e-002
6.475785714285897e-003	-7.028906e-002	-7.010783e-002
6.504642857143044e-003	-7.028899e-002	-7.010777e-002
6.533500000000190e-003	-7.028890e-002	-7.010770e-002
6.614928571428772e-003	-7.028892e-002	-7.010770e-002
6.696357142857354e-003	-7.028893e-002	-7.010770e-002
6.777785714285937e-003	-7.028891e-002	-7.010770e-002
6.859214285714520e-003	-7.028888e-002	-7.010770e-002
6.940642857143102e-003	-7.028882e-002	-7.010770e-002
7.022071428571684e-003	-7.028875e-002	-7.010770e-002
7.103500000000266e-003	-7.028866e-002	-7.010770e-002
7.131500000000270e-003	-7.028866e-002	-7.010770e-002
8.155500000000107e-003	-7.028842e-002	-7.010722e-002
9.179499999999355e-003	-7.028818e-002	-7.010698e-002
1.020349999999860e-002	-7.028794e-002	-7.010698e-002
1.122749999999785e-002	-7.028794e-002	-7.010698e-002
1.225149999999710e-002	-7.028794e-002	-7.010674e-002
1.327549999999635e-002	-7.028794e-002	-7.010674e-002
1.429949999999559e-002	-7.028794e-002	-7.010674e-002
1.532349999999484e-002	-7.028794e-002	-7.010674e-002
1.634749999999534e-002	-7.028770e-002	-7.010674e-002
1.737149999999637e-002	-7.028770e-002	-7.010674e-002
1.839549999999739e-002	-7.028770e-002	-7.010674e-002
1.941949999999841e-002	-7.028770e-002	-7.010674e-002
2.044349999999944e-002	-7.028770e-002	-7.010674e-002
2.146750000000046e-002	-7.028770e-002	-7.010674e-002
2.249150000000149e-002	-7.028770e-002	-7.010674e-002
2.351550000000251e-002	-7.028770e-002	-7.010674e-002
2.453950000000353e-002	-7.028770e-002	-7.010674e-002
2.500000000000000e-002	-7.028770e-002	-7.010674e-002
2.500002000000000e-002	-7.027364e-002	-7.010126e-002
2.500014000000000e-002	-7.018948e-002	-7.006967e-002
2.500020000000000e-002	-7.014763e-002	-7.005405e-002
2.500034400000000e-002	-7.004632e-002	-7.001616e-002
2.500048800000000e-002	-6.994445e-002	-6.997798e-002
2.500063200000000e-002	-6.984202e-002	-6.993952e-002
2.500077600000000e-002	-6.973904e-002	-6.990078e-002
2.500092000000000e-002	-6.963551e-002	-6.986175e-002
2.500106399999999e-002	-6.953142e-002	-6.982244e-002
2.500120799999999e-002	-6.942677e-002	-6.978285e-002
2.500320800000000e-002	-6.803572e-002	-6.926060e-002
2.500620800000000e-002	-6.602490e-002	-6.850660e-002
2.501135085714286e-002	-6.272835e-002	-6.727046e-002
2.501649371428572e-002	-5.957379e-002	-6.608757e-002
2.502163657142859e-002	-5.656123e-002	-6.495793e-002
2.502677942857145e-002	-5.369065e-002	-6.388153e-002
2.503192228571431e-002	-5.096206e-002	-6.285837e-002
2.503706514285717e-002	-4.837547e-002	-6.188846e-002
2.504220800000004e-002	-4.593086e-002	-6.097180e-002
2.504463657142861e-002	-4.481146e-002	-6.055202e-002
2.504706514285718e-002	-4.371649e-002	-6.014142e-002
2.504949371428576e-002	-4.264596e-002	-5.973999e-002
2.505192228571433e-002	-4.159987e-002	-5.934773e-002
2.505435085714291e-002	-4.057822e-002	-5.896465e-002
2.505677942857148e-002	-3.958100e-002	-5.859073e-002
2.505920800000005e-002	-3.860822e-002	-5.822599e-002
2.506120800000005e-002	-3.782286e-002	-5.793148e-002
2.506220800000006e-002	-3.743581e-002	-5.778635e-002
2.506320800000006e-002	-3.705246e-002	-5.764261e-002
2.506420800000006e-002	-3.667278e-002	-5.750024e-002
2.506520800000006e-002	-3.629673e-002	-5.735922e-002
2.506720800000006e-002	-3.555540e-002	-5.708122e-002
2.506963657142863e-002	-3.467529e-002	-5.675122e-002
2.507206514285721e-002	-3.381437e-002	-5.642840e-002
2.507449371428578e-002	-3.297262e-002	-5.611278e-002
2.507692228571436e-002	-3.215007e-002	-5.580434e-002
2.507935085714293e-002	-3.134669e-002	-5.550309e-002
2.508177942857150e-002	-3.056250e-002	-5.520903e-002
2.508420800000008e-002	-2.979749e-002	-5.492216e-002
2.509135085714294e-002	-2.766640e-002	-5.412307e-002
2.509849371428580e-002	-2.565584e-002	-5.336917e-002
2.510563657142867e-002	-2.376582e-002	-5.266046e-002
2.511277942857153e-002	-2.199634e-002	-5.199693e-002
2.511992228571440e-002	-2.034739e-002	-5.137859e-002
2.512706514285726e-002	-1.881898e-002	-5.080544e-002
2.513420800000013e-002	-1.741111e-002	-5.027747e-002
2.514135085714299e-002	-1.609042e-002	-4.978232e-002
2.514849371428585e-002	-1.484397e-002	-4.931498e-002
2.515563657142872e-002	-1.367176e-002	-4.887545e-002
2.516277942857158e-002	-1.257379e-002	-4.846374e-002
2.516992228571445e-002	-1.155007e-002	-4.807984e-002
2.517706514285731e-002	-1.060058e-002	-4.772375e-002
2.518420800000018e-002	-9.725332e-003	-4.739547e-002
2.518620800000018e-002	-9.487152e-003	-4.730654e-002
2.518817828571444e-002	-9.256436e-003	-4.721997e-002
2.519014857142870e-002	-9.030293e-003	-4.713514e-002
2.519211885714296e-002	-8.808725e-003	-4.705204e-002
2.519408914285722e-002	-8.591730e-003	-4.697067e-002
2.519605942857148e-002	-8.379309e-003	-4.689103e-002
2.519802971428574e-002	-8.171461e-003	-4.681313e-002
2.520000000000000e-002	-7.968187e-003	-4.673696e-002
2.520010000000000e-002	-8.028269e-003	-4.675961e-002
2.520070000000000e-002	-8.395195e-003	-4.689741e-002
2.520710000000001e-002	-1.205974e-002	-4.827201e-002
2.521350000000001e-002	-1.553155e-002	-4.957423e-002
2.521990000000002e-002	-1.881062e-002	-5.080407e-002
2.522630000000002e-002	-2.189695e-002	-5.196152e-002
2.523270000000003e-002	-2.479054e-002	-5.304659e-002
2.523910000000004e-002	-2.749138e-002	-5.405928e-002
2.524550000000004e-002	-2.999949e-002	-5.499959e-002
2.525492857142862e-002	-3.340879e-002	-5.627805e-002
2.526435714285720e-002	-3.657500e-002	-5.746534e-002
2.527378571428578e-002	-3.949812e-002	-5.856148e-002
2.528321428571437e-002	-4.217815e-002	-5.956644e-002
2.529264285714295e-002	-4.461509e-002	-6.048025e-002
2.530207142857153e-002	-4.680894e-002	-6.130289e-002
2.531150000000011e-002	-4.875970e-002	-6.203437e-002
2.532092857142869e-002	-5.055837e-002	-6.270874e-002
2.533035714285727e-002	-5.222878e-002	-6.333505e-002
2.533978571428585e-002	-5.377093e-002	-6.391332e-002
2.534921428571443e-002	-5.518482e-002	-6.444353e-002
2.535864285714301e-002	-5.647045e-002	-6.492568e-002
2.536807142857159e-002	-5.762782e-002	-6.535978e-002
2.537750000000017e-002	-5.865693e-002	-6.574583e-002
2.538692857142876e-002	-5.960591e-002	-6.610156e-002
2.539635714285734e-002	-6.048721e-002	-6.643195e-002
2.540578571428592e-002	-6.130081e-002	-6.673698e-002
2.541521428571450e-002	-6.204672e-002	-6.701666e-002
2.542464285714308e-002	-6.272494e-002	-6.727099e-002
2.543407142857166e-002	-6.333546e-002	-6.749997e-002
2.544350000000024e-002	-6.387830e-002	-6.770360e-002
2.545292857142882e-002	-6.437900e-002	-6.789140e-002
2.546235714285740e-002	-6.484399e-002	-6.806580e-002
2.547178571428598e-002	-6.527327e-002	-6.822680e-002
2.548121428571457e-002	-6.566683e-002	-6.837440e-002
2.549064285714315e-002	-6.602467e-002	-6.850860e-002
2.550007142857173e-002	-6.634681e-002	-6.862939e-002
2.550950000000031e-002	-6.663322e-002	-6.873679e-002
2.551535714285745e-002	-6.680170e-002	-6.879997e-002
2.552121428571461e-002	-6.696205e-002	-6.886009e-002
2.552707142857175e-002	-6.711426e-002	-6.891717e-002
2.553292857142890e-002	-6.725833e-002	-6.897121e-002
2.553878571428605e-002	-6.739427e-002	-6.902220e-002
2.554464285714320e-002	-6.752207e-002	-6.907014e-002
2.555050000000035e-002	-6.764174e-002	-6.911504e-002
2.555150000000035e-002	-6.766164e-002	-6.912255e-002
2.556092857142893e-002	-6.783747e-002	-6.918836e-002
2.557035714285751e-002	-6.800076e-002	-6.924950e-002
2.557978571428609e-002	-6.815150e-002	-6.930599e-002
2.558921428571467e-002	-6.828970e-002	-6.935781e-002
2.559864285714325e-002	-6.841535e-002	-6.940497e-002
2.560807142857183e-002	-6.852846e-002	-6.944747e-002
2.561750000000041e-002	-6.862903e-002	-6.948531e-002
2.562692857142900e-002	-6.872181e-002	-6.952012e-002
2.563635714285758e-002	-6.880797e-002	-6.955245e-002
2.564578571428616e-002	-6.888750e-002	-6.958230e-002
2.565521428571474e-002	-6.896041e-002	-6.960966e-002
2.566464285714332e-002	-6.902669e-002	-6.963455e-002
2.567407142857190e-002	-6.908634e-002	-6.965695e-002
2.568350000000048e-002	-6.913936e-002	-6.967688e-002
2.569292857142906e-002	-6.918842e-002	-6.969512e-002
2.570235714285764e-002	-6.923395e-002	-6.971210e-002
2.571178571428622e-002	-6.927596e-002	-6.972780e-002
2.572121428571481e-002	-6.931445e-002	-6.974222e-002
2.573064285714339e-002	-6.934941e-002	-6.975537e-002
2.574007142857197e-002	-6.938086e-002	-6.976725e-002
2.574950000000055e-002	-6.940877e-002	-6.977785e-002
2.575892857142913e-002	-6.943462e-002	-6.978747e-002
2.576835714285771e-002	-6.945862e-002	-6.979643e-002
2.577778571428629e-002	-6.948077e-002	-6.980471e-002
2.578721428571487e-002	-6.950107e-002	-6.981232e-002
2.579664285714345e-002	-6.951952e-002	-6.981927e-002
2.580607142857203e-002	-6.953612e-002	-6.982553e-002
2.581550000000061e-002	-6.955087e-002	-6.983113e-002
2.582492857142919e-002	-6.956452e-002	-6.983625e-002
2.583435714285777e-002	-6.957720e-002	-6.984101e-002
2.584378571428635e-002	-6.958890e-002	-6.984540e-002
2.585321428571494e-002	-6.959963e-002	-6.984944e-002
2.586264285714352e-002	-6.960938e-002	-6.985311e-002
2.587207142857210e-002	-6.961816e-002	-6.985643e-002
2.588150000000068e-002	-6.962597e-002	-6.985939e-002
2.589107142857212e-002	-6.963327e-002	-6.986207e-002
2.590064285714356e-002	-6.964005e-002	-6.986457e-002
2.591021428571499e-002	-6.964629e-002	-6.986688e-002
2.591978571428643e-002	-6.965201e-002	-6.986901e-002
2.592935714285787e-002	-6.965721e-002	-6.987095e-002
2.593892857142931e-002	-6.966188e-002	-6.987271e-002
2.594850000000075e-002	-6.966603e-002	-6.987429e-002
2.595821428571504e-002	-6.967001e-002	-6.987578e-002
2.596792857142934e-002	-6.967366e-002	-6.987717e-002
2.597764285714363e-002	-6.967700e-002	-6.987845e-002
2.598735714285793e-002	-6.968001e-002	-6.987963e-002
2.599707142857222e-002	-6.968271e-002	-6.988070e-002
2.600678571428652e-002	-6.968508e-002	-6.988166e-002
2.601650000000081e-002	-6.968713e-002	-6.988251e-002
2.602650000000082e-002	-6.968918e-002	-6.988325e-002
2.603650000000083e-002	-6.969109e-002	-6.988395e-002
2.604650000000084e-002	-6.969286e-002	-6.988459e-002
2.605650000000085e-002	-6.969448e-002	-6.988519e-002
2.606650000000086e-002	-6.969595e-002	-6.988574e-002
2.607650000000087e-002	-6.969727e-002	-6.988623e-002
2.608650000000088e-002	-6.969845e-002	-6.988668e-002
2.609707142857232e-002	-6.969960e-002	-6.988710e-002
2.610764285714376e-002	-6.970064e-002	-6.988748e-002
2.611821428571520e-002	-6.970159e-002	-6.988783e-002
2.612878571428664e-002	-6.970244e-002	-6.988815e-002
2.613935714285808e-002	-6.970320e-002	-6.988845e-002
2.614992857142952e-002	-6.970385e-002	-6.988871e-002
2.616050000000096e-002	-6.970441e-002	-6.988895e-002
2.617207142857240e-002	-6.970502e-002	-6.988917e-002
